[145000] M[0] WR: addr=0x00000040 len=0 id=5
[145000] S2M[M0] R: RSELECT=0xf RGRANT=0x0 rgrant_d=0x0 S_RVALID=0x0 M_RREADY=0 M_RVALID=0
[155000] S2M[M0] R: RSELECT=0xf RGRANT=0x0 rgrant_d=0x0 S_RVALID=0x0 M_RREADY=0 M_RVALID=0
[165000] S2M[M0] R: RSELECT=0xf RGRANT=0x0 rgrant_d=0x0 S_RVALID=0x0 M_RREADY=0 M_RVALID=0
[175000] S2M[M0] R: RSELECT=0xf RGRANT=0x0 rgrant_d=0x0 S_RVALID=0x0 M_RREADY=0 M_RVALID=0
[185000] M[0] WR BRESP: id=5 resp=0
[185000] M[0] RD: addr=0x00000040 len=0 id=5
[185000] S2M[M0] R: RSELECT=0xf RGRANT=0x0 rgrant_d=0x0 S_RVALID=0x0 M_RREADY=0 M_RVALID=0
[195000] AR_HANDLER[S0]: enqueue ARID=0x5 ARADDR=0x00000040 ARLEN=0 total=1 wr_ptr=1 q_cnt=1
[195000] R_HANDLER[S0]: DEQUEUE RID=0x5 addr=0x00000040 word_idx=16 total=1 mem_data=0x00400040 rlast=1 rready=0 q_cnt=0
[195000] S2M[M0] R: RSELECT=0xf RGRANT=0x0 rgrant_d=0x0 S_RVALID=0x0 M_RREADY=0 M_RVALID=0
[205000] M[0] RD beat[0]: data=0x00400040 resp=0 last=1
[205000] TEST1: RDATA[0] = 0x00400040
 
[205000] M[0] WR: addr=0x00001040 len=0 id=5
[205000] S2M[M0] R: -> MASTER RID=0x5 RDATA=0x00400040 RLAST=1
[205000] S2M[M0] R: RSELECT=0xf RGRANT=0x1 rgrant_d=0x0 S_RVALID=0x1 M_RREADY=1 M_RVALID=1
[215000] S2M[M0] R: RSELECT=0xf RGRANT=0x1 rgrant_d=0x1 S_RVALID=0x1 M_RREADY=0 M_RVALID=1
[225000] S2M[M0] R: RSELECT=0xf RGRANT=0x1 rgrant_d=0x1 S_RVALID=0x1 M_RREADY=0 M_RVALID=1
[235000] M[0] WR BRESP: id=5 resp=0
[235000] M[0] RD: addr=0x00001040 len=0 id=5
[235000] S2M[M0] R: RSELECT=0xf RGRANT=0x1 rgrant_d=0x1 S_RVALID=0x1 M_RREADY=0 M_RVALID=1
[245000] AR_HANDLER[S1]: enqueue ARID=0x5 ARADDR=0x00001040 ARLEN=0 total=1 wr_ptr=1 q_cnt=1
[245000] R_HANDLER[S1]: DEQUEUE RID=0x5 addr=0x00001040 word_idx=16 total=1 mem_data=0x10400040 rlast=1 rready=0 q_cnt=0
[245000] S2M[M0] R: RSELECT=0xf RGRANT=0x1 rgrant_d=0x1 S_RVALID=0x1 M_RREADY=0 M_RVALID=1
[255000] R_HANDLER[S0]: LAST beat[0/1] done
[255000] M[0] RD beat[0]: data=0x10400040 resp=0 last=1
[255000] TEST1: RDATA[0] = 0x10400040
 
[255000] M[0] WR: addr=0x00002040 len=0 id=5
[255000] S2M[M0] R: -> MASTER RID=0x5 RDATA=0x10400040 RLAST=1
[255000] S2M[M0] R: RSELECT=0xf RGRANT=0x2 rgrant_d=0x1 S_RVALID=0x3 M_RREADY=1 M_RVALID=1
[255000] S2M[M0] R: slave[0] handshake RID=0x5 RDATA=0x00400040 RLAST=1 RRESP=0
[265000] S2M[M0] R: RSELECT=0xf RGRANT=0x2 rgrant_d=0x2 S_RVALID=0x2 M_RREADY=0 M_RVALID=1
[275000] S2M[M0] R: RSELECT=0xf RGRANT=0x2 rgrant_d=0x2 S_RVALID=0x2 M_RREADY=0 M_RVALID=1
[285000] M[0] WR BRESP: id=5 resp=0
[285000] M[0] RD: addr=0x00002040 len=0 id=5
[285000] S2M[M0] R: RSELECT=0xf RGRANT=0x2 rgrant_d=0x2 S_RVALID=0x2 M_RREADY=0 M_RVALID=1
[295000] AR_HANDLER[S2]: enqueue ARID=0x5 ARADDR=0x00002040 ARLEN=0 total=1 wr_ptr=1 q_cnt=1
[295000] R_HANDLER[S2]: DEQUEUE RID=0x5 addr=0x00002040 word_idx=16 total=1 mem_data=0x20400040 rlast=1 rready=0 q_cnt=0
[295000] S2M[M0] R: RSELECT=0xf RGRANT=0x2 rgrant_d=0x2 S_RVALID=0x2 M_RREADY=0 M_RVALID=1
[305000] R_HANDLER[S1]: LAST beat[0/1] done
[305000] M[0] RD beat[0]: data=0x10400040 resp=0 last=1
[305000] TEST1: RDATA[0] = 0x10400040
[305000] ERROR: S2 mismatch! got=0x10400040 exp=0x20400040
 
[305000] M[0] WR: addr=0x00003040 len=0 id=5
[305000] S2M[M0] R: -> MASTER RID=0x5 RDATA=0x10400040 RLAST=1
[305000] S2M[M0] R: RSELECT=0xf RGRANT=0x2 rgrant_d=0x2 S_RVALID=0x6 M_RREADY=1 M_RVALID=1
[305000] S2M[M0] R: slave[1] handshake RID=0x5 RDATA=0x10400040 RLAST=1 RRESP=0
[315000] S2M[M0] R: RSELECT=0xf RGRANT=0x4 rgrant_d=0x2 S_RVALID=0x4 M_RREADY=0 M_RVALID=1
[325000] S2M[M0] R: RSELECT=0xf RGRANT=0x4 rgrant_d=0x2 S_RVALID=0x4 M_RREADY=0 M_RVALID=1
[335000] M[0] WR BRESP: id=5 resp=0
[335000] M[0] RD: addr=0x00003040 len=0 id=5
[335000] S2M[M0] R: RSELECT=0xf RGRANT=0x4 rgrant_d=0x2 S_RVALID=0x4 M_RREADY=0 M_RVALID=1
[345000] AR_HANDLER[S3]: enqueue ARID=0x5 ARADDR=0x00003040 ARLEN=0 total=1 wr_ptr=1 q_cnt=1
[345000] R_HANDLER[S3]: DEQUEUE RID=0x5 addr=0x00003040 word_idx=16 total=1 mem_data=0x30400040 rlast=1 rready=0 q_cnt=0
[345000] S2M[M0] R: RSELECT=0xf RGRANT=0x4 rgrant_d=0x2 S_RVALID=0x4 M_RREADY=0 M_RVALID=1
[355000] M[0] RD beat[0]: data=0x20400040 resp=0 last=1
[355000] TEST1: RDATA[0] = 0x20400040
[355000] ERROR: S3 mismatch! got=0x20400040 exp=0x30400040
