module axi_s2m_s_amt
#(
    parameter MASTER_ID       = 0,
    parameter W_CID           = 4,
    parameter W_ID            = 6,
    parameter W_ADDR          = 32,
    parameter W_DATA          = 32,
    parameter W_STRB          = (W_DATA/8),
    parameter W_SID           = W_CID + W_ID,
    parameter MST_AMT         = 4,
    parameter SLV_AMT         = 4,
    parameter MST_ID_FIELD_MSB = W_SID-1,
    parameter MST_ID_FIELD_LSB = W_ID
)
(
    input  wire                      AXI_RSTn,
    input  wire                      AXI_CLK,
    
    // Master side ports (single master)
    output reg   [W_SID-1:0]         M_BID,
    output reg   [1:0]               M_BRESP,
    output reg                       M_BVALID,
    input  wire                      M_BREADY,
    
    output reg   [W_SID-1:0]         M_RSID,
    output reg   [W_DATA-1:0]        M_RDATA,
    output reg   [1:0]               M_RRESP,
    output reg                       M_RLAST,
    output reg                       M_RVALID,
    input  wire                      M_RREADY,
    
    // Slave side ports (packed)
    input  wire  [W_SID*SLV_AMT-1:0]  S_BID,
    input  wire  [2*SLV_AMT-1:0]      S_BRESP,
    input  wire  [SLV_AMT-1:0]        S_BVALID,
    output wire  [SLV_AMT-1:0]        S_BREADY,
    
    input  wire  [W_SID*SLV_AMT-1:0]  S_RID,
    input  wire  [W_DATA*SLV_AMT-1:0] S_RDATA,
    input  wire  [2*SLV_AMT-1:0]      S_RRESP,
    input  wire  [SLV_AMT-1:0]        S_RLAST,
    input  wire  [SLV_AMT-1:0]        S_RVALID,
    output wire  [SLV_AMT-1:0]        S_RREADY,
    
    input  wire  [SLV_AMT-1:0]        r_order_grant,
    input  wire                       arbiter_type
);

localparam MST_ID_W = $clog2(MST_AMT);
localparam NUM = SLV_AMT;

// Unpack slave arrays
wire [W_SID-1:0]   s_bid      [0:SLV_AMT-1];
wire [1:0]         s_bresp    [0:SLV_AMT-1];
wire               s_bvalid   [0:SLV_AMT-1];
wire               s_bready   [0:SLV_AMT-1];

wire [W_SID-1:0]   s_rid      [0:SLV_AMT-1];
wire [W_DATA-1:0]  s_rdata    [0:SLV_AMT-1];
wire [1:0]         s_rresp    [0:SLV_AMT-1];
wire               s_rlast    [0:SLV_AMT-1];
wire               s_rvalid   [0:SLV_AMT-1];
wire               s_rready   [0:SLV_AMT-1];

genvar si;
generate
    for(si = 0; si < SLV_AMT; si = si + 1) begin : UNPACK
        assign s_bid[si]    = S_BID[W_SID*si +: W_SID];
        assign s_bresp[si]  = S_BRESP[2*si +: 2];
        assign s_bvalid[si] = S_BVALID[si];
        assign S_BREADY[si] = s_bready[si];
        
        assign s_rid[si]    = S_RID[W_SID*si +: W_SID];
        assign s_rdata[si]  = S_RDATA[W_DATA*si +: W_DATA];
        assign s_rresp[si]  = S_RRESP[2*si +: 2];
        assign s_rlast[si]  = S_RLAST[si];
        assign s_rvalid[si] = S_RVALID[si];
        assign S_RREADY[si] = s_rready[si];
    end
endgenerate

// Extract master index from ID
// ID format: {mst_idx[MST_ID_W-1:0], original_ID[W_ID-1:0]}
wire [MST_ID_W-1:0] s_bid_mst_idx [0:SLV_AMT-1];
wire [MST_ID_W-1:0] s_rid_mst_idx [0:SLV_AMT-1];
generate
    for(si = 0; si < SLV_AMT; si = si + 1) begin : DECODE
        assign s_bid_mst_idx[si] = s_bid[si][MST_ID_FIELD_MSB:MST_ID_FIELD_LSB];
        assign s_rid_mst_idx[si] = s_rid[si][MST_ID_FIELD_MSB:MST_ID_FIELD_LSB];
    end
endgenerate

// Select logic
wire [SLV_AMT-1:0] BSELECT, RSELECT, RSELECT_in;
generate
    for(si = 0; si < SLV_AMT; si = si + 1) begin : SELECT
        assign BSELECT[si] = (s_bid_mst_idx[si] == MASTER_ID);
        assign RSELECT[si] = (s_rid_mst_idx[si] == MASTER_ID);
        assign RSELECT_in[si] = RSELECT[si] & r_order_grant[si];
    end
endgenerate

// Arbitration
wire [SLV_AMT-1:0] BGRANT, RGRANT;
axi_arbiter_param_rr #(.NUM(SLV_AMT)) u_arb_b (
    .clk(AXI_CLK), .rst_n(AXI_RSTn), .arbiter_type(arbiter_type),
    .req(BSELECT & {S_BVALID[SLV_AMT-1:0]}), .grant(BGRANT)
);
axi_arbiter_param_rr #(.NUM(SLV_AMT)) u_arb_r (
    .clk(AXI_CLK), .rst_n(AXI_RSTn), .arbiter_type(arbiter_type),
    .req(RSELECT_in & {S_RVALID[SLV_AMT-1:0]}), .grant(RGRANT)
);

// Delayed grants with handshake-hold: grant only advances when M-side handshake completes
// This aligns S_BREADY routing with M_BREADY timing (which is NBA-delayed by 1 cycle)
reg [SLV_AMT-1:0] bgrant_d;
reg [SLV_AMT-1:0] rgrant_d;
always @(posedge AXI_CLK) begin
    if (!AXI_RSTn) begin
        bgrant_d <= '0;
        rgrant_d <= '0;
    end else begin
        // B grant: advance when idle, handshake completes, or M-side goes quiet
        if (|bgrant_d == 0 || !M_BVALID)
            bgrant_d <= BGRANT;
        else if (M_BREADY && M_BVALID)
            bgrant_d <= BGRANT;

        // R grant: same hold mechanism
        if (|rgrant_d == 0 || !M_RVALID)
            rgrant_d <= RGRANT;
        else if (M_RREADY && M_RVALID)
            rgrant_d <= RGRANT;
    end
end

// Pack bus for muxing
localparam NUM_B_WIDTH = W_SID + 2 + 1;
localparam NUM_R_WIDTH = W_SID + W_DATA + 2 + 1 + 1;
wire [NUM_B_WIDTH-1:0] bus_b [0:SLV_AMT-1];
wire [NUM_R_WIDTH-1:0] bus_r [0:SLV_AMT-1];
generate
    for(si = 0; si < SLV_AMT; si = si + 1) begin : PACK
        assign bus_b[si] = {s_bid[si], s_bresp[si], s_bvalid[si]};
        assign bus_r[si] = {s_rid[si], s_rdata[si], s_rresp[si], s_rlast[si], s_rvalid[si]};
    end
endgenerate

`define M_BBUS {M_BID[W_SID-1:0], M_BRESP, M_BVALID}
// M-side data mux: use combinational BGRANT for immediate M_BVALID assertion
always @(*) begin
    `M_BBUS = 0;
    for(int i = 0; i < SLV_AMT; i++) if(BGRANT[i]) `M_BBUS = bus_b[i];
end

`define M_RBUS {M_RSID, M_RDATA, M_RRESP, M_RLAST, M_RVALID}
always @(*) begin
    `M_RBUS = 0;
    for(int i = 0; i < SLV_AMT; i++) if(RGRANT[i]) `M_RBUS = bus_r[i];
end

// S-side ready: use held grant to align with M_BREADY/M_RREADY timing
generate
    for(si = 0; si < SLV_AMT; si = si + 1) begin : READY_GEN
        assign s_bready[si] = bgrant_d[si] & M_BREADY;
        assign s_rready[si] = rgrant_d[si] & M_RREADY;
    end
endgenerate

endmodule

module axi_arbiter_param_rr #(
    parameter NUM = 4
)(
    input  wire              clk,
    input  wire              rst_n,
    input  wire              arbiter_type, // 0: RR, 1: Fixed
    input  wire [NUM-1:0]    req,
    output wire [NUM-1:0]    grant
);
    localparam PTR_W = (NUM > 1) ? $clog2(NUM) : 1;

    reg  [PTR_W-1:0] rr_ptr;      // Points to next priority start index
    wire [NUM-1:0]   grant_nxt;
    wire [NUM-1:0]   fixed_grant;

    // ---------------------------------------------------------
    // Priority Encoder: Returns one-hot of the lowest index '1'
    // ---------------------------------------------------------
    function automatic [NUM-1:0] pri_enc;
        input [NUM-1:0] mask;
        integer i;
        begin
            pri_enc = {NUM{1'b0}};
            for(i = 0; i < NUM; i = i + 1) begin
                if(mask[i]) begin
                    pri_enc = 1'b1 << i;
                    break;
                end
            end
        end
    endfunction

    // ---------------------------------------------------------
    // Fixed Priority
    // ---------------------------------------------------------
    assign fixed_grant = pri_enc(req);

    // ---------------------------------------------------------
    // Round Robin Logic (if NUM > 1)
    // ---------------------------------------------------------
    generate
        if (NUM > 1) begin : rr_gen
            // Rotate request vector so that rr_ptr becomes logical index 0
            wire [2*NUM-1:0] req_rot = {req, req} >> rr_ptr;
            wire [NUM-1:0]   pri_rot = pri_enc(req_rot[NUM-1:0]);

            // Convert rotated one-hot back to absolute winner index
            reg [PTR_W-1:0] winner_idx;
            always @(*) begin
                winner_idx = 0;
                for(int i = 0; i < NUM; i = i + 1) begin
                    if(pri_rot[i]) begin
                        winner_idx = i[PTR_W-1:0];
                        break;
                    end
                end
            end

            // Map back to absolute one-hot grant
            assign grant_nxt = (|req) ? (1'b1 << ((winner_idx + rr_ptr) % NUM)) : {NUM{1'b0}};

            // RR Pointer Update
            always @(posedge clk) begin
                if(!rst_n) begin
                    rr_ptr <= {PTR_W{1'b0}};
                end else if(grant != 0) begin
                    rr_ptr <= (winner_idx + 1'b1) % NUM;
                end
            end
        end else begin : single_requester
            // When only one requester, grant is simply the request
            assign grant_nxt = req;
            // rr_ptr unused, tie to 0
            always @(posedge clk) begin
                if(!rst_n) rr_ptr <= 0;
                else rr_ptr <= 0;
            end
        end
    endgenerate

    // Output MUX
    assign grant = (arbiter_type) ? fixed_grant : grant_nxt;

endmodule

//=============================================================================
// Testbench: axi_s2m_s_amt_tb
// Desc     : Testbench for axi_s2m_s_amt (slave-to-master response mux)
//=============================================================================

module axi_s2m_tb;

    //=========================================================================
    // Parameters (matching crossbar config)
    //=========================================================================
    localparam MST_AMT         = 3;
    localparam SLV_AMT         = 3;
    localparam W_CID           = 2;
    localparam W_ID            = 6;
    localparam W_ADDR          = 32;
    localparam W_DATA          = 32;
    localparam W_STRB          = W_DATA / 8;
    localparam W_SID           = W_CID + W_ID;           // 10
    localparam MST_ID_W        = $clog2(MST_AMT);       // 2
    localparam MST_ID_FIELD_MSB = W_SID - 1;             // 9
    localparam MST_ID_FIELD_LSB = W_ID;                  // 6
    localparam NUM_B_WIDTH     = W_SID + 2 + 1;          // 13
    localparam NUM_R_WIDTH     = W_SID + W_DATA + 2 + 1 + 1; // 46

    //=========================================================================
    // Clock and Reset
    //=========================================================================
    reg         clk;
    reg         rst_n;

    //=========================================================================
    // DUT Master-Side Signals
    //=========================================================================
    wire [W_SID-1:0]   M_BID;
    wire [1:0]         M_BRESP;
    wire               M_BVALID;
    reg                M_BREADY;

    wire [W_SID-1:0]   M_RSID;
    wire [W_DATA-1:0]  M_RDATA;
    wire [1:0]         M_RRESP;
    wire               M_RLAST;
    wire               M_RVALID;
    reg                M_RREADY;

    //=========================================================================
    // DUT Slave-Side Signals (flattened)
    //=========================================================================
    reg  [W_SID*SLV_AMT-1:0]   S_BID;
    reg  [2*SLV_AMT-1:0]       S_BRESP;
    reg  [SLV_AMT-1:0]         S_BVALID;
    wire [SLV_AMT-1:0]         S_BREADY;

    reg  [W_SID*SLV_AMT-1:0]   S_RID;
    reg  [W_DATA*SLV_AMT-1:0]  S_RDATA;
    reg  [2*SLV_AMT-1:0]       S_RRESP;
    reg  [SLV_AMT-1:0]         S_RLAST;
    reg  [SLV_AMT-1:0]         S_RVALID;
    wire [SLV_AMT-1:0]         S_RREADY;

    //=========================================================================
    // DUT Control Signals
    //=========================================================================
    reg  [SLV_AMT-1:0]   r_order_grant;
    reg                  arbiter_type;

    //=========================================================================
    // Instantiate DUT (MASTER_ID=0: routes responses destined for master 0)
    //=========================================================================
    axi_s2m_s_amt #(
        .MASTER_ID        (0),
        .W_CID            (W_CID),
        .W_ID             (W_ID),
        .W_ADDR           (W_ADDR),
        .W_DATA           (W_DATA),
        .W_STRB           (W_STRB),
        .W_SID            (W_SID),
        .MST_AMT          (MST_AMT),
        .SLV_AMT          (SLV_AMT),
        .MST_ID_FIELD_MSB (MST_ID_FIELD_MSB),
        .MST_ID_FIELD_LSB (MST_ID_FIELD_LSB)
    ) u_dut (
        .AXI_RSTn       (rst_n),
        .AXI_CLK        (clk),

        .M_BID          (M_BID),
        .M_BRESP        (M_BRESP),
        .M_BVALID       (M_BVALID),
        .M_BREADY       (M_BREADY),

        .M_RSID         (M_RSID),
        .M_RDATA        (M_RDATA),
        .M_RRESP        (M_RRESP),
        .M_RLAST        (M_RLAST),
        .M_RVALID       (M_RVALID),
        .M_RREADY       (M_RREADY),

        .S_BID          (S_BID),
        .S_BRESP        (S_BRESP),
        .S_BVALID       (S_BVALID),
        .S_BREADY       (S_BREADY),

        .S_RID          (S_RID),
        .S_RDATA        (S_RDATA),
        .S_RRESP        (S_RRESP),
        .S_RLAST        (S_RLAST),
        .S_RVALID       (S_RVALID),
        .S_RREADY       (S_RREADY),

        .r_order_grant  (r_order_grant),
        .arbiter_type   (arbiter_type)
    );

    //=========================================================================
    // Clock: 100MHz, 10ns period
    //=========================================================================
    initial clk = 0;
    always #5 clk = ~clk;

    //=========================================================================
    // Reset
    //=========================================================================
    initial begin
        rst_n = 0;
        #100;
        rst_n = 1;
    end

    //=========================================================================
    // Default signal initialization
    //=========================================================================
    initial begin
        M_BREADY     = 1'b0;
        M_RREADY     = 1'b0;
        S_BID        = '0;
        S_BRESP      = '0;
        S_BVALID     = '0;
        S_RID        = '0;
        S_RDATA      = '0;
        S_RRESP      = '0;
        S_RLAST      = '0;
        S_RVALID     = '0;
        r_order_grant = {SLV_AMT{1'b1}};  // All slaves allowed
        arbiter_type  = 1'b0;             // Round-robin
    end

    //=========================================================================
    // Helper: Build SID for a given master
    // SID format: {mst_idx[MST_ID_W-1:0], original_ID[W_ID-1:0]}
    // SID[9:6] = mst_idx, SID[5:0] = original_ID
    //=========================================================================
    function automatic [W_SID-1:0] make_sid;
        input [MST_ID_W-1:0] mst_id;
        input [W_ID-1:0]     orig_id;
        begin
            make_sid = {mst_id, orig_id};
        end
    endfunction

    //=========================================================================
    // Slave BFM: Send B response from a slave
    //=========================================================================
    task automatic slv_send_b(
        input int               slv_id,
        input [W_ID-1:0]        orig_id,
        input [MST_ID_W-1:0]    dst_mst,   // destination master
        input [1:0]             bresp
    );
        reg [W_SID-1:0] sid;
        begin
            sid = make_sid(dst_mst, orig_id);
            $display("[%0t] SLV[%0d] B: sid=0x%03x dst_mst=%0d id=%0d resp=%0d",
                     $time, slv_id, sid, dst_mst, orig_id, bresp);

            S_BID[W_SID*(slv_id+1)-1 -: W_SID] <= sid;
            S_BRESP[2*(slv_id+1)-1 -: 2]      <= bresp;
            S_BVALID[slv_id] <= 1'b1;

            @(posedge clk);
            while (!S_BREADY[slv_id]) @(posedge clk);
            S_BVALID[slv_id] <= 1'b0;
            $display("[%0t] SLV[%0d] B handshake done", $time, slv_id);
        end
    endtask

    //=========================================================================
    // Slave BFM: Send R response (single beat) from a slave
    //=========================================================================
    task automatic slv_send_r(
        input int               slv_id,
        input [W_ID-1:0]        orig_id,
        input [MST_ID_W-1:0]    dst_mst,
        input [W_DATA-1:0]      rdata,
        input [1:0]             rresp,
        input                   rlast
    );
        reg [W_SID-1:0] sid;
        begin
            sid = make_sid(dst_mst, orig_id);
            $display("[%0t] SLV[%0d] R: sid=0x%03x dst_mst=%0d data=0x%08h last=%0d",
                     $time, slv_id, sid, dst_mst, rdata, rlast);

            S_RID[W_SID*(slv_id+1)-1 -: W_SID]       <= sid;
            S_RDATA[W_DATA*(slv_id+1)-1 -: W_DATA]   <= rdata;
            S_RRESP[2*(slv_id+1)-1 -: 2]             <= rresp;
            S_RLAST[slv_id]                          <= rlast;
            S_RVALID[slv_id] <= 1'b1;

            @(posedge clk);
            while (!S_RREADY[slv_id]) @(posedge clk);
            S_RVALID[slv_id] <= 1'b0;
            $display("[%0t] SLV[%0d] R handshake done", $time, slv_id);
        end
    endtask

    //=========================================================================
    // Slave BFM: Send R burst from a slave
    //=========================================================================
    task automatic slv_send_r_burst(
        input int               slv_id,
        input [W_ID-1:0]        orig_id,
        input [MST_ID_W-1:0]    dst_mst,
        input [W_DATA-1:0]      rdata    [],
        input [1:0]             rresp
    );
        integer b;
        begin
            for (b = 0; b < rdata.size(); b++) begin
                slv_send_r(slv_id, orig_id, dst_mst, rdata[b], rresp,
                           (b == rdata.size() - 1));
            end
        end
    endtask

    //=========================================================================
    // Master BFM: Receive B response on master side
    //=========================================================================
    task automatic mst_recv_b(
        output [W_SID-1:0]  bid,
        output [1:0]        bresp
    );
        begin
            @(posedge clk);
            while (!M_BVALID) @(posedge clk);
            M_BREADY <= 1'b1;
            bid   = M_BID;
            bresp = M_BRESP;
            @(posedge clk);
            M_BREADY <= 1'b0;
            while (M_BVALID && M_BREADY) @(posedge clk); // in case of back-to-back
        end
    endtask

    //=========================================================================
    // Master BFM: Receive R beat on master side
    //=========================================================================
    task automatic mst_recv_r(
        output [W_SID-1:0]  rsid,
        output [W_DATA-1:0] rdata,
        output [1:0]        rresp,
        output              rlast
    );
        begin
            @(posedge clk);
            while (!M_RVALID) @(posedge clk);
            M_RREADY <= 1'b1;
            rsid  = M_RSID;
            rdata = M_RDATA;
            rresp = M_RRESP;
            rlast = M_RLAST;
            @(posedge clk);
            M_RREADY <= 1'b0;
        end
    endtask

    //=========================================================================
    // Master BFM: Receive full R burst on master side
    //=========================================================================
    task automatic mst_recv_r_burst(
        output [W_SID-1:0]   rsid,
        output [W_DATA-1:0]  rdata [0:7],
        output [1:0]         rresp,
        output int           beat_cnt
    );
        reg  rlast;
        int  b;
        begin
            b = 0;
            rlast = 0;
            @(posedge clk);
            while (!M_RVALID) @(posedge clk);
            M_RREADY <= 1'b1;
            while (!rlast) begin
                @(posedge clk);
                rdata[b] = M_RDATA;
                rlast = M_RLAST;
                if (b == 0) begin rsid = M_RSID; rresp = M_RRESP; end
                $display("[%0t] MST recv beat[%0d]: data=0x%08h last=%0d",
                         $time, b, rdata[b], rlast);
                b = b + 1;
            end
            beat_cnt = b;
            M_RREADY <= 1'b0;
        end
    endtask

    //=========================================================================
    // Checker
    //=========================================================================
    integer err_cnt;

    function automatic void check_eq;
        input [1023:0] msg;
        input [31:0]   got;
        input [31:0]   exp;
        begin
            if (got !== exp) begin
                $display("[%0t] ERROR: %0s got=0x%08h exp=0x%08h", $time, msg, got, exp);
                err_cnt = err_cnt + 1;
            end
        end
    endfunction

    //=========================================================================
    // Main Test Sequence
    //=========================================================================
    reg [W_SID-1:0]   cap_sid;
    reg [1:0]         cap_resp;
    reg [W_SID-1:0]   cap_sid1, cap_sid2;
    reg [1:0]         cap_resp1, cap_resp2;
    reg               cap_rlast;
    reg [W_DATA-1:0]  cap_rdata [0:7];
    integer           cap_rbeat_cnt;
    reg [W_DATA-1:0]  rburst_data [0:3];
    integer           bi;

    initial begin
        err_cnt = 0;

        @(posedge rst_n);
        repeat (5) @(posedge clk);

        $display("============================================================");
        $display("[%0t] AXI_S2M_S_AMT TESTBENCH STARTED (MASTER_ID=0)", $time);
        $display("============================================================");

        //=================================================================
        // TEST 1: Single B response — matching master ID
        //=================================================================
        $display("\n--- TEST 1: Single B (master match) ---");
        begin
            fork
                begin
                    slv_send_b(0, 6'h0A, 2'd0, 2'b00);       // slv0 → mst0, OK
                end
                begin
                    mst_recv_b(cap_sid, cap_resp);
                end
            join

            check_eq("M_BID",    cap_sid,     make_sid(2'd0, 6'h0A));
            check_eq("M_BRESP",  cap_resp,    2'b00);
        end
        $display("[%0t] TEST 1 done (errors=%0d)", $time, err_cnt);

        //=================================================================
        // TEST 2: B response — NON-matching master ID (filtered out)
        //=================================================================
        $display("\n--- TEST 2: B with non-matching master (should NOT see on M) ---");
        begin
            reg [W_SID-1:0] sid;
            // Drive B response from slv1 targeting master 1 (NOT master 0)
            // Use raw signal drive instead of slv_send_b to avoid deadlock
            sid = make_sid(2'd1, 6'h0B);
            S_BID[W_SID*2-1 -: W_SID]    <= sid;     // slv1 slot
            S_BRESP[2*2-1 -: 2]          <= 2'b00;
            S_BVALID[1] <= 1'b1;

            repeat (3) @(posedge clk);

            // Verify: M_BVALID stays 0 (response filtered out)
            check_eq("M_BVALID (should be 0)", M_BVALID, 1'b0);
            // Verify: S_BREADY stays 0 (no grant for wrong master)
            check_eq("S_BREADY[1] (should be 0)", S_BREADY[1], 1'b0);

            // Clean up
            S_BVALID[1] <= 1'b0;
        end
        $display("[%0t] TEST 2 done — B from wrong master filtered (errors=%0d)",
                 $time, err_cnt);

        //=================================================================
        // TEST 3: Two slaves B arbitration (matching masters)
        //=================================================================
        $display("\n--- TEST 3: Two-slave B arbitration ---");
        begin
            // Both sends and receives in one fork
            // Receives are sequential to avoid both sampling the same M_BVALID
            fork
                slv_send_b(0, 6'h10, 2'd0, 2'b00);
                slv_send_b(2, 6'h11, 2'd0, 2'b01);
                begin
                    mst_recv_b(cap_sid1, cap_resp1);
                    mst_recv_b(cap_sid2, cap_resp2);
                end
            join
            $display("[%0t] TEST 3: recv1 sid=0x%03x resp=%0d  recv2 sid=0x%03x resp=%0d",
                     $time, cap_sid1, cap_resp1, cap_sid2, cap_resp2);
        end
        $display("[%0t] TEST 3 done (errors=%0d)", $time, err_cnt);

        //=================================================================
        // TEST 4: Single R beat
        //=================================================================
        $display("\n--- TEST 4: Single R beat ---");
        begin
            fork
                begin
                    slv_send_r(0, 6'h20, 2'd0, 32'hDEAD_BEEF, 2'b00, 1'b1);
                end
                begin
                    mst_recv_r(cap_sid, cap_rdata[0], cap_resp, cap_rlast);
                    $display("[%0t] MST recv R: sid=0x%03x data=0x%08h last=%0d",
                             $time, cap_sid, cap_rdata[0], cap_rlast);
                end
            join

            check_eq("M_RSID",    cap_sid,        make_sid(2'd0, 6'h20));
            check_eq("M_RDATA",   cap_rdata[0],   32'hDEAD_BEEF);
            check_eq("M_RRESP",   cap_resp,       2'b00);
        end
        $display("[%0t] TEST 4 done (errors=%0d)", $time, err_cnt);
        @(posedge clk);

        //=================================================================
        // TEST 5: R burst (multi-beat)
        //=================================================================
        $display("\n--- TEST 5: R burst (4 beats) ---");
        begin
            rburst_data[0] = 32'hA000_0000;
            rburst_data[1] = 32'hA000_0001;
            rburst_data[2] = 32'hA000_0002;
            rburst_data[3] = 32'hA000_0003;

            fork
                begin
                    slv_send_r_burst(0, 6'h30, 2'd0, rburst_data, 2'b00);
                end
                begin
                    mst_recv_r_burst(cap_sid, cap_rdata, cap_resp, cap_rbeat_cnt);
                    $display("[%0t] MST recv R burst: %0d beats", $time, cap_rbeat_cnt);
                end
            join

            check_eq("R burst beat0", cap_rdata[0], 32'hA000_0000);
            check_eq("R burst beat1", cap_rdata[1], 32'hA000_0001);
            check_eq("R burst beat2", cap_rdata[2], 32'hA000_0002);
            check_eq("R burst beat3", cap_rdata[3], 32'hA000_0003);
        end
        $display("[%0t] TEST 5 done (errors=%0d)", $time, err_cnt);
        @(posedge clk);

        //=================================================================
        // TEST 6: R arbitration — two slaves respond simultaneously
        //=================================================================
        $display("\n--- TEST 6: Two-slave R arbitration ---");
        begin
            fork
                slv_send_r(0, 6'h40, 2'd0, 32'hCAFE_0000, 2'b00, 1'b1);
                slv_send_r(1, 6'h41, 2'd0, 32'hCAFE_0001, 2'b00, 1'b1);
                begin
                    // Receive sequentially to avoid race on M_RVALID
                    mst_recv_r(cap_sid1, cap_rdata[0], cap_resp1, cap_rlast);
                    $display("[%0t] MST recv R1: sid=0x%03x data=0x%08h",
                             $time, cap_sid1, cap_rdata[0]);
                    mst_recv_r(cap_sid2, cap_rdata[1], cap_resp2, cap_rlast);
                    $display("[%0t] MST recv R2: sid=0x%03x data=0x%08h",
                             $time, cap_sid2, cap_rdata[1]);
                end
            join
        end
        $display("[%0t] TEST 6 done (errors=%0d)", $time, err_cnt);
        @(posedge clk);

        //=================================================================
        // TEST 7: Back-to-back R + B interleaved
        //=================================================================
        $display("\n--- TEST 7: B+R interleaved ---");
        begin
            fork
                slv_send_r(2, 6'h60, 2'd0, 32'hF00D_0000, 2'b00, 1'b1);
                slv_send_b(0, 6'h61, 2'd0, 2'b11);
                begin
                    mst_recv_r(cap_sid1, cap_rdata[0], cap_resp1, cap_rlast);
                    $display("[%0t] MST recv R: data=0x%08h", $time, cap_rdata[0]);
                end
                begin
                    mst_recv_b(cap_sid2, cap_resp2);
                    $display("[%0t] MST recv B: sid=0x%03x resp=%0d", $time, cap_sid2, cap_resp2);
                end
            join
        end
        $display("[%0t] TEST 7 done (errors=%0d)", $time, err_cnt);
        @(posedge clk);

        //=================================================================
        // FINAL REPORT
        //=================================================================
        $display("\n============================================================");
        if (err_cnt == 0)
            $display("[%0t] ALL TESTS PASSED!", $time);
        else
            $display("[%0t] TESTS FAILED with %0d errors!", $time, err_cnt);
        $display("============================================================\n");

        #200;
        $finish;
    end

    //=========================================================================
    // Timeout watchdog
    //=========================================================================
    initial begin
        #1000000;
        $display("[%0t] ERROR: Simulation timeout!", $time);
        $finish;
    end

    //=========================================================================
    // Waveform dump (FSDB)
    //=========================================================================
    initial begin
        $fsdbDumpfile("axi_s2m_tb.fsdb");
        $fsdbDumpvars(0, axi_s2m_tb);
        $fsdbDumpMDA;
    end

endmodule
