Command: vcs -q -full64 -sverilog -f ./list/flist.f -R +v2k -debug_access+all -kdb \
-lca -timescale=1ns/1ps -fsdb +define+FSDB -l com.log +lint=TFIPC-L +lint=PCWM -ntb_opts \
uvm-1.2 +UVM_TESTNAME=split4k_test

Warning-[LCA_FEATURES_ENABLED] Usage warning
  LCA features enabled by '-lca' argument on the command line.  For more 
  information regarding list of LCA features please refer to Chapter "LCA 
  features" in the VCS/VCS-MX Release Notes


Warning-[AOUP] Attempt to override undefined parameter
./uvm/tb_top.sv, 27
  Attempting to override undefined parameter "DEFAULT_SLV_EN", will ignore it.

Notice: Ports coerced to inout, use -notice for details
20 modules and 0 UDP read.
make[1]: Entering directory '/home/ICer/project/axi4/csrc'
g++ -w  -pipe -DVCS -DUVM_DPI_DO_TYPE_CHECK -fPIC -O -I/home/synopsys/vcs/O-2018.09-SP2/include \
-c /home/synopsys/vcs/O-2018.09-SP2/etc/uvm-1.2/dpi/uvm_dpi.cc
g++ -w  -pipe -DVCS -DUVM_DPI_DO_TYPE_CHECK -fPIC -O -I/home/synopsys/vcs/O-2018.09-SP2/include \
-c /home/synopsys/vcs/O-2018.09-SP2/etc/uvm-1.2/verdi/dpi/uvm_verdi_dpi.cpp
../simv up to date
make[1]: Leaving directory '/home/ICer/project/axi4/csrc'
Command: /home/ICer/project/axi4/./simv -q +v2k -lca +define+FSDB -a com.log +lint=TFIPC-L +lint=PCWM +UVM_TESTNAME=split4k_test
UVM_INFO /home/synopsys/vcs/O-2018.09-SP2/etc/uvm-1.2/base/uvm_root.svh(402) @ 0: reporter [UVM/RELNOTES] 
----------------------------------------------------------------
UVM-1.2.Synopsys
(C) 2007-2014 Mentor Graphics Corporation
(C) 2007-2014 Cadence Design Systems, Inc.
(C) 2006-2014 Synopsys, Inc.
(C) 2011-2013 Cypress Semiconductor Corp.
(C) 2013-2014 NVIDIA Corporation
----------------------------------------------------------------

  ***********       IMPORTANT RELEASE NOTES         ************

  You are using a version of the UVM library that has been compiled
  with `UVM_NO_DEPRECATED undefined.
  See http://www.eda.org/svdb/view.php?id=3313 for more details.

  You are using a version of the UVM library that has been compiled
  with `UVM_OBJECT_DO_NOT_NEED_CONSTRUCTOR undefined.
  See http://www.eda.org/svdb/view.php?id=3770 for more details.

      (Specify +UVM_NO_RELNOTES to turn off this notice)

*Verdi* Loading libsscore_vcs201809.so
FSDB Dumper for VCS, Release Verdi_O-2018.09-SP2, Linux x86_64/64bit, 02/21/2019
(C) 1996 - 2019 by Synopsys, Inc.
*Verdi* : Create FSDB file 'tb_top.fsdb'
*Verdi* : Begin traversing the scope (tb_top), layer (0).
*Verdi* : End of traversing.
*Verdi* : Begin traversing the MDAs, layer (0).
*Verdi* : Enable +mda and +packedmda dumping.
*Verdi* : End of traversing the MDAs.
UVM_INFO /home/synopsys/vcs/O-2018.09-SP2/etc/uvm-1.2/base/uvm_root.svh(463) @ 0: reporter [NO_DPI_TSTNAME] UVM_NO_DPI defined--getting UVM_TESTNAME directly, without DPI
UVM_INFO @ 0: reporter [RNTST] Running test split4k_test...
UVM_INFO /home/synopsys/vcs/O-2018.09-SP2/etc/uvm-1.2/base/uvm_root.svh(589) @ 0: reporter [UVMTOP] UVM testbench topology:
------------------------------------------------------------------
Name                       Type                        Size  Value
------------------------------------------------------------------
uvm_test_top               split4k_test                -     @343 
  env                      axi_env                     -     @356 
    cov                    axi_cov                     -     @593 
      ar_ap                uvm_analysis_export         -     @671 
      ar_fifo              uvm_tlm_analysis_fifo #(T)  -     @760 
        analysis_export    uvm_analysis_imp            -     @809 
        get_ap             uvm_analysis_port           -     @799 
        get_peek_export    uvm_get_peek_imp            -     @779 
        put_ap             uvm_analysis_port           -     @789 
        put_export         uvm_put_imp                 -     @769 
      aw_ap                uvm_analysis_export         -     @661 
      aw_fifo              uvm_tlm_analysis_fifo #(T)  -     @701 
        analysis_export    uvm_analysis_imp            -     @750 
        get_ap             uvm_analysis_port           -     @740 
        get_peek_export    uvm_get_peek_imp            -     @720 
        put_ap             uvm_analysis_port           -     @730 
        put_export         uvm_put_imp                 -     @710 
      b_ap                 uvm_analysis_export         -     @681 
      b_fifo               uvm_tlm_analysis_fifo #(T)  -     @819 
        analysis_export    uvm_analysis_imp            -     @868 
        get_ap             uvm_analysis_port           -     @858 
        get_peek_export    uvm_get_peek_imp            -     @838 
        put_ap             uvm_analysis_port           -     @848 
        put_export         uvm_put_imp                 -     @828 
      r_ap                 uvm_analysis_export         -     @691 
      r_fifo               uvm_tlm_analysis_fifo #(T)  -     @878 
        analysis_export    uvm_analysis_imp            -     @927 
        get_ap             uvm_analysis_port           -     @917 
        get_peek_export    uvm_get_peek_imp            -     @897 
        put_ap             uvm_analysis_port           -     @907 
        put_export         uvm_put_imp                 -     @887 
    mst_ag0                axi_master_agent            -     @366 
      drv_m0               axi_driver                  -     @1075
        ar_fifo            uvm_tlm_fifo #(T)           -     @1261
          get_ap           uvm_analysis_port           -     @1300
          get_peek_export  uvm_get_peek_imp            -     @1280
          put_ap           uvm_analysis_port           -     @1290
          put_export       uvm_put_imp                 -     @1270
        aw_fifo            uvm_tlm_fifo #(T)           -     @1163
          get_ap           uvm_analysis_port           -     @1202
          get_peek_export  uvm_get_peek_imp            -     @1182
          put_ap           uvm_analysis_port           -     @1192
          put_export       uvm_put_imp                 -     @1172
        rsp_port           uvm_analysis_port           -     @1094
        seq_item_port      uvm_seq_item_pull_port      -     @1084
        w_fifo             uvm_tlm_fifo #(T)           -     @1212
          get_ap           uvm_analysis_port           -     @1251
          get_peek_export  uvm_get_peek_imp            -     @1231
          put_ap           uvm_analysis_port           -     @1241
          put_export       uvm_put_imp                 -     @1221
      mon_m0               axi_monitor                 -     @1104
        ap_ar              uvm_analysis_port           -     @1143
        ap_aw              uvm_analysis_port           -     @1113
        ap_b               uvm_analysis_port           -     @1133
        ap_r               uvm_analysis_port           -     @1153
        ap_w               uvm_analysis_port           -     @1123
      sqr_m0               axi_sequencer               -     @938 
        rsp_export         uvm_analysis_export         -     @947 
        seq_item_export    uvm_seq_item_pull_imp       -     @1065
        arbitration_queue  array                       0     -    
        lock_queue         array                       0     -    
        num_last_reqs      integral                    32    'd1  
        num_last_rsps      integral                    32    'd1  
    mst_ag1                axi_master_agent            -     @384 
      drv_m1               axi_driver                  -     @1453
        ar_fifo            uvm_tlm_fifo #(T)           -     @1639
          get_ap           uvm_analysis_port           -     @1678
          get_peek_export  uvm_get_peek_imp            -     @1658
          put_ap           uvm_analysis_port           -     @1668
          put_export       uvm_put_imp                 -     @1648
        aw_fifo            uvm_tlm_fifo #(T)           -     @1541
          get_ap           uvm_analysis_port           -     @1580
          get_peek_export  uvm_get_peek_imp            -     @1560
          put_ap           uvm_analysis_port           -     @1570
          put_export       uvm_put_imp                 -     @1550
        rsp_port           uvm_analysis_port           -     @1472
        seq_item_port      uvm_seq_item_pull_port      -     @1462
        w_fifo             uvm_tlm_fifo #(T)           -     @1590
          get_ap           uvm_analysis_port           -     @1629
          get_peek_export  uvm_get_peek_imp            -     @1609
          put_ap           uvm_analysis_port           -     @1619
          put_export       uvm_put_imp                 -     @1599
      mon_m1               axi_monitor                 -     @1482
        ap_ar              uvm_analysis_port           -     @1521
        ap_aw              uvm_analysis_port           -     @1491
        ap_b               uvm_analysis_port           -     @1511
        ap_r               uvm_analysis_port           -     @1531
        ap_w               uvm_analysis_port           -     @1501
      sqr_m1               axi_sequencer               -     @1316
        rsp_export         uvm_analysis_export         -     @1325
        seq_item_export    uvm_seq_item_pull_imp       -     @1443
        arbitration_queue  array                       0     -    
        lock_queue         array                       0     -    
        num_last_reqs      integral                    32    'd1  
        num_last_rsps      integral                    32    'd1  
    mst_ag2                axi_master_agent            -     @402 
      drv_m2               axi_driver                  -     @1831
        ar_fifo            uvm_tlm_fifo #(T)           -     @2017
          get_ap           uvm_analysis_port           -     @2056
          get_peek_export  uvm_get_peek_imp            -     @2036
          put_ap           uvm_analysis_port           -     @2046
          put_export       uvm_put_imp                 -     @2026
        aw_fifo            uvm_tlm_fifo #(T)           -     @1919
          get_ap           uvm_analysis_port           -     @1958
          get_peek_export  uvm_get_peek_imp            -     @1938
          put_ap           uvm_analysis_port           -     @1948
          put_export       uvm_put_imp                 -     @1928
        rsp_port           uvm_analysis_port           -     @1850
        seq_item_port      uvm_seq_item_pull_port      -     @1840
        w_fifo             uvm_tlm_fifo #(T)           -     @1968
          get_ap           uvm_analysis_port           -     @2007
          get_peek_export  uvm_get_peek_imp            -     @1987
          put_ap           uvm_analysis_port           -     @1997
          put_export       uvm_put_imp                 -     @1977
      mon_m2               axi_monitor                 -     @1860
        ap_ar              uvm_analysis_port           -     @1899
        ap_aw              uvm_analysis_port           -     @1869
        ap_b               uvm_analysis_port           -     @1889
        ap_r               uvm_analysis_port           -     @1909
        ap_w               uvm_analysis_port           -     @1879
      sqr_m2               axi_sequencer               -     @1694
        rsp_export         uvm_analysis_export         -     @1703
        seq_item_export    uvm_seq_item_pull_imp       -     @1821
        arbitration_queue  array                       0     -    
        lock_queue         array                       0     -    
        num_last_reqs      integral                    32    'd1  
        num_last_rsps      integral                    32    'd1  
    mst_ag3                axi_master_agent            -     @420 
      drv_m3               axi_driver                  -     @2209
        ar_fifo            uvm_tlm_fifo #(T)           -     @2395
          get_ap           uvm_analysis_port           -     @2434
          get_peek_export  uvm_get_peek_imp            -     @2414
          put_ap           uvm_analysis_port           -     @2424
          put_export       uvm_put_imp                 -     @2404
        aw_fifo            uvm_tlm_fifo #(T)           -     @2297
          get_ap           uvm_analysis_port           -     @2336
          get_peek_export  uvm_get_peek_imp            -     @2316
          put_ap           uvm_analysis_port           -     @2326
          put_export       uvm_put_imp                 -     @2306
        rsp_port           uvm_analysis_port           -     @2228
        seq_item_port      uvm_seq_item_pull_port      -     @2218
        w_fifo             uvm_tlm_fifo #(T)           -     @2346
          get_ap           uvm_analysis_port           -     @2385
          get_peek_export  uvm_get_peek_imp            -     @2365
          put_ap           uvm_analysis_port           -     @2375
          put_export       uvm_put_imp                 -     @2355
      mon_m3               axi_monitor                 -     @2238
        ap_ar              uvm_analysis_port           -     @2277
        ap_aw              uvm_analysis_port           -     @2247
        ap_b               uvm_analysis_port           -     @2267
        ap_r               uvm_analysis_port           -     @2287
        ap_w               uvm_analysis_port           -     @2257
      sqr_m3               axi_sequencer               -     @2072
        rsp_export         uvm_analysis_export         -     @2081
        seq_item_export    uvm_seq_item_pull_imp       -     @2199
        arbitration_queue  array                       0     -    
        lock_queue         array                       0     -    
        num_last_reqs      integral                    32    'd1  
        num_last_rsps      integral                    32    'd1  
    proto_chk              axi_protocol_checker        -     @602 
      ar_imp               uvm_analysis_imp_ar         -     @641 
      aw_imp               uvm_analysis_imp_aw         -     @611 
      b_imp                uvm_analysis_imp_b          -     @631 
      r_imp                uvm_analysis_imp_r          -     @651 
      w_imp                uvm_analysis_imp_w          -     @621 
    refm                   reference_model             -     @584 
      ar_ap                uvm_analysis_export         -     @2459
      ar_fifo              uvm_tlm_analysis_fifo #(T)  -     @2528
        analysis_export    uvm_analysis_imp            -     @2577
        get_ap             uvm_analysis_port           -     @2567
        get_peek_export    uvm_get_peek_imp            -     @2547
        put_ap             uvm_analysis_port           -     @2557
        put_export         uvm_put_imp                 -     @2537
      aw_ap                uvm_analysis_export         -     @2449
      aw_fifo              uvm_tlm_analysis_fifo #(T)  -     @2469
        analysis_export    uvm_analysis_imp            -     @2518
        get_ap             uvm_analysis_port           -     @2508
        get_peek_export    uvm_get_peek_imp            -     @2488
        put_ap             uvm_analysis_port           -     @2498
        put_export         uvm_put_imp                 -     @2478
      pred_ar_ap           uvm_analysis_port           -     @2597
      pred_aw_ap           uvm_analysis_port           -     @2587
    sb                     axi_scoreboard              -     @575 
      ar_d_fifo            uvm_tlm_analysis_fifo #(T)  -     @3090
        analysis_export    uvm_analysis_imp            -     @3139
        get_ap             uvm_analysis_port           -     @3129
        get_peek_export    uvm_get_peek_imp            -     @3109
        put_ap             uvm_analysis_port           -     @3119
        put_export         uvm_put_imp                 -     @3099
      ar_imp               uvm_analysis_imp_ar         -     @2637
      ar_p_fifo            uvm_tlm_analysis_fifo #(T)  -     @3149
        analysis_export    uvm_analysis_imp            -     @3198
        get_ap             uvm_analysis_port           -     @3188
        get_peek_export    uvm_get_peek_imp            -     @3168
        put_ap             uvm_analysis_port           -     @3178
        put_export         uvm_put_imp                 -     @3158
      ar_r_fifo            uvm_tlm_analysis_fifo #(T)  -     @3031
        analysis_export    uvm_analysis_imp            -     @3080
        get_ap             uvm_analysis_port           -     @3070
        get_peek_export    uvm_get_peek_imp            -     @3050
        put_ap             uvm_analysis_port           -     @3060
        put_export         uvm_put_imp                 -     @3040
      aw_d_fifo            uvm_tlm_analysis_fifo #(T)  -     @2736
        analysis_export    uvm_analysis_imp            -     @2785
        get_ap             uvm_analysis_port           -     @2775
        get_peek_export    uvm_get_peek_imp            -     @2755
        put_ap             uvm_analysis_port           -     @2765
        put_export         uvm_put_imp                 -     @2745
      aw_imp               uvm_analysis_imp_aw         -     @2607
      aw_p_fifo            uvm_tlm_analysis_fifo #(T)  -     @2795
        analysis_export    uvm_analysis_imp            -     @2844
        get_ap             uvm_analysis_port           -     @2834
        get_peek_export    uvm_get_peek_imp            -     @2814
        put_ap             uvm_analysis_port           -     @2824
        put_export         uvm_put_imp                 -     @2804
      aw_r_fifo            uvm_tlm_analysis_fifo #(T)  -     @2677
        analysis_export    uvm_analysis_imp            -     @2726
        get_ap             uvm_analysis_port           -     @2716
        get_peek_export    uvm_get_peek_imp            -     @2696
        put_ap             uvm_analysis_port           -     @2706
        put_export         uvm_put_imp                 -     @2686
      b_imp                uvm_analysis_imp_b          -     @2627
      b_p_fifo             uvm_tlm_analysis_fifo #(T)  -     @2972
        analysis_export    uvm_analysis_imp            -     @3021
        get_ap             uvm_analysis_port           -     @3011
        get_peek_export    uvm_get_peek_imp            -     @2991
        put_ap             uvm_analysis_port           -     @3001
        put_export         uvm_put_imp                 -     @2981
      r_d_fifo             uvm_tlm_analysis_fifo #(T)  -     @3208
        analysis_export    uvm_analysis_imp            -     @3257
        get_ap             uvm_analysis_port           -     @3247
        get_peek_export    uvm_get_peek_imp            -     @3227
        put_ap             uvm_analysis_port           -     @3237
        put_export         uvm_put_imp                 -     @3217
      r_imp                uvm_analysis_imp_r          -     @2647
      r_p_fifo             uvm_tlm_analysis_fifo #(T)  -     @3267
        analysis_export    uvm_analysis_imp            -     @3316
        get_ap             uvm_analysis_port           -     @3306
        get_peek_export    uvm_get_peek_imp            -     @3286
        put_ap             uvm_analysis_port           -     @3296
        put_export         uvm_put_imp                 -     @3276
      slv_ar_fifo          uvm_tlm_analysis_fifo #(T)  -     @3385
        analysis_export    uvm_analysis_imp            -     @3434
        get_ap             uvm_analysis_port           -     @3424
        get_peek_export    uvm_get_peek_imp            -     @3404
        put_ap             uvm_analysis_port           -     @3414
        put_export         uvm_put_imp                 -     @3394
      slv_ar_imp           uvm_analysis_imp_slv_ar     -     @2667
      slv_aw_fifo          uvm_tlm_analysis_fifo #(T)  -     @3326
        analysis_export    uvm_analysis_imp            -     @3375
        get_ap             uvm_analysis_port           -     @3365
        get_peek_export    uvm_get_peek_imp            -     @3345
        put_ap             uvm_analysis_port           -     @3355
        put_export         uvm_put_imp                 -     @3335
      slv_aw_imp           uvm_analysis_imp_slv_aw     -     @2657
      w_d_fifo             uvm_tlm_analysis_fifo #(T)  -     @2854
        analysis_export    uvm_analysis_imp            -     @2903
        get_ap             uvm_analysis_port           -     @2893
        get_peek_export    uvm_get_peek_imp            -     @2873
        put_ap             uvm_analysis_port           -     @2883
        put_export         uvm_put_imp                 -     @2863
      w_imp                uvm_analysis_imp_w          -     @2617
      w_p_fifo             uvm_tlm_analysis_fifo #(T)  -     @2913
        analysis_export    uvm_analysis_imp            -     @2962
        get_ap             uvm_analysis_port           -     @2952
        get_peek_export    uvm_get_peek_imp            -     @2932
        put_ap             uvm_analysis_port           -     @2942
        put_export         uvm_put_imp                 -     @2922
    slv_ag0                axi_slave_agent             -     @375 
      mon_s0               axi_monitor                 -     @3445
        ap_ar              uvm_analysis_port           -     @3484
        ap_aw              uvm_analysis_port           -     @3454
        ap_b               uvm_analysis_port           -     @3474
        ap_r               uvm_analysis_port           -     @3494
        ap_w               uvm_analysis_port           -     @3464
    slv_ag1                axi_slave_agent             -     @393 
      mon_s1               axi_monitor                 -     @3505
        ap_ar              uvm_analysis_port           -     @3544
        ap_aw              uvm_analysis_port           -     @3514
        ap_b               uvm_analysis_port           -     @3534
        ap_r               uvm_analysis_port           -     @3554
        ap_w               uvm_analysis_port           -     @3524
    slv_ag2                axi_slave_agent             -     @411 
      mon_s2               axi_monitor                 -     @3565
        ap_ar              uvm_analysis_port           -     @3604
        ap_aw              uvm_analysis_port           -     @3574
        ap_b               uvm_analysis_port           -     @3594
        ap_r               uvm_analysis_port           -     @3614
        ap_w               uvm_analysis_port           -     @3584
    slv_ag3                axi_slave_agent             -     @429 
      mon_s3               axi_monitor                 -     @3625
        ap_ar              uvm_analysis_port           -     @3664
        ap_aw              uvm_analysis_port           -     @3634
        ap_b               uvm_analysis_port           -     @3654
        ap_r               uvm_analysis_port           -     @3674
        ap_w               uvm_analysis_port           -     @3644
    vsqr                   axi_virtual_sequencer       -     @438 
      rsp_export           uvm_analysis_export         -     @447 
      seq_item_export      uvm_seq_item_pull_imp       -     @565 
      arbitration_queue    array                       0     -    
      lock_queue           array                       0     -    
      num_last_reqs        integral                    32    'd1  
      num_last_rsps        integral                    32    'd1  
------------------------------------------------------------------

UVM_INFO /home/synopsys/vcs/O-2018.09-SP2/etc/uvm-1.2/base/uvm_traversal.svh(279) @ 0: reporter [UVM/COMP/NAMECHECK] This implementation of the component name checks requires DPI to be enabled
[5000] S2M[M0] R: RSELECT=1111 RGRANT=0000 S_RVALID=0000 M_RREADY=x M_RVALID=0
[15000] S2M[M0] R: RSELECT=1111 RGRANT=0000 S_RVALID=0000 M_RREADY=1 M_RVALID=0
[25000] S2M[M0] R: RSELECT=1111 RGRANT=0000 S_RVALID=0000 M_RREADY=1 M_RVALID=0
[35000] S2M[M0] R: RSELECT=1111 RGRANT=0000 S_RVALID=0000 M_RREADY=1 M_RVALID=0
[45000] S2M[M0] R: RSELECT=1111 RGRANT=0000 S_RVALID=0000 M_RREADY=1 M_RVALID=0
[55000] S2M[M0] R: RSELECT=1111 RGRANT=0000 S_RVALID=0000 M_RREADY=1 M_RVALID=0
[65000] S2M[M0] R: RSELECT=1111 RGRANT=0000 S_RVALID=0000 M_RREADY=1 M_RVALID=0
[75000] S2M[M0] R: RSELECT=1111 RGRANT=0000 S_RVALID=0000 M_RREADY=1 M_RVALID=0
[85000] S2M[M0] R: RSELECT=1111 RGRANT=0000 S_RVALID=0000 M_RREADY=1 M_RVALID=0
[95000] S2M[M0] R: RSELECT=1111 RGRANT=0000 S_RVALID=0000 M_RREADY=1 M_RVALID=0
[TRACE_XBAR_B] 105000 M side m=0 m_bvalid=0 m_bready=1
[105000] S2M[M0] R: RSELECT=1111 RGRANT=0000 S_RVALID=0000 M_RREADY=1 M_RVALID=0
[TRACE_XBAR_B] 115000 M side m=0 m_bvalid=0 m_bready=1
[115000] S2M[M0] R: RSELECT=1111 RGRANT=0000 S_RVALID=0000 M_RREADY=1 M_RVALID=0
[TRACE_XBAR_B] 125000 M side m=0 m_bvalid=0 m_bready=1
[125000] S2M[M0] R: RSELECT=1111 RGRANT=0000 S_RVALID=0000 M_RREADY=1 M_RVALID=0
[TRACE_XBAR_B] 135000 M side m=0 m_bvalid=0 m_bready=1
[135000] S2M[M0] R: RSELECT=1111 RGRANT=0000 S_RVALID=0000 M_RREADY=1 M_RVALID=0
[TRACE_XBAR_B] 145000 M side m=0 m_bvalid=0 m_bready=1
[145000] S2M[M0] R: RSELECT=1111 RGRANT=0000 S_RVALID=0000 M_RREADY=1 M_RVALID=0
[TRACE_XBAR_B] 155000 M side m=0 m_bvalid=0 m_bready=1
[155000] S2M[M0] R: RSELECT=1111 RGRANT=0000 S_RVALID=0000 M_RREADY=1 M_RVALID=0
[TRACE_XBAR_B] 165000 M side m=0 m_bvalid=0 m_bready=1
[165000] S2M[M0] R: RSELECT=1111 RGRANT=0000 S_RVALID=0000 M_RREADY=1 M_RVALID=0
[TRACE_XBAR_B] 175000 M side m=0 m_bvalid=0 m_bready=1
[175000] S2M[M0] R: RSELECT=1111 RGRANT=0000 S_RVALID=0000 M_RREADY=1 M_RVALID=0
[TRACE_XBAR_B] 185000 M side m=0 m_bvalid=0 m_bready=1
[185000] S2M[M0] R: RSELECT=1111 RGRANT=0000 S_RVALID=0000 M_RREADY=1 M_RVALID=0
[TRACE_XBAR_B] 195000 M side m=0 m_bvalid=0 m_bready=1
[195000] S2M[M0] R: RSELECT=1111 RGRANT=0000 S_RVALID=0000 M_RREADY=1 M_RVALID=0
UVM_INFO ./uvm/split4k_vseq.sv(24) @ 195000: uvm_test_top.env.vsqr@@vseq [VSEQ] split4k WR m=3: addr=0x00001ffc len=14 size=2 burst=1
UVM_INFO ./uvm/axi_driver.sv(83) @ 195000: uvm_test_top.env.mst_ag3.drv_m3 [DRIVER] M[3] dispatching: WR id=11 addr=0x00001ffc len=14 size=2 burst=1 mst=3 slv=0
UVM_INFO ./uvm/axi_driver.sv(115) @ 195000: uvm_test_top.env.mst_ag3.drv_m3 [TRACE] M[3] DRV AW start addr=0x00001ffc id=11
UVM_INFO ./uvm/axi_driver.sv(140) @ 195000: uvm_test_top.env.mst_ag3.drv_m3 [TRACE] M[3] DRV W beat 0/14 last=0
UVM_INFO ./uvm/axi_driver.sv(140) @ 205000: uvm_test_top.env.mst_ag3.drv_m3 [TRACE] M[3] DRV W beat 1/14 last=0
[TRACE_XBAR_B] 205000 M side m=0 m_bvalid=0 m_bready=1
[TRACE_W_FIFO] 205000 W_FIFO_WR m=3 last=1 data=0xf6a2be52
[205000] S2M[M0] R: RSELECT=1111 RGRANT=0000 S_RVALID=0000 M_RREADY=1 M_RVALID=0
[TRACE_C4K_W] 205000 M_W_HS beat=0 m_wlast=0 -> s_wlast=1 (src=  FORCED)
UVM_INFO ./uvm/axi_driver.sv(140) @ 215000: uvm_test_top.env.mst_ag3.drv_m3 [TRACE] M[3] DRV W beat 2/14 last=0
[TRACE_XBAR_B] 215000 M side m=0 m_bvalid=0 m_bready=1
[TRACE] 215000 AW pre-FIFO m=3 addr=0x00001ffc len=0
[TRACE_W] 215000 W pre-FIFO HS m=3 last=1 data=0xf6a2be52 strb=0xf
[TRACE_W_FIFO] 215000 W_FIFO_WR m=3 last=0 data=0xb29d727d
[TRACE_W_FIFO] 215000 W_FIFO_RD m=3 last=1 data=0xf6a2be52
[TRACE_W_XBAR] 215000 W_XBAR_M m=3 last=1 data=0x00000000
[TRACE_M2S_W] 215000 case=1 w_beat=0 active=0 from_fifo=0 fifo_empty=1 aw_hs=1
[215000] M2S[3] AW: handshake mst=3 AWID=0x1b ADDR=0x1ffc LEN=0
[215000] S2M[M0] R: RSELECT=1111 RGRANT=0000 S_RVALID=0000 M_RREADY=1 M_RVALID=0
[TRACE_C4K] 215000 AW_ST=1 split=1 t1done=0 stall=0 stall_rel=0 beat=1/14
[TRACE_C4K_W] 215000 M_W_HS beat=1 m_wlast=0 -> s_wlast=0 (src=PASSTHRU)
[TRACE_C4K] 215000 SPLIT_T1 awlen=0 beats_page1=1 addr_end_bit12=0
UVM_INFO ./uvm/axi_slave_agent.sv(83) @ 225000: uvm_test_top.env.slv_ag0 [TRACE] S[0] SLV AW handshake id=219 addr=0x00001ffc len=0
UVM_INFO ./uvm/axi_driver.sv(140) @ 225000: uvm_test_top.env.mst_ag3.drv_m3 [TRACE] M[3] DRV W beat 3/14 last=0
[TRACE_XBAR_B] 225000 M side m=0 m_bvalid=0 m_bready=1
[TRACE] 225000 AW pre-FIFO m=3 addr=0x00001ffc len=0
[TRACE_W] 225000 W pre-FIFO HS m=3 last=0 data=0xb29d727d strb=0xf
[TRACE] 225000 AW at slave s=0 addr=0x00001ffc len=0
[TRACE_W_FIFO] 225000 W_FIFO_WR m=3 last=0 data=0xd926bcd4
[TRACE_W_FIFO] 225000 W_FIFO_RD m=3 last=0 data=0xb29d727d
[TRACE_W_XBAR] 225000 W_XBAR_M m=3 last=0 data=0x00000000
[TRACE_W_XBAR] 225000 W_XBAR_S s=0 last=1 data=0x00000000
[TRACE_M2S_W] 225000 case=2 w_beat=1 active=1 from_fifo=0 fifo_empty=1 aw_hs=1
[TRACE_M2S_W] 225000 W_OUT_HS mst=3 last=1 beat_left=1
[TRACE_M2S_WFIFO] 225000 mst=3 f_vld=1 f_last=1 f_wdata=0xf6a2be52 f_rdy=1 S_WREADY=1
[225000] M2S[3] AW: handshake mst=3 AWID=0x1b ADDR=0x1ffc LEN=0
[225000] S2M[M0] R: RSELECT=1111 RGRANT=0000 S_RVALID=0000 M_RREADY=1 M_RVALID=0
[TRACE_C4K] 225000 AW_ST=2 split=1 t1done=0 stall=0 stall_rel=0 beat=2/14
[TRACE_C4K_W] 225000 M_W_HS beat=2 m_wlast=0 -> s_wlast=0 (src=PASSTHRU)
[TRACE_C4K] 225000 SPLIT_T2 awlen=13 beats_page2=14
UVM_INFO ./uvm/axi_slave_agent.sv(83) @ 235000: uvm_test_top.env.slv_ag0 [TRACE] S[0] SLV AW handshake id=219 addr=0x00001ffc len=0
UVM_INFO ./uvm/axi_driver.sv(140) @ 235000: uvm_test_top.env.mst_ag3.drv_m3 [TRACE] M[3] DRV W beat 4/14 last=0
UVM_INFO ./uvm/axi_slave_agent.sv(111) @ 235000: uvm_test_top.env.slv_ag0 [TRACE] S[0] SLV W beat 0 data=0xf6a2be52 last=1
[TRACE_XBAR_B] 235000 M side m=0 m_bvalid=0 m_bready=1
[TRACE] 235000 AW pre-FIFO m=3 addr=0x00002000 len=13
[TRACE_W] 235000 W pre-FIFO HS m=3 last=0 data=0xd926bcd4 strb=0xf
[TRACE] 235000 AW at slave s=0 addr=0x00001ffc len=0
[TRACE_W] 235000 W slave HS s=0 last=1 data=0xf6a2be52
[TRACE_W_FIFO] 235000 W_FIFO_WR m=3 last=0 data=0x7b31dd54
[TRACE_W_FIFO] 235000 W_FIFO_RD m=3 last=0 data=0xd926bcd4
[TRACE_W_XBAR] 235000 W_XBAR_M m=3 last=0 data=0x00000000
[TRACE_W_XBAR] 235000 W_XBAR_S s=0 last=0 data=0x00000001
[TRACE_M2S_W] 235000 case=3 w_beat=0 active=1 from_fifo=0 fifo_empty=0 aw_hs=0
[TRACE_M2S_W] 235000 W_OUT_HS mst=3 last=0 beat_left=0
[TRACE_M2S_WFIFO] 235000 mst=3 f_vld=1 f_last=0 f_wdata=0xb29d727d f_rdy=1 S_WREADY=1
[TRACE_M2S_W] 235000 case=1 w_beat=0 active=0 from_fifo=0 fifo_empty=1 aw_hs=1
[235000] M2S[3] AW: handshake mst=3 AWID=0x2b ADDR=0x2000 LEN=13
[235000] S2M[M0] R: RSELECT=1111 RGRANT=0000 S_RVALID=0000 M_RREADY=1 M_RVALID=0
[TRACE_C4K] 235000 AW_ST=0 split=1 t1done=0 stall=0 stall_rel=1 beat=3/14
[TRACE_C4K_W] 235000 M_W_HS beat=3 m_wlast=0 -> s_wlast=0 (src=PASSTHRU)
UVM_INFO ./uvm/axi_slave_agent.sv(83) @ 245000: uvm_test_top.env.slv_ag1 [TRACE] S[1] SLV AW handshake id=235 addr=0x00002000 len=13
UVM_INFO ./uvm/axi_driver.sv(140) @ 245000: uvm_test_top.env.mst_ag3.drv_m3 [TRACE] M[3] DRV W beat 5/14 last=0
UVM_INFO ./uvm/axi_slave_agent.sv(111) @ 245000: uvm_test_top.env.slv_ag0 [TRACE] S[0] SLV W beat 0 data=0xb29d727d last=0
[TRACE_XBAR_B] 245000 M side m=0 m_bvalid=0 m_bready=1
[TRACE] 245000 B slave handshake s=0 id=0xdb
[TRACE_W] 245000 W pre-FIFO HS m=3 last=0 data=0x7b31dd54 strb=0xf
[TRACE_W] 245000 W slave HS s=0 last=0 data=0xb29d727d
[TRACE] 245000 B  from slave s=0
[TRACE] 245000 AW at slave s=1 addr=0x00002000 len=13
[TRACE_W_FIFO] 245000 W_FIFO_WR m=3 last=0 data=0x7bf2539d
[TRACE_W_FIFO] 245000 W_FIFO_RD m=3 last=0 data=0x7b31dd54
[TRACE_W_XBAR] 245000 W_XBAR_M m=3 last=0 data=0x00000000
[TRACE_W_XBAR] 245000 W_XBAR_S s=0 last=0 data=0x00000000
[TRACE_W_XBAR] 245000 W_XBAR_S s=1 last=0 data=0x00000000
[TRACE_M2S_W] 245000 case=2 w_beat=1 active=1 from_fifo=1 fifo_empty=0 aw_hs=0
[TRACE_M2S_W] 245000 W_OUT_HS mst=3 last=0 beat_left=1
[TRACE_M2S_WFIFO] 245000 mst=3 f_vld=1 f_last=0 f_wdata=0xd926bcd4 f_rdy=1 S_WREADY=1
[TRACE_M2S_W] 245000 case=2 w_beat=14 active=1 from_fifo=0 fifo_empty=1 aw_hs=0
[TRACE_M2S_W] 245000 W_OUT_HS mst=3 last=0 beat_left=14
[TRACE_M2S_WFIFO] 245000 mst=3 f_vld=1 f_last=0 f_wdata=0xd926bcd4 f_rdy=1 S_WREADY=1
[245000] S2M[M0] R: RSELECT=1111 RGRANT=0000 S_RVALID=0000 M_RREADY=1 M_RVALID=0
[TRACE_C4K] 245000 AW_ST=0 split=1 t1done=0 stall=0 stall_rel=1 beat=4/14
[TRACE_C4K_W] 245000 M_W_HS beat=4 m_wlast=0 -> s_wlast=0 (src=PASSTHRU)
UVM_INFO ./uvm/axi_driver.sv(140) @ 255000: uvm_test_top.env.mst_ag3.drv_m3 [TRACE] M[3] DRV W beat 6/14 last=0
UVM_INFO ./uvm/axi_slave_agent.sv(111) @ 255000: uvm_test_top.env.slv_ag0 [TRACE] S[0] SLV W beat 1 data=0xd926bcd4 last=0
UVM_INFO ./uvm/axi_slave_agent.sv(111) @ 255000: uvm_test_top.env.slv_ag1 [TRACE] S[1] SLV W beat 0 data=0xd926bcd4 last=0
[TRACE_XBAR_B] 255000 S side s=0 s_bvalid=1 s_bready=1
[TRACE_XBAR_B] 255000 M side m=0 m_bvalid=0 m_bready=1
[TRACE] 255000 B pre-FIFO out s=0 id=0xdb
[TRACE_W] 255000 W pre-FIFO HS m=3 last=0 data=0x7bf2539d strb=0xf
[TRACE] 255000 B  to master m=3
[TRACE_W] 255000 W slave HS s=0 last=0 data=0xd926bcd4
[TRACE_W] 255000 W slave HS s=1 last=0 data=0xd926bcd4
[TRACE_W_FIFO] 255000 W_FIFO_WR m=3 last=0 data=0xa88c4d86
[TRACE_W_FIFO] 255000 W_FIFO_RD m=3 last=0 data=0x7bf2539d
[TRACE_W_XBAR] 255000 W_XBAR_M m=3 last=0 data=0x00000000
[TRACE_W_XBAR] 255000 W_XBAR_S s=0 last=0 data=0x00000000
[TRACE_W_XBAR] 255000 W_XBAR_S s=1 last=0 data=0x00000000
[TRACE_M2S_W] 255000 case=3 w_beat=0 active=1 from_fifo=1 fifo_empty=0 aw_hs=0
[TRACE_M2S_W] 255000 W_OUT_HS mst=3 last=0 beat_left=0
[TRACE_M2S_WFIFO] 255000 mst=3 f_vld=1 f_last=0 f_wdata=0x7b31dd54 f_rdy=1 S_WREADY=1
[TRACE_M2S_W] 255000 case=2 w_beat=13 active=1 from_fifo=0 fifo_empty=1 aw_hs=0
[TRACE_M2S_W] 255000 W_OUT_HS mst=3 last=0 beat_left=13
[TRACE_M2S_WFIFO] 255000 mst=3 f_vld=1 f_last=0 f_wdata=0x7b31dd54 f_rdy=1 S_WREADY=1
[255000] S2M[M0] R: RSELECT=1111 RGRANT=0000 S_RVALID=0000 M_RREADY=1 M_RVALID=0
[255000] S2M[M3] B: ->MASTER BID=0xdb BRESP=0
[TRACE_C4K] 255000 AW_ST=0 split=1 t1done=0 stall=0 stall_rel=1 beat=5/14
[TRACE_C4K_W] 255000 M_W_HS beat=5 m_wlast=0 -> s_wlast=0 (src=PASSTHRU)
UVM_INFO ./uvm/axi_driver.sv(140) @ 265000: uvm_test_top.env.mst_ag3.drv_m3 [TRACE] M[3] DRV W beat 7/14 last=0
UVM_INFO ./uvm/axi_slave_agent.sv(111) @ 265000: uvm_test_top.env.slv_ag0 [TRACE] S[0] SLV W beat 2 data=0x7b31dd54 last=0
UVM_INFO ./uvm/axi_slave_agent.sv(111) @ 265000: uvm_test_top.env.slv_ag1 [TRACE] S[1] SLV W beat 1 data=0x7b31dd54 last=0
[TRACE_XBAR_B] 265000 M side m=0 m_bvalid=0 m_bready=1
[TRACE_W] 265000 W pre-FIFO HS m=3 last=0 data=0xa88c4d86 strb=0xf
[TRACE_W] 265000 W slave HS s=0 last=0 data=0x7b31dd54
[TRACE_W] 265000 W slave HS s=1 last=0 data=0x7b31dd54
[TRACE_W_FIFO] 265000 W_FIFO_WR m=3 last=0 data=0xb9d391c2
[TRACE_W_FIFO] 265000 W_FIFO_RD m=3 last=0 data=0xa88c4d86
[TRACE_W_XBAR] 265000 W_XBAR_M m=3 last=0 data=0x00000000
[TRACE_W_XBAR] 265000 W_XBAR_S s=0 last=0 data=0x00000001
[TRACE_W_XBAR] 265000 W_XBAR_S s=1 last=0 data=0x00000000
[TRACE_M2S_W] 265000 case=2 w_beat=1 active=1 from_fifo=1 fifo_empty=0 aw_hs=0
[TRACE_M2S_W] 265000 W_OUT_HS mst=3 last=0 beat_left=1
[TRACE_M2S_WFIFO] 265000 mst=3 f_vld=1 f_last=0 f_wdata=0x7bf2539d f_rdy=1 S_WREADY=1
[TRACE_M2S_W] 265000 case=2 w_beat=12 active=1 from_fifo=0 fifo_empty=1 aw_hs=0
[TRACE_M2S_W] 265000 W_OUT_HS mst=3 last=0 beat_left=12
[TRACE_M2S_WFIFO] 265000 mst=3 f_vld=1 f_last=0 f_wdata=0x7bf2539d f_rdy=1 S_WREADY=1
[265000] S2M[M0] R: RSELECT=1111 RGRANT=0000 S_RVALID=0000 M_RREADY=1 M_RVALID=0
[TRACE_C4K] 265000 AW_ST=0 split=1 t1done=0 stall=0 stall_rel=1 beat=6/14
[TRACE_C4K_W] 265000 M_W_HS beat=6 m_wlast=0 -> s_wlast=0 (src=PASSTHRU)
UVM_INFO ./uvm/axi_driver.sv(140) @ 275000: uvm_test_top.env.mst_ag3.drv_m3 [TRACE] M[3] DRV W beat 8/14 last=0
UVM_INFO ./uvm/axi_slave_agent.sv(111) @ 275000: uvm_test_top.env.slv_ag0 [TRACE] S[0] SLV W beat 3 data=0x7bf2539d last=0
UVM_INFO ./uvm/axi_slave_agent.sv(111) @ 275000: uvm_test_top.env.slv_ag1 [TRACE] S[1] SLV W beat 2 data=0x7bf2539d last=0
[TRACE_XBAR_B] 275000 M side m=0 m_bvalid=0 m_bready=1
[TRACE_W] 275000 W pre-FIFO HS m=3 last=0 data=0xb9d391c2 strb=0xf
[TRACE_W] 275000 W slave HS s=0 last=0 data=0x7bf2539d
[TRACE_W] 275000 W slave HS s=1 last=0 data=0x7bf2539d
[TRACE_W_FIFO] 275000 W_FIFO_WR m=3 last=0 data=0x913150d2
[TRACE_W_FIFO] 275000 W_FIFO_RD m=3 last=0 data=0xb9d391c2
[TRACE_W_XBAR] 275000 W_XBAR_M m=3 last=0 data=0x00000000
[TRACE_W_XBAR] 275000 W_XBAR_S s=0 last=0 data=0x00000000
[TRACE_W_XBAR] 275000 W_XBAR_S s=1 last=0 data=0x00000001
[TRACE_M2S_W] 275000 case=3 w_beat=0 active=1 from_fifo=1 fifo_empty=0 aw_hs=0
[TRACE_M2S_W] 275000 W_OUT_HS mst=3 last=0 beat_left=0
[TRACE_M2S_WFIFO] 275000 mst=3 f_vld=1 f_last=0 f_wdata=0xa88c4d86 f_rdy=1 S_WREADY=1
[TRACE_M2S_W] 275000 case=2 w_beat=11 active=1 from_fifo=0 fifo_empty=1 aw_hs=0
[TRACE_M2S_W] 275000 W_OUT_HS mst=3 last=0 beat_left=11
[TRACE_M2S_WFIFO] 275000 mst=3 f_vld=1 f_last=0 f_wdata=0xa88c4d86 f_rdy=1 S_WREADY=1
[275000] S2M[M0] R: RSELECT=1111 RGRANT=0000 S_RVALID=0000 M_RREADY=1 M_RVALID=0
[TRACE_C4K] 275000 AW_ST=0 split=1 t1done=0 stall=0 stall_rel=1 beat=7/14
[TRACE_C4K_W] 275000 M_W_HS beat=7 m_wlast=0 -> s_wlast=0 (src=PASSTHRU)
UVM_INFO ./uvm/axi_driver.sv(140) @ 285000: uvm_test_top.env.mst_ag3.drv_m3 [TRACE] M[3] DRV W beat 9/14 last=0
UVM_INFO ./uvm/axi_slave_agent.sv(111) @ 285000: uvm_test_top.env.slv_ag0 [TRACE] S[0] SLV W beat 4 data=0xa88c4d86 last=0
UVM_INFO ./uvm/axi_slave_agent.sv(111) @ 285000: uvm_test_top.env.slv_ag1 [TRACE] S[1] SLV W beat 3 data=0xa88c4d86 last=0
[TRACE_XBAR_B] 285000 M side m=0 m_bvalid=0 m_bready=1
[TRACE_W] 285000 W pre-FIFO HS m=3 last=0 data=0x913150d2 strb=0xf
[TRACE_W] 285000 W slave HS s=0 last=0 data=0xa88c4d86
[TRACE_W] 285000 W slave HS s=1 last=0 data=0xa88c4d86
[TRACE_W_FIFO] 285000 W_FIFO_WR m=3 last=0 data=0xa72d3da1
[TRACE_W_FIFO] 285000 W_FIFO_RD m=3 last=0 data=0x913150d2
[TRACE_W_XBAR] 285000 W_XBAR_M m=3 last=0 data=0x00000000
[TRACE_W_XBAR] 285000 W_XBAR_S s=0 last=0 data=0x00000000
[TRACE_W_XBAR] 285000 W_XBAR_S s=1 last=0 data=0x00000001
[TRACE_M2S_W] 285000 case=2 w_beat=1 active=1 from_fifo=1 fifo_empty=0 aw_hs=0
[TRACE_M2S_W] 285000 W_OUT_HS mst=3 last=0 beat_left=1
[TRACE_M2S_WFIFO] 285000 mst=3 f_vld=1 f_last=0 f_wdata=0xb9d391c2 f_rdy=1 S_WREADY=1
[TRACE_M2S_W] 285000 case=2 w_beat=10 active=1 from_fifo=0 fifo_empty=1 aw_hs=0
[TRACE_M2S_W] 285000 W_OUT_HS mst=3 last=0 beat_left=10
[TRACE_M2S_WFIFO] 285000 mst=3 f_vld=1 f_last=0 f_wdata=0xb9d391c2 f_rdy=1 S_WREADY=1
[285000] S2M[M0] R: RSELECT=1111 RGRANT=0000 S_RVALID=0000 M_RREADY=1 M_RVALID=0
[TRACE_C4K] 285000 AW_ST=0 split=1 t1done=0 stall=0 stall_rel=1 beat=8/14
[TRACE_C4K_W] 285000 M_W_HS beat=8 m_wlast=0 -> s_wlast=0 (src=PASSTHRU)
UVM_INFO ./uvm/axi_driver.sv(140) @ 295000: uvm_test_top.env.mst_ag3.drv_m3 [TRACE] M[3] DRV W beat 10/14 last=0
UVM_INFO ./uvm/axi_slave_agent.sv(111) @ 295000: uvm_test_top.env.slv_ag0 [TRACE] S[0] SLV W beat 5 data=0xb9d391c2 last=0
UVM_INFO ./uvm/axi_slave_agent.sv(111) @ 295000: uvm_test_top.env.slv_ag1 [TRACE] S[1] SLV W beat 4 data=0xb9d391c2 last=0
[TRACE_XBAR_B] 295000 M side m=0 m_bvalid=0 m_bready=1
[TRACE_W] 295000 W pre-FIFO HS m=3 last=0 data=0xa72d3da1 strb=0xf
[TRACE_W] 295000 W slave HS s=0 last=0 data=0xb9d391c2
[TRACE_W] 295000 W slave HS s=1 last=0 data=0xb9d391c2
[TRACE_W_FIFO] 295000 W_FIFO_WR m=3 last=0 data=0xf04d8d3b
[TRACE_W_FIFO] 295000 W_FIFO_RD m=3 last=0 data=0xa72d3da1
[TRACE_W_XBAR] 295000 W_XBAR_M m=3 last=0 data=0x00000000
[TRACE_W_XBAR] 295000 W_XBAR_S s=0 last=0 data=0x00000000
[TRACE_W_XBAR] 295000 W_XBAR_S s=1 last=0 data=0x00000001
[TRACE_M2S_W] 295000 case=3 w_beat=0 active=1 from_fifo=1 fifo_empty=0 aw_hs=0
[TRACE_M2S_W] 295000 W_OUT_HS mst=3 last=0 beat_left=0
[TRACE_M2S_WFIFO] 295000 mst=3 f_vld=1 f_last=0 f_wdata=0x913150d2 f_rdy=1 S_WREADY=1
[TRACE_M2S_W] 295000 case=2 w_beat=9 active=1 from_fifo=0 fifo_empty=1 aw_hs=0
[TRACE_M2S_W] 295000 W_OUT_HS mst=3 last=0 beat_left=9
[TRACE_M2S_WFIFO] 295000 mst=3 f_vld=1 f_last=0 f_wdata=0x913150d2 f_rdy=1 S_WREADY=1
[295000] S2M[M0] R: RSELECT=1111 RGRANT=0000 S_RVALID=0000 M_RREADY=1 M_RVALID=0
[TRACE_C4K] 295000 AW_ST=0 split=1 t1done=0 stall=0 stall_rel=1 beat=9/14
[TRACE_C4K_W] 295000 M_W_HS beat=9 m_wlast=0 -> s_wlast=0 (src=PASSTHRU)
UVM_INFO ./uvm/axi_driver.sv(140) @ 305000: uvm_test_top.env.mst_ag3.drv_m3 [TRACE] M[3] DRV W beat 11/14 last=0
UVM_INFO ./uvm/axi_slave_agent.sv(111) @ 305000: uvm_test_top.env.slv_ag0 [TRACE] S[0] SLV W beat 6 data=0x913150d2 last=0
UVM_INFO ./uvm/axi_slave_agent.sv(111) @ 305000: uvm_test_top.env.slv_ag1 [TRACE] S[1] SLV W beat 5 data=0x913150d2 last=0
[TRACE_XBAR_B] 305000 M side m=0 m_bvalid=0 m_bready=1
[TRACE_W] 305000 W pre-FIFO HS m=3 last=0 data=0xf04d8d3b strb=0xf
[TRACE_W] 305000 W slave HS s=0 last=0 data=0x913150d2
[TRACE_W] 305000 W slave HS s=1 last=0 data=0x913150d2
[TRACE_W_FIFO] 305000 W_FIFO_WR m=3 last=0 data=0x334b46fc
[TRACE_W_FIFO] 305000 W_FIFO_RD m=3 last=0 data=0xf04d8d3b
[TRACE_W_XBAR] 305000 W_XBAR_M m=3 last=0 data=0x00000000
[TRACE_W_XBAR] 305000 W_XBAR_S s=0 last=0 data=0x00000001
[TRACE_W_XBAR] 305000 W_XBAR_S s=1 last=0 data=0x00000000
[TRACE_M2S_W] 305000 case=2 w_beat=1 active=1 from_fifo=1 fifo_empty=0 aw_hs=0
[TRACE_M2S_W] 305000 W_OUT_HS mst=3 last=0 beat_left=1
[TRACE_M2S_WFIFO] 305000 mst=3 f_vld=1 f_last=0 f_wdata=0xa72d3da1 f_rdy=1 S_WREADY=1
[TRACE_M2S_W] 305000 case=2 w_beat=8 active=1 from_fifo=0 fifo_empty=1 aw_hs=0
[TRACE_M2S_W] 305000 W_OUT_HS mst=3 last=0 beat_left=8
[TRACE_M2S_WFIFO] 305000 mst=3 f_vld=1 f_last=0 f_wdata=0xa72d3da1 f_rdy=1 S_WREADY=1
[305000] S2M[M0] R: RSELECT=1111 RGRANT=0000 S_RVALID=0000 M_RREADY=1 M_RVALID=0
[TRACE_C4K] 305000 AW_ST=0 split=1 t1done=0 stall=0 stall_rel=1 beat=10/14
[TRACE_C4K_W] 305000 M_W_HS beat=10 m_wlast=0 -> s_wlast=0 (src=PASSTHRU)
UVM_INFO ./uvm/axi_driver.sv(140) @ 315000: uvm_test_top.env.mst_ag3.drv_m3 [TRACE] M[3] DRV W beat 12/14 last=0
UVM_INFO ./uvm/axi_slave_agent.sv(111) @ 315000: uvm_test_top.env.slv_ag0 [TRACE] S[0] SLV W beat 7 data=0xa72d3da1 last=0
UVM_INFO ./uvm/axi_slave_agent.sv(111) @ 315000: uvm_test_top.env.slv_ag1 [TRACE] S[1] SLV W beat 6 data=0xa72d3da1 last=0
[TRACE_XBAR_B] 315000 M side m=0 m_bvalid=0 m_bready=1
[TRACE_W] 315000 W pre-FIFO HS m=3 last=0 data=0x334b46fc strb=0xf
[TRACE_W] 315000 W slave HS s=0 last=0 data=0xa72d3da1
[TRACE_W] 315000 W slave HS s=1 last=0 data=0xa72d3da1
[TRACE_W_FIFO] 315000 W_FIFO_WR m=3 last=0 data=0x45883299
[TRACE_W_FIFO] 315000 W_FIFO_RD m=3 last=0 data=0x334b46fc
[TRACE_W_XBAR] 315000 W_XBAR_M m=3 last=0 data=0x00000000
[TRACE_W_XBAR] 315000 W_XBAR_S s=0 last=0 data=0x00000001
[TRACE_W_XBAR] 315000 W_XBAR_S s=1 last=0 data=0x00000001
[TRACE_M2S_W] 315000 case=3 w_beat=0 active=1 from_fifo=1 fifo_empty=0 aw_hs=0
[TRACE_M2S_W] 315000 W_OUT_HS mst=3 last=0 beat_left=0
[TRACE_M2S_WFIFO] 315000 mst=3 f_vld=1 f_last=0 f_wdata=0xf04d8d3b f_rdy=1 S_WREADY=1
[TRACE_M2S_W] 315000 case=2 w_beat=7 active=1 from_fifo=0 fifo_empty=1 aw_hs=0
[TRACE_M2S_W] 315000 W_OUT_HS mst=3 last=0 beat_left=7
[TRACE_M2S_WFIFO] 315000 mst=3 f_vld=1 f_last=0 f_wdata=0xf04d8d3b f_rdy=1 S_WREADY=1
[315000] S2M[M0] R: RSELECT=1111 RGRANT=0000 S_RVALID=0000 M_RREADY=1 M_RVALID=0
[TRACE_C4K] 315000 AW_ST=0 split=1 t1done=0 stall=0 stall_rel=1 beat=11/14
[TRACE_C4K_W] 315000 M_W_HS beat=11 m_wlast=0 -> s_wlast=0 (src=PASSTHRU)
UVM_INFO ./uvm/axi_driver.sv(140) @ 325000: uvm_test_top.env.mst_ag3.drv_m3 [TRACE] M[3] DRV W beat 13/14 last=0
UVM_INFO ./uvm/axi_slave_agent.sv(111) @ 325000: uvm_test_top.env.slv_ag0 [TRACE] S[0] SLV W beat 8 data=0xf04d8d3b last=0
UVM_INFO ./uvm/axi_slave_agent.sv(111) @ 325000: uvm_test_top.env.slv_ag1 [TRACE] S[1] SLV W beat 7 data=0xf04d8d3b last=0
[TRACE_XBAR_B] 325000 M side m=0 m_bvalid=0 m_bready=1
[TRACE_W] 325000 W pre-FIFO HS m=3 last=0 data=0x45883299 strb=0xf
[TRACE_W] 325000 W slave HS s=0 last=0 data=0xf04d8d3b
[TRACE_W] 325000 W slave HS s=1 last=0 data=0xf04d8d3b
[TRACE_W_FIFO] 325000 W_FIFO_WR m=3 last=0 data=0xe677040a
[TRACE_W_FIFO] 325000 W_FIFO_RD m=3 last=0 data=0x45883299
[TRACE_W_XBAR] 325000 W_XBAR_M m=3 last=0 data=0x00000000
[TRACE_W_XBAR] 325000 W_XBAR_S s=0 last=0 data=0x00000000
[TRACE_W_XBAR] 325000 W_XBAR_S s=1 last=0 data=0x00000000
[TRACE_M2S_W] 325000 case=2 w_beat=1 active=1 from_fifo=1 fifo_empty=0 aw_hs=0
[TRACE_M2S_W] 325000 W_OUT_HS mst=3 last=0 beat_left=1
[TRACE_M2S_WFIFO] 325000 mst=3 f_vld=1 f_last=0 f_wdata=0x334b46fc f_rdy=1 S_WREADY=1
[TRACE_M2S_W] 325000 case=2 w_beat=6 active=1 from_fifo=0 fifo_empty=1 aw_hs=0
[TRACE_M2S_W] 325000 W_OUT_HS mst=3 last=0 beat_left=6
[TRACE_M2S_WFIFO] 325000 mst=3 f_vld=1 f_last=0 f_wdata=0x334b46fc f_rdy=1 S_WREADY=1
[325000] S2M[M0] R: RSELECT=1111 RGRANT=0000 S_RVALID=0000 M_RREADY=1 M_RVALID=0
[TRACE_C4K] 325000 AW_ST=0 split=1 t1done=0 stall=0 stall_rel=1 beat=12/14
[TRACE_C4K_W] 325000 M_W_HS beat=12 m_wlast=0 -> s_wlast=0 (src=PASSTHRU)
UVM_INFO ./uvm/axi_driver.sv(140) @ 335000: uvm_test_top.env.mst_ag3.drv_m3 [TRACE] M[3] DRV W beat 14/14 last=1
UVM_INFO ./uvm/axi_slave_agent.sv(111) @ 335000: uvm_test_top.env.slv_ag0 [TRACE] S[0] SLV W beat 9 data=0x334b46fc last=0
UVM_INFO ./uvm/axi_slave_agent.sv(111) @ 335000: uvm_test_top.env.slv_ag1 [TRACE] S[1] SLV W beat 8 data=0x334b46fc last=0
[TRACE_XBAR_B] 335000 M side m=0 m_bvalid=0 m_bready=1
[TRACE_W] 335000 W pre-FIFO HS m=3 last=0 data=0xe677040a strb=0xf
[TRACE_W] 335000 W slave HS s=0 last=0 data=0x334b46fc
[TRACE_W] 335000 W slave HS s=1 last=0 data=0x334b46fc
[TRACE_W_FIFO] 335000 W_FIFO_WR m=3 last=0 data=0xeefd5ca5
[TRACE_W_FIFO] 335000 W_FIFO_RD m=3 last=0 data=0xe677040a
[TRACE_W_XBAR] 335000 W_XBAR_M m=3 last=0 data=0x00000000
[TRACE_W_XBAR] 335000 W_XBAR_S s=0 last=0 data=0x00000001
[TRACE_W_XBAR] 335000 W_XBAR_S s=1 last=0 data=0x00000000
[TRACE_M2S_W] 335000 case=3 w_beat=0 active=1 from_fifo=1 fifo_empty=0 aw_hs=0
[TRACE_M2S_W] 335000 W_OUT_HS mst=3 last=0 beat_left=0
[TRACE_M2S_WFIFO] 335000 mst=3 f_vld=1 f_last=0 f_wdata=0x45883299 f_rdy=1 S_WREADY=1
[TRACE_M2S_W] 335000 case=2 w_beat=5 active=1 from_fifo=0 fifo_empty=1 aw_hs=0
[TRACE_M2S_W] 335000 W_OUT_HS mst=3 last=0 beat_left=5
[TRACE_M2S_WFIFO] 335000 mst=3 f_vld=1 f_last=0 f_wdata=0x45883299 f_rdy=1 S_WREADY=1
[335000] S2M[M0] R: RSELECT=1111 RGRANT=0000 S_RVALID=0000 M_RREADY=1 M_RVALID=0
[TRACE_C4K] 335000 AW_ST=0 split=1 t1done=0 stall=0 stall_rel=1 beat=13/14
[TRACE_C4K_W] 335000 M_W_HS beat=13 m_wlast=0 -> s_wlast=0 (src=PASSTHRU)
UVM_INFO ./uvm/axi_slave_agent.sv(111) @ 345000: uvm_test_top.env.slv_ag0 [TRACE] S[0] SLV W beat 10 data=0x45883299 last=0
UVM_INFO ./uvm/axi_slave_agent.sv(111) @ 345000: uvm_test_top.env.slv_ag1 [TRACE] S[1] SLV W beat 9 data=0x45883299 last=0
[TRACE_XBAR_B] 345000 M side m=0 m_bvalid=0 m_bready=1
[TRACE_W] 345000 W pre-FIFO HS m=3 last=0 data=0xeefd5ca5 strb=0xf
[TRACE_W] 345000 W slave HS s=0 last=0 data=0x45883299
[TRACE_W] 345000 W slave HS s=1 last=0 data=0x45883299
[TRACE_W_FIFO] 345000 W_FIFO_WR m=3 last=1 data=0xb487705d
[TRACE_W_FIFO] 345000 W_FIFO_RD m=3 last=0 data=0xeefd5ca5
[TRACE_W_XBAR] 345000 W_XBAR_M m=3 last=0 data=0x00000000
[TRACE_W_XBAR] 345000 W_XBAR_S s=0 last=0 data=0x00000000
[TRACE_W_XBAR] 345000 W_XBAR_S s=1 last=0 data=0x00000001
[TRACE_M2S_W] 345000 case=2 w_beat=1 active=1 from_fifo=1 fifo_empty=0 aw_hs=0
[TRACE_M2S_W] 345000 W_OUT_HS mst=3 last=0 beat_left=1
[TRACE_M2S_WFIFO] 345000 mst=3 f_vld=1 f_last=0 f_wdata=0xe677040a f_rdy=1 S_WREADY=1
[TRACE_M2S_W] 345000 case=2 w_beat=4 active=1 from_fifo=0 fifo_empty=1 aw_hs=0
[TRACE_M2S_W] 345000 W_OUT_HS mst=3 last=0 beat_left=4
[TRACE_M2S_WFIFO] 345000 mst=3 f_vld=1 f_last=0 f_wdata=0xe677040a f_rdy=1 S_WREADY=1
[345000] S2M[M0] R: RSELECT=1111 RGRANT=0000 S_RVALID=0000 M_RREADY=1 M_RVALID=0
[TRACE_C4K] 345000 AW_ST=0 split=1 t1done=0 stall=0 stall_rel=1 beat=14/14
[TRACE_C4K_W] 345000 M_W_HS beat=14 m_wlast=1 -> s_wlast=1 (src=PASSTHRU)
UVM_INFO ./uvm/axi_slave_agent.sv(111) @ 355000: uvm_test_top.env.slv_ag0 [TRACE] S[0] SLV W beat 11 data=0xe677040a last=0
UVM_INFO ./uvm/axi_slave_agent.sv(111) @ 355000: uvm_test_top.env.slv_ag1 [TRACE] S[1] SLV W beat 10 data=0xe677040a last=0
[TRACE_XBAR_B] 355000 M side m=0 m_bvalid=0 m_bready=1
[TRACE_W] 355000 W pre-FIFO HS m=3 last=1 data=0xb487705d strb=0xf
[TRACE_W] 355000 W slave HS s=0 last=0 data=0xe677040a
[TRACE_W] 355000 W slave HS s=1 last=0 data=0xe677040a
[TRACE_W_FIFO] 355000 W_FIFO_RD m=3 last=1 data=0xb487705d
[TRACE_W_XBAR] 355000 W_XBAR_M m=3 last=1 data=0x00000000
[TRACE_W_XBAR] 355000 W_XBAR_S s=0 last=0 data=0x00000001
[TRACE_W_XBAR] 355000 W_XBAR_S s=1 last=0 data=0x00000000
[TRACE_M2S_W] 355000 case=3 w_beat=0 active=1 from_fifo=1 fifo_empty=0 aw_hs=0
[TRACE_M2S_W] 355000 W_OUT_HS mst=3 last=0 beat_left=0
[TRACE_M2S_WFIFO] 355000 mst=3 f_vld=1 f_last=0 f_wdata=0xeefd5ca5 f_rdy=1 S_WREADY=1
[TRACE_M2S_W] 355000 case=2 w_beat=3 active=1 from_fifo=0 fifo_empty=1 aw_hs=0
[TRACE_M2S_W] 355000 W_OUT_HS mst=3 last=0 beat_left=3
[TRACE_M2S_WFIFO] 355000 mst=3 f_vld=1 f_last=0 f_wdata=0xeefd5ca5 f_rdy=1 S_WREADY=1
[355000] S2M[M0] R: RSELECT=1111 RGRANT=0000 S_RVALID=0000 M_RREADY=1 M_RVALID=0
[TRACE_C4K] 355000 AW_ST=0 split=1 t1done=0 stall=0 stall_rel=1 beat=15/14
UVM_INFO ./uvm/axi_slave_agent.sv(111) @ 365000: uvm_test_top.env.slv_ag0 [TRACE] S[0] SLV W beat 12 data=0xeefd5ca5 last=0
UVM_INFO ./uvm/axi_slave_agent.sv(111) @ 365000: uvm_test_top.env.slv_ag1 [TRACE] S[1] SLV W beat 11 data=0xeefd5ca5 last=0
[TRACE_XBAR_B] 365000 M side m=0 m_bvalid=0 m_bready=1
[TRACE_W] 365000 W slave HS s=0 last=0 data=0xeefd5ca5
[TRACE_W] 365000 W slave HS s=1 last=0 data=0xeefd5ca5
[TRACE_W_XBAR] 365000 W_XBAR_S s=0 last=1 data=0x00000001
[TRACE_W_XBAR] 365000 W_XBAR_S s=1 last=1 data=0x00000000
[TRACE_M2S_W] 365000 case=2 w_beat=1 active=1 from_fifo=1 fifo_empty=0 aw_hs=0
[TRACE_M2S_W] 365000 W_OUT_HS mst=3 last=1 beat_left=1
[TRACE_M2S_WFIFO] 365000 mst=3 f_vld=1 f_last=1 f_wdata=0xb487705d f_rdy=1 S_WREADY=1
[TRACE_M2S_W] 365000 case=2 w_beat=2 active=1 from_fifo=0 fifo_empty=1 aw_hs=0
[TRACE_M2S_W] 365000 W_OUT_HS mst=3 last=1 beat_left=2
[TRACE_M2S_WFIFO] 365000 mst=3 f_vld=1 f_last=1 f_wdata=0xb487705d f_rdy=1 S_WREADY=1
[365000] S2M[M0] R: RSELECT=1111 RGRANT=0000 S_RVALID=0000 M_RREADY=1 M_RVALID=0
[TRACE_C4K] 365000 AW_ST=0 split=1 t1done=0 stall=0 stall_rel=1 beat=15/14
UVM_INFO ./uvm/axi_slave_agent.sv(111) @ 375000: uvm_test_top.env.slv_ag0 [TRACE] S[0] SLV W beat 13 data=0xb487705d last=1
UVM_INFO ./uvm/axi_slave_agent.sv(111) @ 375000: uvm_test_top.env.slv_ag1 [TRACE] S[1] SLV W beat 12 data=0xb487705d last=1
[TRACE_XBAR_B] 375000 M side m=0 m_bvalid=0 m_bready=1
[TRACE_W] 375000 W slave HS s=0 last=1 data=0xb487705d
[TRACE_W] 375000 W slave HS s=1 last=1 data=0xb487705d
[TRACE_M2S_W] 375000 case=0 w_beat=0 active=1 from_fifo=1 fifo_empty=1 aw_hs=0
[TRACE_M2S_WFIFO] 375000 mst=3 f_vld=0 f_last=0 f_wdata=0x00000000 f_rdy=1 S_WREADY=1
[TRACE_M2S_W] 375000 case=0 w_beat=1 active=1 from_fifo=0 fifo_empty=1 aw_hs=0
[TRACE_M2S_WFIFO] 375000 mst=3 f_vld=0 f_last=0 f_wdata=0x00000000 f_rdy=1 S_WREADY=1
[375000] S2M[M0] R: RSELECT=1111 RGRANT=0000 S_RVALID=0000 M_RREADY=1 M_RVALID=0
[TRACE_C4K] 375000 AW_ST=0 split=1 t1done=0 stall=0 stall_rel=1 beat=15/14
UVM_ERROR ./uvm/axi_slave_agent.sv(144) @ 375000: uvm_test_top.env.slv_ag0 [LEN_MISMATCH] S[0] Protocol violation! Expected 1 beats but received 14 beats
UVM_ERROR ./uvm/axi_slave_agent.sv(144) @ 375000: uvm_test_top.env.slv_ag1 [LEN_MISMATCH] S[1] Protocol violation! Expected 14 beats but received 13 beats
[TRACE_XBAR_B] 385000 M side m=0 m_bvalid=0 m_bready=1
[TRACE] 385000 B slave handshake s=0 id=0xdb
[TRACE] 385000 B  from slave s=0
[TRACE] 385000 B  from slave s=1
[TRACE_M2S_W] 385000 case=0 w_beat=1 active=1 from_fifo=0 fifo_empty=1 aw_hs=0
[TRACE_M2S_WFIFO] 385000 mst=3 f_vld=0 f_last=0 f_wdata=0x00000000 f_rdy=1 S_WREADY=1
[385000] S2M[M0] R: RSELECT=1111 RGRANT=0000 S_RVALID=0000 M_RREADY=1 M_RVALID=0
[TRACE_C4K] 385000 AW_ST=0 split=1 t1done=0 stall=0 stall_rel=1 beat=15/14
[TRACE_XBAR_B] 395000 S side s=0 s_bvalid=1 s_bready=0
[TRACE_XBAR_B] 395000 M side m=0 m_bvalid=0 m_bready=1
[TRACE] 395000 B pre-FIFO stuck s=0 vld=1 rdy=0
[TRACE] 395000 B  to master m=3
[TRACE_M2S_W] 395000 case=0 w_beat=1 active=1 from_fifo=0 fifo_empty=1 aw_hs=0
[TRACE_M2S_WFIFO] 395000 mst=3 f_vld=0 f_last=0 f_wdata=0x00000000 f_rdy=1 S_WREADY=1
[395000] S2M[M0] R: RSELECT=1111 RGRANT=0000 S_RVALID=0000 M_RREADY=1 M_RVALID=0
[395000] S2M[M3] B: ->MASTER BID=0xeb BRESP=0
[TRACE_C4K] 395000 AW_ST=0 split=1 t1done=0 stall=0 stall_rel=1 beat=15/14
[TRACE_XBAR_B] 405000 S side s=0 s_bvalid=1 s_bready=1
[TRACE_XBAR_B] 405000 M side m=0 m_bvalid=0 m_bready=1
[TRACE] 405000 B pre-FIFO out s=0 id=0xdb
[TRACE] 405000 B  to master m=3
[TRACE_M2S_W] 405000 case=0 w_beat=1 active=1 from_fifo=0 fifo_empty=1 aw_hs=0
[TRACE_M2S_WFIFO] 405000 mst=3 f_vld=0 f_last=0 f_wdata=0x00000000 f_rdy=1 S_WREADY=1
[405000] S2M[M0] R: RSELECT=1111 RGRANT=0000 S_RVALID=0000 M_RREADY=1 M_RVALID=0
[405000] S2M[M3] B: ->MASTER BID=0xdb BRESP=0
[TRACE_C4K] 405000 AW_ST=0 split=1 t1done=0 stall=0 stall_rel=1 beat=15/14
[415000] M[3] DRV BDEBUG: Handshake Succeeded! BID=11 b_pending_size=1
UVM_INFO ./uvm/axi_driver.sv(183) @ 415000: uvm_test_top.env.mst_ag3.drv_m3 [TRACE] M[3] DRV B resp=0 id=11
[TRACE_XBAR_B] 415000 M side m=0 m_bvalid=0 m_bready=1
[TRACE_M2S_W] 415000 case=0 w_beat=1 active=1 from_fifo=0 fifo_empty=1 aw_hs=0
[TRACE_M2S_WFIFO] 415000 mst=3 f_vld=0 f_last=0 f_wdata=0x00000000 f_rdy=1 S_WREADY=1
[415000] S2M[M0] R: RSELECT=1111 RGRANT=0000 S_RVALID=0000 M_RREADY=1 M_RVALID=0
[TRACE_C4K] 415000 AW_ST=0 split=1 t1done=0 stall=0 stall_rel=1 beat=15/14
UVM_ERROR ./uvm/axi_scoreboard.sv(413) @ 415000: uvm_test_top.env.sb [RESP] B before WLAST M[3] id=11
UVM_INFO ./uvm/split4k_vseq.sv(36) @ 415000: uvm_test_top.env.vsqr@@vseq [VSEQ] split4k RD m=1: addr=0x00001ffc len=14 size=2 burst=1
UVM_INFO ./uvm/axi_driver.sv(83) @ 415000: uvm_test_top.env.mst_ag1.drv_m1 [DRIVER] M[1] dispatching: RD id=12 addr=0x00001ffc len=14 size=2 burst=1 mst=1 slv=0
UVM_INFO ./uvm/axi_driver.sv(207) @ 415000: uvm_test_top.env.mst_ag1.drv_m1 [TRACE] M[1] DRV AR start addr=0x00001ffc len=14
[TRACE_XBAR_B] 425000 M side m=0 m_bvalid=0 m_bready=1
[TRACE_M2S_W] 425000 case=0 w_beat=1 active=1 from_fifo=0 fifo_empty=1 aw_hs=0
[TRACE_M2S_WFIFO] 425000 mst=3 f_vld=0 f_last=0 f_wdata=0x00000000 f_rdy=1 S_WREADY=1
[425000] S2M[M0] R: RSELECT=1111 RGRANT=0000 S_RVALID=0000 M_RREADY=1 M_RVALID=0
[TRACE_C4K] 425000 AW_ST=0 split=1 t1done=0 stall=0 stall_rel=1 beat=15/14
[TRACE_XBAR_B] 435000 M side m=0 m_bvalid=0 m_bready=1
[TRACE] 435000 AR pre-FIFO vld m=1 vld=1 rdy=1
[TRACE] 435000 AR pre-FIFO out m=1 addr=0x00001ffc
[TRACE] 435000 AR pre-FIFO m=1 addr=0x00001ffc len=0
[TRACE] 435000 XBAR S_ARVALID s=0 addr=0x00001ffc
[435000] M2S[1] AR: handshake ARGRANT=0010 mst=1 ARID=0x1c ADDR=0x1ffc LEN=0
[TRACE_M2S_W] 435000 case=0 w_beat=1 active=1 from_fifo=0 fifo_empty=1 aw_hs=0
[TRACE_M2S_WFIFO] 435000 mst=3 f_vld=0 f_last=0 f_wdata=0x00000000 f_rdy=1 S_WREADY=1
[435000] S2M[M0] R: RSELECT=1111 RGRANT=0000 S_RVALID=0000 M_RREADY=1 M_RVALID=0
[TRACE_C4K] 435000 AW_ST=0 split=1 t1done=0 stall=0 stall_rel=1 beat=15/14
UVM_INFO ./uvm/axi_slave_agent.sv(170) @ 445000: uvm_test_top.env.slv_ag0 [TRACE] S[0] SLV AR handshake id=92 addr=0x00001ffc len=0
[TRACE_XBAR_B] 445000 M side m=0 m_bvalid=0 m_bready=1
[TRACE] 445000 AR at slave s=0 addr=0x00001ffc
[TRACE] 445000 AR pre-FIFO out m=1 addr=0x00001ffc
[TRACE] 445000 AR pre-FIFO m=1 addr=0x00001ffc len=0
[TRACE] 445000 AR at slave s=0 addr=0x00001ffc len=0
[TRACE] 445000 XBAR S_ARVALID s=0 addr=0x00001ffc
[445000] M2S[1] AR: handshake ARGRANT=0010 mst=1 ARID=0x1c ADDR=0x1ffc LEN=0
[TRACE_M2S_W] 445000 case=0 w_beat=1 active=1 from_fifo=0 fifo_empty=1 aw_hs=0
[TRACE_M2S_WFIFO] 445000 mst=3 f_vld=0 f_last=0 f_wdata=0x00000000 f_rdy=1 S_WREADY=1
[445000] S2M[M0] R: RSELECT=1111 RGRANT=0000 S_RVALID=0000 M_RREADY=1 M_RVALID=0
[TRACE_C4K] 445000 AW_ST=0 split=1 t1done=0 stall=0 stall_rel=1 beat=15/14
UVM_INFO ./uvm/axi_slave_agent.sv(170) @ 455000: uvm_test_top.env.slv_ag0 [TRACE] S[0] SLV AR handshake id=92 addr=0x00001ffc len=0
[TRACE_XBAR_B] 455000 M side m=0 m_bvalid=0 m_bready=1
[TRACE] 455000 AR at slave s=0 addr=0x00001ffc
[TRACE] 455000 AR pre-FIFO out m=1 addr=0x00002000
[TRACE] 455000 AR pre-FIFO m=1 addr=0x00002000 len=13
[TRACE] 455000 AR at slave s=0 addr=0x00001ffc len=0
[TRACE] 455000 R  from slave s=0
[TRACE] 455000 XBAR S_ARVALID s=1 addr=0x00002000
[TRACE_M2S_W] 455000 case=0 w_beat=1 active=1 from_fifo=0 fifo_empty=1 aw_hs=0
[TRACE_M2S_WFIFO] 455000 mst=3 f_vld=0 f_last=0 f_wdata=0x00000000 f_rdy=1 S_WREADY=1
[455000] M2S[1] AR: handshake ARGRANT=0010 mst=1 ARID=0x2c ADDR=0x2000 LEN=13
[455000] S2M[M0] R: RSELECT=1111 RGRANT=0000 S_RVALID=0000 M_RREADY=1 M_RVALID=0
[TRACE_C4K] 455000 AW_ST=0 split=1 t1done=0 stall=0 stall_rel=1 beat=15/14
UVM_INFO ./uvm/axi_slave_agent.sv(170) @ 465000: uvm_test_top.env.slv_ag1 [TRACE] S[1] SLV AR handshake id=108 addr=0x00002000 len=13
[TRACE_XBAR_B] 465000 M side m=0 m_bvalid=0 m_bready=1
[TRACE] 465000 AR at slave s=1 addr=0x00002000
[TRACE] 465000 AR pre-FIFO vld m=1 vld=0 rdy=0
[TRACE] 465000 R  to master m=1
[TRACE] 465000 R  from slave s=0
[TRACE] 465000 AR at slave s=1 addr=0x00002000 len=13
[TRACE_M2S_W] 465000 case=0 w_beat=1 active=1 from_fifo=0 fifo_empty=1 aw_hs=0
[TRACE_M2S_WFIFO] 465000 mst=3 f_vld=0 f_last=0 f_wdata=0x00000000 f_rdy=1 S_WREADY=1
[465000] S2M[M0] R: RSELECT=1110 RGRANT=0000 S_RVALID=0001 M_RREADY=1 M_RVALID=0
[465000] S2M[M1] R: ->MASTER RID=0x5c DATA=0xb29d727d LAST=1
[465000] S2M[M1] R: RSELECT=0001 RGRANT=0001 S_RVALID=0001 M_RREADY=1 M_RVALID=1
[465000] S2M[M1] R: slv[0] HS RID=0x5c DATA=0xb29d727d LAST=1 mst_idx=1
[TRACE_C4K] 465000 AW_ST=0 split=1 t1done=0 stall=0 stall_rel=1 beat=15/14
[TRACE_XBAR_B] 475000 M side m=0 m_bvalid=0 m_bready=1
[TRACE] 475000 S_ARREADY s=0 fifo=1 sid=0 final=0
[TRACE] 475000 S_ARREADY s=1 fifo=1 sid=0 final=0
[TRACE] 475000 S_ARREADY s=2 fifo=1 sid=0 final=0
[TRACE] 475000 S_ARREADY s=3 fifo=1 sid=0 final=0
[TRACE] 475000 R  to master m=1
[TRACE] 475000 R  from slave s=1
[TRACE_M2S_W] 475000 case=0 w_beat=1 active=1 from_fifo=0 fifo_empty=1 aw_hs=0
[TRACE_M2S_WFIFO] 475000 mst=3 f_vld=0 f_last=0 f_wdata=0x00000000 f_rdy=1 S_WREADY=1
[475000] S2M[M0] R: RSELECT=1110 RGRANT=0000 S_RVALID=0001 M_RREADY=1 M_RVALID=0
[475000] S2M[M1] R: ->MASTER RID=0x5c DATA=0xb29d727d LAST=1
[475000] S2M[M1] R: RSELECT=0001 RGRANT=0001 S_RVALID=0001 M_RREADY=1 M_RVALID=1
[475000] S2M[M1] R: slv[0] HS RID=0x5c DATA=0xb29d727d LAST=1 mst_idx=1
[TRACE_C4K] 475000 AW_ST=0 split=1 t1done=0 stall=0 stall_rel=1 beat=15/14
[TRACE_XBAR_B] 485000 M side m=0 m_bvalid=0 m_bready=1
[TRACE] 485000 S_ARREADY s=0 fifo=1 sid=0 final=0
[TRACE] 485000 S_ARREADY s=1 fifo=1 sid=0 final=0
[TRACE] 485000 S_ARREADY s=2 fifo=1 sid=0 final=0
[TRACE] 485000 S_ARREADY s=3 fifo=1 sid=0 final=0
[TRACE] 485000 R  to master m=1
[TRACE] 485000 R  from slave s=1
[TRACE_M2S_W] 485000 case=0 w_beat=1 active=1 from_fifo=0 fifo_empty=1 aw_hs=0
[TRACE_M2S_WFIFO] 485000 mst=3 f_vld=0 f_last=0 f_wdata=0x00000000 f_rdy=1 S_WREADY=1
[485000] S2M[M0] R: RSELECT=1101 RGRANT=0000 S_RVALID=0010 M_RREADY=1 M_RVALID=0
[485000] S2M[M1] R: ->MASTER RID=0x6c DATA=0xd926bcd4 LAST=0
[485000] S2M[M1] R: RSELECT=0010 RGRANT=0010 S_RVALID=0010 M_RREADY=1 M_RVALID=1
[485000] S2M[M1] R: slv[1] HS RID=0x6c DATA=0xd926bcd4 LAST=0 mst_idx=1
[TRACE_C4K] 485000 AW_ST=0 split=1 t1done=0 stall=0 stall_rel=1 beat=15/14
UVM_ERROR ./uvm/axi_scoreboard.sv(332) @ 485000: uvm_test_top.env.sb [DATA] M[1] addr=0x00002000 exp=0xd926bcd4 act=0xb29d727d
[TRACE_XBAR_B] 495000 M side m=0 m_bvalid=0 m_bready=1
[TRACE] 495000 R  to master m=1
[TRACE] 495000 R  from slave s=1
[TRACE_M2S_W] 495000 case=0 w_beat=1 active=1 from_fifo=0 fifo_empty=1 aw_hs=0
[TRACE_M2S_WFIFO] 495000 mst=3 f_vld=0 f_last=0 f_wdata=0x00000000 f_rdy=1 S_WREADY=1
[495000] S2M[M0] R: RSELECT=1101 RGRANT=0000 S_RVALID=0010 M_RREADY=1 M_RVALID=0
[495000] S2M[M1] R: ->MASTER RID=0x6c DATA=0x7b31dd54 LAST=0
[495000] S2M[M1] R: RSELECT=0010 RGRANT=0010 S_RVALID=0010 M_RREADY=1 M_RVALID=1
[495000] S2M[M1] R: slv[1] HS RID=0x6c DATA=0x7b31dd54 LAST=0 mst_idx=1
[TRACE_C4K] 495000 AW_ST=0 split=1 t1done=0 stall=0 stall_rel=1 beat=15/14
UVM_ERROR ./uvm/axi_scoreboard.sv(332) @ 495000: uvm_test_top.env.sb [DATA] M[1] addr=0x00002004 exp=0x7b31dd54 act=0xd926bcd4
[TRACE_XBAR_B] 505000 M side m=0 m_bvalid=0 m_bready=1
[TRACE] 505000 R  to master m=1
[TRACE] 505000 R  from slave s=1
[TRACE_M2S_W] 505000 case=0 w_beat=1 active=1 from_fifo=0 fifo_empty=1 aw_hs=0
[TRACE_M2S_WFIFO] 505000 mst=3 f_vld=0 f_last=0 f_wdata=0x00000000 f_rdy=1 S_WREADY=1
[505000] S2M[M0] R: RSELECT=1101 RGRANT=0000 S_RVALID=0010 M_RREADY=1 M_RVALID=0
[505000] S2M[M1] R: ->MASTER RID=0x6c DATA=0x7bf2539d LAST=0
[505000] S2M[M1] R: RSELECT=0010 RGRANT=0010 S_RVALID=0010 M_RREADY=1 M_RVALID=1
[505000] S2M[M1] R: slv[1] HS RID=0x6c DATA=0x7bf2539d LAST=0 mst_idx=1
[TRACE_C4K] 505000 AW_ST=0 split=1 t1done=0 stall=0 stall_rel=1 beat=15/14
UVM_ERROR ./uvm/axi_scoreboard.sv(332) @ 505000: uvm_test_top.env.sb [DATA] M[1] addr=0x00002008 exp=0x7bf2539d act=0x7b31dd54
[TRACE_XBAR_B] 515000 M side m=0 m_bvalid=0 m_bready=1
[TRACE] 515000 R  to master m=1
[TRACE] 515000 R  from slave s=1
[TRACE_M2S_W] 515000 case=0 w_beat=1 active=1 from_fifo=0 fifo_empty=1 aw_hs=0
[TRACE_M2S_WFIFO] 515000 mst=3 f_vld=0 f_last=0 f_wdata=0x00000000 f_rdy=1 S_WREADY=1
[515000] S2M[M0] R: RSELECT=1101 RGRANT=0000 S_RVALID=0010 M_RREADY=1 M_RVALID=0
[515000] S2M[M1] R: ->MASTER RID=0x6c DATA=0xa88c4d86 LAST=0
[515000] S2M[M1] R: RSELECT=0010 RGRANT=0010 S_RVALID=0010 M_RREADY=1 M_RVALID=1
[515000] S2M[M1] R: slv[1] HS RID=0x6c DATA=0xa88c4d86 LAST=0 mst_idx=1
[TRACE_C4K] 515000 AW_ST=0 split=1 t1done=0 stall=0 stall_rel=1 beat=15/14
UVM_ERROR ./uvm/axi_scoreboard.sv(332) @ 515000: uvm_test_top.env.sb [DATA] M[1] addr=0x0000200c exp=0xa88c4d86 act=0x7bf2539d
[TRACE_XBAR_B] 525000 M side m=0 m_bvalid=0 m_bready=1
[TRACE] 525000 R  to master m=1
[TRACE] 525000 R  from slave s=1
[TRACE_M2S_W] 525000 case=0 w_beat=1 active=1 from_fifo=0 fifo_empty=1 aw_hs=0
[TRACE_M2S_WFIFO] 525000 mst=3 f_vld=0 f_last=0 f_wdata=0x00000000 f_rdy=1 S_WREADY=1
[525000] S2M[M0] R: RSELECT=1101 RGRANT=0000 S_RVALID=0010 M_RREADY=1 M_RVALID=0
[525000] S2M[M1] R: ->MASTER RID=0x6c DATA=0xb9d391c2 LAST=0
[525000] S2M[M1] R: RSELECT=0010 RGRANT=0010 S_RVALID=0010 M_RREADY=1 M_RVALID=1
[525000] S2M[M1] R: slv[1] HS RID=0x6c DATA=0xb9d391c2 LAST=0 mst_idx=1
[TRACE_C4K] 525000 AW_ST=0 split=1 t1done=0 stall=0 stall_rel=1 beat=15/14
UVM_ERROR ./uvm/axi_scoreboard.sv(332) @ 525000: uvm_test_top.env.sb [DATA] M[1] addr=0x00002010 exp=0xb9d391c2 act=0xa88c4d86
[TRACE_XBAR_B] 535000 M side m=0 m_bvalid=0 m_bready=1
[TRACE] 535000 R  to master m=1
[TRACE] 535000 R  from slave s=1
[TRACE_M2S_W] 535000 case=0 w_beat=1 active=1 from_fifo=0 fifo_empty=1 aw_hs=0
[TRACE_M2S_WFIFO] 535000 mst=3 f_vld=0 f_last=0 f_wdata=0x00000000 f_rdy=1 S_WREADY=1
[535000] S2M[M0] R: RSELECT=1101 RGRANT=0000 S_RVALID=0010 M_RREADY=1 M_RVALID=0
[535000] S2M[M1] R: ->MASTER RID=0x6c DATA=0x913150d2 LAST=0
[535000] S2M[M1] R: RSELECT=0010 RGRANT=0010 S_RVALID=0010 M_RREADY=1 M_RVALID=1
[535000] S2M[M1] R: slv[1] HS RID=0x6c DATA=0x913150d2 LAST=0 mst_idx=1
[TRACE_C4K] 535000 AW_ST=0 split=1 t1done=0 stall=0 stall_rel=1 beat=15/14
UVM_ERROR ./uvm/axi_scoreboard.sv(332) @ 535000: uvm_test_top.env.sb [DATA] M[1] addr=0x00002014 exp=0x913150d2 act=0xb9d391c2
[TRACE_XBAR_B] 545000 M side m=0 m_bvalid=0 m_bready=1
[TRACE] 545000 R  to master m=1
[TRACE] 545000 R  from slave s=1
[TRACE_M2S_W] 545000 case=0 w_beat=1 active=1 from_fifo=0 fifo_empty=1 aw_hs=0
[TRACE_M2S_WFIFO] 545000 mst=3 f_vld=0 f_last=0 f_wdata=0x00000000 f_rdy=1 S_WREADY=1
[545000] S2M[M0] R: RSELECT=1101 RGRANT=0000 S_RVALID=0010 M_RREADY=1 M_RVALID=0
[545000] S2M[M1] R: ->MASTER RID=0x6c DATA=0xa72d3da1 LAST=0
[545000] S2M[M1] R: RSELECT=0010 RGRANT=0010 S_RVALID=0010 M_RREADY=1 M_RVALID=1
[545000] S2M[M1] R: slv[1] HS RID=0x6c DATA=0xa72d3da1 LAST=0 mst_idx=1
[TRACE_C4K] 545000 AW_ST=0 split=1 t1done=0 stall=0 stall_rel=1 beat=15/14
UVM_ERROR ./uvm/axi_scoreboard.sv(332) @ 545000: uvm_test_top.env.sb [DATA] M[1] addr=0x00002018 exp=0xa72d3da1 act=0x913150d2
[TRACE_XBAR_B] 555000 M side m=0 m_bvalid=0 m_bready=1
[TRACE] 555000 R  to master m=1
[TRACE] 555000 R  from slave s=1
[TRACE_M2S_W] 555000 case=0 w_beat=1 active=1 from_fifo=0 fifo_empty=1 aw_hs=0
[TRACE_M2S_WFIFO] 555000 mst=3 f_vld=0 f_last=0 f_wdata=0x00000000 f_rdy=1 S_WREADY=1
[555000] S2M[M0] R: RSELECT=1101 RGRANT=0000 S_RVALID=0010 M_RREADY=1 M_RVALID=0
[555000] S2M[M1] R: ->MASTER RID=0x6c DATA=0xf04d8d3b LAST=0
[555000] S2M[M1] R: RSELECT=0010 RGRANT=0010 S_RVALID=0010 M_RREADY=1 M_RVALID=1
[555000] S2M[M1] R: slv[1] HS RID=0x6c DATA=0xf04d8d3b LAST=0 mst_idx=1
[TRACE_C4K] 555000 AW_ST=0 split=1 t1done=0 stall=0 stall_rel=1 beat=15/14
UVM_ERROR ./uvm/axi_scoreboard.sv(332) @ 555000: uvm_test_top.env.sb [DATA] M[1] addr=0x0000201c exp=0xf04d8d3b act=0xa72d3da1
[TRACE_XBAR_B] 565000 M side m=0 m_bvalid=0 m_bready=1
[TRACE] 565000 R  to master m=1
[TRACE] 565000 R  from slave s=1
[TRACE_M2S_W] 565000 case=0 w_beat=1 active=1 from_fifo=0 fifo_empty=1 aw_hs=0
[TRACE_M2S_WFIFO] 565000 mst=3 f_vld=0 f_last=0 f_wdata=0x00000000 f_rdy=1 S_WREADY=1
[565000] S2M[M0] R: RSELECT=1101 RGRANT=0000 S_RVALID=0010 M_RREADY=1 M_RVALID=0
[565000] S2M[M1] R: ->MASTER RID=0x6c DATA=0x334b46fc LAST=0
[565000] S2M[M1] R: RSELECT=0010 RGRANT=0010 S_RVALID=0010 M_RREADY=1 M_RVALID=1
[565000] S2M[M1] R: slv[1] HS RID=0x6c DATA=0x334b46fc LAST=0 mst_idx=1
[TRACE_C4K] 565000 AW_ST=0 split=1 t1done=0 stall=0 stall_rel=1 beat=15/14
UVM_ERROR ./uvm/axi_scoreboard.sv(332) @ 565000: uvm_test_top.env.sb [DATA] M[1] addr=0x00002020 exp=0x334b46fc act=0xf04d8d3b
[TRACE_XBAR_B] 575000 M side m=0 m_bvalid=0 m_bready=1
[TRACE] 575000 R  to master m=1
[TRACE] 575000 R  from slave s=1
[TRACE_M2S_W] 575000 case=0 w_beat=1 active=1 from_fifo=0 fifo_empty=1 aw_hs=0
[TRACE_M2S_WFIFO] 575000 mst=3 f_vld=0 f_last=0 f_wdata=0x00000000 f_rdy=1 S_WREADY=1
[575000] S2M[M0] R: RSELECT=1101 RGRANT=0000 S_RVALID=0010 M_RREADY=1 M_RVALID=0
[575000] S2M[M1] R: ->MASTER RID=0x6c DATA=0x45883299 LAST=0
[575000] S2M[M1] R: RSELECT=0010 RGRANT=0010 S_RVALID=0010 M_RREADY=1 M_RVALID=1
[575000] S2M[M1] R: slv[1] HS RID=0x6c DATA=0x45883299 LAST=0 mst_idx=1
[TRACE_C4K] 575000 AW_ST=0 split=1 t1done=0 stall=0 stall_rel=1 beat=15/14
UVM_ERROR ./uvm/axi_scoreboard.sv(332) @ 575000: uvm_test_top.env.sb [DATA] M[1] addr=0x00002024 exp=0x45883299 act=0x334b46fc
[TRACE_XBAR_B] 585000 M side m=0 m_bvalid=0 m_bready=1
[TRACE] 585000 R  to master m=1
[TRACE] 585000 R  from slave s=1
[TRACE_M2S_W] 585000 case=0 w_beat=1 active=1 from_fifo=0 fifo_empty=1 aw_hs=0
[TRACE_M2S_WFIFO] 585000 mst=3 f_vld=0 f_last=0 f_wdata=0x00000000 f_rdy=1 S_WREADY=1
[585000] S2M[M0] R: RSELECT=1101 RGRANT=0000 S_RVALID=0010 M_RREADY=1 M_RVALID=0
[585000] S2M[M1] R: ->MASTER RID=0x6c DATA=0xe677040a LAST=0
[585000] S2M[M1] R: RSELECT=0010 RGRANT=0010 S_RVALID=0010 M_RREADY=1 M_RVALID=1
[585000] S2M[M1] R: slv[1] HS RID=0x6c DATA=0xe677040a LAST=0 mst_idx=1
[TRACE_C4K] 585000 AW_ST=0 split=1 t1done=0 stall=0 stall_rel=1 beat=15/14
UVM_ERROR ./uvm/axi_scoreboard.sv(332) @ 585000: uvm_test_top.env.sb [DATA] M[1] addr=0x00002028 exp=0xe677040a act=0x45883299
UVM_INFO ./uvm/axi_slave_agent.sv(203) @ 595000: uvm_test_top.env.slv_ag1 [TRACE] S[1] SLV R MISS at addr=0x00002034
[TRACE_XBAR_B] 595000 M side m=0 m_bvalid=0 m_bready=1
[TRACE] 595000 R  to master m=1
[TRACE] 595000 R  from slave s=1
[TRACE_M2S_W] 595000 case=0 w_beat=1 active=1 from_fifo=0 fifo_empty=1 aw_hs=0
[TRACE_M2S_WFIFO] 595000 mst=3 f_vld=0 f_last=0 f_wdata=0x00000000 f_rdy=1 S_WREADY=1
[595000] S2M[M0] R: RSELECT=1101 RGRANT=0000 S_RVALID=0010 M_RREADY=1 M_RVALID=0
[595000] S2M[M1] R: ->MASTER RID=0x6c DATA=0xeefd5ca5 LAST=0
[595000] S2M[M1] R: RSELECT=0010 RGRANT=0010 S_RVALID=0010 M_RREADY=1 M_RVALID=1
[595000] S2M[M1] R: slv[1] HS RID=0x6c DATA=0xeefd5ca5 LAST=0 mst_idx=1
[TRACE_C4K] 595000 AW_ST=0 split=1 t1done=0 stall=0 stall_rel=1 beat=15/14
UVM_ERROR ./uvm/axi_scoreboard.sv(332) @ 595000: uvm_test_top.env.sb [DATA] M[1] addr=0x0000202c exp=0xeefd5ca5 act=0xe677040a
[TRACE_XBAR_B] 605000 M side m=0 m_bvalid=0 m_bready=1
[TRACE] 605000 R  to master m=1
[TRACE] 605000 R  from slave s=1
[TRACE_M2S_W] 605000 case=0 w_beat=1 active=1 from_fifo=0 fifo_empty=1 aw_hs=0
[TRACE_M2S_WFIFO] 605000 mst=3 f_vld=0 f_last=0 f_wdata=0x00000000 f_rdy=1 S_WREADY=1
[605000] S2M[M0] R: RSELECT=1101 RGRANT=0000 S_RVALID=0010 M_RREADY=1 M_RVALID=0
[605000] S2M[M1] R: ->MASTER RID=0x6c DATA=0xb487705d LAST=0
[605000] S2M[M1] R: RSELECT=0010 RGRANT=0010 S_RVALID=0010 M_RREADY=1 M_RVALID=1
[605000] S2M[M1] R: slv[1] HS RID=0x6c DATA=0xb487705d LAST=0 mst_idx=1
[TRACE_C4K] 605000 AW_ST=0 split=1 t1done=0 stall=0 stall_rel=1 beat=15/14
UVM_ERROR ./uvm/axi_scoreboard.sv(332) @ 605000: uvm_test_top.env.sb [DATA] M[1] addr=0x00002030 exp=0xb487705d act=0xeefd5ca5
UVM_ERROR ./uvm/axi_protocol_checker.sv(214) @ 615000: uvm_test_top.env.proto_chk [PROT_ERR_RLEN_OVER] Protocol Error: M[1] Missing RLAST for ID=0xc! Received 15 beats, which already reaches/exceeds ARLEN=14.
UVM_ERROR ./uvm/axi_driver.sv(251) @ 615000: uvm_test_top.env.mst_ag1.drv_m1 [PROTOCOL_VIOLATION] M[1] RLAST error! beat_cnt=14, expected len=14, RLAST=0
[TRACE_XBAR_B] 615000 M side m=0 m_bvalid=0 m_bready=1
[TRACE] 615000 R  to master m=1
[TRACE_M2S_W] 615000 case=0 w_beat=1 active=1 from_fifo=0 fifo_empty=1 aw_hs=0
[TRACE_M2S_WFIFO] 615000 mst=3 f_vld=0 f_last=0 f_wdata=0x00000000 f_rdy=1 S_WREADY=1
[615000] S2M[M0] R: RSELECT=1101 RGRANT=0000 S_RVALID=0010 M_RREADY=1 M_RVALID=0
[615000] S2M[M1] R: ->MASTER RID=0x6c DATA=0xdeadbeef LAST=1
[615000] S2M[M1] R: RSELECT=0010 RGRANT=0010 S_RVALID=0010 M_RREADY=1 M_RVALID=1
[615000] S2M[M1] R: slv[1] HS RID=0x6c DATA=0xdeadbeef LAST=1 mst_idx=1
[TRACE_C4K] 615000 AW_ST=0 split=1 t1done=0 stall=0 stall_rel=1 beat=15/14
UVM_ERROR ./uvm/axi_protocol_checker.sv(205) @ 625000: uvm_test_top.env.proto_chk [PROT_ERR_RLEN] Protocol Error: M[1] RLAST Mismatch for ID=0xc! ARLEN expects 15 beats, but got RLAST at beat 16.
UVM_ERROR ./uvm/axi_driver.sv(251) @ 625000: uvm_test_top.env.mst_ag1.drv_m1 [PROTOCOL_VIOLATION] M[1] RLAST error! beat_cnt=15, expected len=14, RLAST=1
[TRACE_XBAR_B] 625000 M side m=0 m_bvalid=0 m_bready=1
[TRACE] 625000 S_ARREADY s=0 fifo=1 sid=0 final=0
[TRACE] 625000 S_ARREADY s=1 fifo=1 sid=0 final=0
[TRACE] 625000 S_ARREADY s=2 fifo=1 sid=0 final=0
[TRACE] 625000 S_ARREADY s=3 fifo=1 sid=0 final=0
[TRACE_M2S_W] 625000 case=0 w_beat=1 active=1 from_fifo=0 fifo_empty=1 aw_hs=0
[TRACE_M2S_WFIFO] 625000 mst=3 f_vld=0 f_last=0 f_wdata=0x00000000 f_rdy=1 S_WREADY=1
[625000] S2M[M0] R: RSELECT=1111 RGRANT=0000 S_RVALID=0000 M_RREADY=1 M_RVALID=0
[TRACE_C4K] 625000 AW_ST=0 split=1 t1done=0 stall=0 stall_rel=1 beat=15/14
UVM_ERROR ./uvm/axi_scoreboard.sv(338) @ 625000: uvm_test_top.env.sb [DATA] RD beat cnt M[1] id=12 exp=15 got=16
UVM_ERROR ./uvm/axi_scoreboard.sv(452) @ 625000: uvm_test_top.env.sb [RESP] RLAST mismatch M[1] id=12
[TRACE_XBAR_B] 635000 M side m=0 m_bvalid=0 m_bready=1
[TRACE_M2S_W] 635000 case=0 w_beat=1 active=1 from_fifo=0 fifo_empty=1 aw_hs=0
[TRACE_M2S_WFIFO] 635000 mst=3 f_vld=0 f_last=0 f_wdata=0x00000000 f_rdy=1 S_WREADY=1
[635000] S2M[M0] R: RSELECT=1111 RGRANT=0000 S_RVALID=0000 M_RREADY=1 M_RVALID=0
[TRACE_C4K] 635000 AW_ST=0 split=1 t1done=0 stall=0 stall_rel=1 beat=15/14
[TRACE_XBAR_B] 645000 M side m=0 m_bvalid=0 m_bready=1
[TRACE_M2S_W] 645000 case=0 w_beat=1 active=1 from_fifo=0 fifo_empty=1 aw_hs=0
[TRACE_M2S_WFIFO] 645000 mst=3 f_vld=0 f_last=0 f_wdata=0x00000000 f_rdy=1 S_WREADY=1
[645000] S2M[M0] R: RSELECT=1111 RGRANT=0000 S_RVALID=0000 M_RREADY=1 M_RVALID=0
[TRACE_C4K] 645000 AW_ST=0 split=1 t1done=0 stall=0 stall_rel=1 beat=15/14
[TRACE_XBAR_B] 655000 M side m=0 m_bvalid=0 m_bready=1
[TRACE_M2S_W] 655000 case=0 w_beat=1 active=1 from_fifo=0 fifo_empty=1 aw_hs=0
[TRACE_M2S_WFIFO] 655000 mst=3 f_vld=0 f_last=0 f_wdata=0x00000000 f_rdy=1 S_WREADY=1
[655000] S2M[M0] R: RSELECT=1111 RGRANT=0000 S_RVALID=0000 M_RREADY=1 M_RVALID=0
[TRACE_C4K] 655000 AW_ST=0 split=1 t1done=0 stall=0 stall_rel=1 beat=15/14
[TRACE_XBAR_B] 665000 M side m=0 m_bvalid=0 m_bready=1
[TRACE_M2S_W] 665000 case=0 w_beat=1 active=1 from_fifo=0 fifo_empty=1 aw_hs=0
[TRACE_M2S_WFIFO] 665000 mst=3 f_vld=0 f_last=0 f_wdata=0x00000000 f_rdy=1 S_WREADY=1
[665000] S2M[M0] R: RSELECT=1111 RGRANT=0000 S_RVALID=0000 M_RREADY=1 M_RVALID=0
[TRACE_C4K] 665000 AW_ST=0 split=1 t1done=0 stall=0 stall_rel=1 beat=15/14
[TRACE_XBAR_B] 675000 M side m=0 m_bvalid=0 m_bready=1
[TRACE_M2S_W] 675000 case=0 w_beat=1 active=1 from_fifo=0 fifo_empty=1 aw_hs=0
[TRACE_M2S_WFIFO] 675000 mst=3 f_vld=0 f_last=0 f_wdata=0x00000000 f_rdy=1 S_WREADY=1
[675000] S2M[M0] R: RSELECT=1111 RGRANT=0000 S_RVALID=0000 M_RREADY=1 M_RVALID=0
[TRACE_C4K] 675000 AW_ST=0 split=1 t1done=0 stall=0 stall_rel=1 beat=15/14
[TRACE_XBAR_B] 685000 M side m=0 m_bvalid=0 m_bready=1
[TRACE_M2S_W] 685000 case=0 w_beat=1 active=1 from_fifo=0 fifo_empty=1 aw_hs=0
[TRACE_M2S_WFIFO] 685000 mst=3 f_vld=0 f_last=0 f_wdata=0x00000000 f_rdy=1 S_WREADY=1
[685000] S2M[M0] R: RSELECT=1111 RGRANT=0000 S_RVALID=0000 M_RREADY=1 M_RVALID=0
[TRACE_C4K] 685000 AW_ST=0 split=1 t1done=0 stall=0 stall_rel=1 beat=15/14
[TRACE_XBAR_B] 695000 M side m=0 m_bvalid=0 m_bready=1
[TRACE_M2S_W] 695000 case=0 w_beat=1 active=1 from_fifo=0 fifo_empty=1 aw_hs=0
[TRACE_M2S_WFIFO] 695000 mst=3 f_vld=0 f_last=0 f_wdata=0x00000000 f_rdy=1 S_WREADY=1
[695000] S2M[M0] R: RSELECT=1111 RGRANT=0000 S_RVALID=0000 M_RREADY=1 M_RVALID=0
[TRACE_C4K] 695000 AW_ST=0 split=1 t1done=0 stall=0 stall_rel=1 beat=15/14
[TRACE_XBAR_B] 705000 M side m=0 m_bvalid=0 m_bready=1
[TRACE_M2S_W] 705000 case=0 w_beat=1 active=1 from_fifo=0 fifo_empty=1 aw_hs=0
[TRACE_M2S_WFIFO] 705000 mst=3 f_vld=0 f_last=0 f_wdata=0x00000000 f_rdy=1 S_WREADY=1
[705000] S2M[M0] R: RSELECT=1111 RGRANT=0000 S_RVALID=0000 M_RREADY=1 M_RVALID=0
[TRACE_C4K] 705000 AW_ST=0 split=1 t1done=0 stall=0 stall_rel=1 beat=15/14
[TRACE_XBAR_B] 715000 M side m=0 m_bvalid=0 m_bready=1
[TRACE_M2S_W] 715000 case=0 w_beat=1 active=1 from_fifo=0 fifo_empty=1 aw_hs=0
[TRACE_M2S_WFIFO] 715000 mst=3 f_vld=0 f_last=0 f_wdata=0x00000000 f_rdy=1 S_WREADY=1
[715000] S2M[M0] R: RSELECT=1111 RGRANT=0000 S_RVALID=0000 M_RREADY=1 M_RVALID=0
[TRACE_C4K] 715000 AW_ST=0 split=1 t1done=0 stall=0 stall_rel=1 beat=15/14
[TRACE_XBAR_B] 725000 M side m=0 m_bvalid=0 m_bready=1
[TRACE_M2S_W] 725000 case=0 w_beat=1 active=1 from_fifo=0 fifo_empty=1 aw_hs=0
[TRACE_M2S_WFIFO] 725000 mst=3 f_vld=0 f_last=0 f_wdata=0x00000000 f_rdy=1 S_WREADY=1
[725000] S2M[M0] R: RSELECT=1111 RGRANT=0000 S_RVALID=0000 M_RREADY=1 M_RVALID=0
[TRACE_C4K] 725000 AW_ST=0 split=1 t1done=0 stall=0 stall_rel=1 beat=15/14
[TRACE_XBAR_B] 735000 M side m=0 m_bvalid=0 m_bready=1
[TRACE_M2S_W] 735000 case=0 w_beat=1 active=1 from_fifo=0 fifo_empty=1 aw_hs=0
[TRACE_M2S_WFIFO] 735000 mst=3 f_vld=0 f_last=0 f_wdata=0x00000000 f_rdy=1 S_WREADY=1
[735000] S2M[M0] R: RSELECT=1111 RGRANT=0000 S_RVALID=0000 M_RREADY=1 M_RVALID=0
[TRACE_C4K] 735000 AW_ST=0 split=1 t1done=0 stall=0 stall_rel=1 beat=15/14
[TRACE_XBAR_B] 745000 M side m=0 m_bvalid=0 m_bready=1
[TRACE_M2S_W] 745000 case=0 w_beat=1 active=1 from_fifo=0 fifo_empty=1 aw_hs=0
[TRACE_M2S_WFIFO] 745000 mst=3 f_vld=0 f_last=0 f_wdata=0x00000000 f_rdy=1 S_WREADY=1
[745000] S2M[M0] R: RSELECT=1111 RGRANT=0000 S_RVALID=0000 M_RREADY=1 M_RVALID=0
[TRACE_C4K] 745000 AW_ST=0 split=1 t1done=0 stall=0 stall_rel=1 beat=15/14
[TRACE_XBAR_B] 755000 M side m=0 m_bvalid=0 m_bready=1
[TRACE_M2S_W] 755000 case=0 w_beat=1 active=1 from_fifo=0 fifo_empty=1 aw_hs=0
[TRACE_M2S_WFIFO] 755000 mst=3 f_vld=0 f_last=0 f_wdata=0x00000000 f_rdy=1 S_WREADY=1
[755000] S2M[M0] R: RSELECT=1111 RGRANT=0000 S_RVALID=0000 M_RREADY=1 M_RVALID=0
[TRACE_C4K] 755000 AW_ST=0 split=1 t1done=0 stall=0 stall_rel=1 beat=15/14
[TRACE_XBAR_B] 765000 M side m=0 m_bvalid=0 m_bready=1
[TRACE_M2S_W] 765000 case=0 w_beat=1 active=1 from_fifo=0 fifo_empty=1 aw_hs=0
[TRACE_M2S_WFIFO] 765000 mst=3 f_vld=0 f_last=0 f_wdata=0x00000000 f_rdy=1 S_WREADY=1
[765000] S2M[M0] R: RSELECT=1111 RGRANT=0000 S_RVALID=0000 M_RREADY=1 M_RVALID=0
[TRACE_C4K] 765000 AW_ST=0 split=1 t1done=0 stall=0 stall_rel=1 beat=15/14
[TRACE_XBAR_B] 775000 M side m=0 m_bvalid=0 m_bready=1
[TRACE_M2S_W] 775000 case=0 w_beat=1 active=1 from_fifo=0 fifo_empty=1 aw_hs=0
[TRACE_M2S_WFIFO] 775000 mst=3 f_vld=0 f_last=0 f_wdata=0x00000000 f_rdy=1 S_WREADY=1
[775000] S2M[M0] R: RSELECT=1111 RGRANT=0000 S_RVALID=0000 M_RREADY=1 M_RVALID=0
[TRACE_C4K] 775000 AW_ST=0 split=1 t1done=0 stall=0 stall_rel=1 beat=15/14
[TRACE_XBAR_B] 785000 M side m=0 m_bvalid=0 m_bready=1
[TRACE_M2S_W] 785000 case=0 w_beat=1 active=1 from_fifo=0 fifo_empty=1 aw_hs=0
[TRACE_M2S_WFIFO] 785000 mst=3 f_vld=0 f_last=0 f_wdata=0x00000000 f_rdy=1 S_WREADY=1
[785000] S2M[M0] R: RSELECT=1111 RGRANT=0000 S_RVALID=0000 M_RREADY=1 M_RVALID=0
[TRACE_C4K] 785000 AW_ST=0 split=1 t1done=0 stall=0 stall_rel=1 beat=15/14
[TRACE_XBAR_B] 795000 M side m=0 m_bvalid=0 m_bready=1
[TRACE_M2S_W] 795000 case=0 w_beat=1 active=1 from_fifo=0 fifo_empty=1 aw_hs=0
[TRACE_M2S_WFIFO] 795000 mst=3 f_vld=0 f_last=0 f_wdata=0x00000000 f_rdy=1 S_WREADY=1
[795000] S2M[M0] R: RSELECT=1111 RGRANT=0000 S_RVALID=0000 M_RREADY=1 M_RVALID=0
[TRACE_C4K] 795000 AW_ST=0 split=1 t1done=0 stall=0 stall_rel=1 beat=15/14
[TRACE_XBAR_B] 805000 M side m=0 m_bvalid=0 m_bready=1
[TRACE_M2S_W] 805000 case=0 w_beat=1 active=1 from_fifo=0 fifo_empty=1 aw_hs=0
[TRACE_M2S_WFIFO] 805000 mst=3 f_vld=0 f_last=0 f_wdata=0x00000000 f_rdy=1 S_WREADY=1
[805000] S2M[M0] R: RSELECT=1111 RGRANT=0000 S_RVALID=0000 M_RREADY=1 M_RVALID=0
[TRACE_C4K] 805000 AW_ST=0 split=1 t1done=0 stall=0 stall_rel=1 beat=15/14
[TRACE_XBAR_B] 815000 M side m=0 m_bvalid=0 m_bready=1
[TRACE_M2S_W] 815000 case=0 w_beat=1 active=1 from_fifo=0 fifo_empty=1 aw_hs=0
[TRACE_M2S_WFIFO] 815000 mst=3 f_vld=0 f_last=0 f_wdata=0x00000000 f_rdy=1 S_WREADY=1
[815000] S2M[M0] R: RSELECT=1111 RGRANT=0000 S_RVALID=0000 M_RREADY=1 M_RVALID=0
[TRACE_C4K] 815000 AW_ST=0 split=1 t1done=0 stall=0 stall_rel=1 beat=15/14
[TRACE_XBAR_B] 825000 M side m=0 m_bvalid=0 m_bready=1
[TRACE_M2S_W] 825000 case=0 w_beat=1 active=1 from_fifo=0 fifo_empty=1 aw_hs=0
[TRACE_M2S_WFIFO] 825000 mst=3 f_vld=0 f_last=0 f_wdata=0x00000000 f_rdy=1 S_WREADY=1
[825000] S2M[M0] R: RSELECT=1111 RGRANT=0000 S_RVALID=0000 M_RREADY=1 M_RVALID=0
[TRACE_C4K] 825000 AW_ST=0 split=1 t1done=0 stall=0 stall_rel=1 beat=15/14
[TRACE_XBAR_B] 835000 M side m=0 m_bvalid=0 m_bready=1
[TRACE_M2S_W] 835000 case=0 w_beat=1 active=1 from_fifo=0 fifo_empty=1 aw_hs=0
[TRACE_M2S_WFIFO] 835000 mst=3 f_vld=0 f_last=0 f_wdata=0x00000000 f_rdy=1 S_WREADY=1
[835000] S2M[M0] R: RSELECT=1111 RGRANT=0000 S_RVALID=0000 M_RREADY=1 M_RVALID=0
[TRACE_C4K] 835000 AW_ST=0 split=1 t1done=0 stall=0 stall_rel=1 beat=15/14
[TRACE_XBAR_B] 845000 M side m=0 m_bvalid=0 m_bready=1
[TRACE_M2S_W] 845000 case=0 w_beat=1 active=1 from_fifo=0 fifo_empty=1 aw_hs=0
[TRACE_M2S_WFIFO] 845000 mst=3 f_vld=0 f_last=0 f_wdata=0x00000000 f_rdy=1 S_WREADY=1
[845000] S2M[M0] R: RSELECT=1111 RGRANT=0000 S_RVALID=0000 M_RREADY=1 M_RVALID=0
[TRACE_C4K] 845000 AW_ST=0 split=1 t1done=0 stall=0 stall_rel=1 beat=15/14
[TRACE_XBAR_B] 855000 M side m=0 m_bvalid=0 m_bready=1
[TRACE_M2S_W] 855000 case=0 w_beat=1 active=1 from_fifo=0 fifo_empty=1 aw_hs=0
[TRACE_M2S_WFIFO] 855000 mst=3 f_vld=0 f_last=0 f_wdata=0x00000000 f_rdy=1 S_WREADY=1
[855000] S2M[M0] R: RSELECT=1111 RGRANT=0000 S_RVALID=0000 M_RREADY=1 M_RVALID=0
[TRACE_C4K] 855000 AW_ST=0 split=1 t1done=0 stall=0 stall_rel=1 beat=15/14
[TRACE_XBAR_B] 865000 M side m=0 m_bvalid=0 m_bready=1
[TRACE_M2S_W] 865000 case=0 w_beat=1 active=1 from_fifo=0 fifo_empty=1 aw_hs=0
[TRACE_M2S_WFIFO] 865000 mst=3 f_vld=0 f_last=0 f_wdata=0x00000000 f_rdy=1 S_WREADY=1
[865000] S2M[M0] R: RSELECT=1111 RGRANT=0000 S_RVALID=0000 M_RREADY=1 M_RVALID=0
[TRACE_C4K] 865000 AW_ST=0 split=1 t1done=0 stall=0 stall_rel=1 beat=15/14
[TRACE_XBAR_B] 875000 M side m=0 m_bvalid=0 m_bready=1
[TRACE_M2S_W] 875000 case=0 w_beat=1 active=1 from_fifo=0 fifo_empty=1 aw_hs=0
[TRACE_M2S_WFIFO] 875000 mst=3 f_vld=0 f_last=0 f_wdata=0x00000000 f_rdy=1 S_WREADY=1
[875000] S2M[M0] R: RSELECT=1111 RGRANT=0000 S_RVALID=0000 M_RREADY=1 M_RVALID=0
[TRACE_C4K] 875000 AW_ST=0 split=1 t1done=0 stall=0 stall_rel=1 beat=15/14
[TRACE_XBAR_B] 885000 M side m=0 m_bvalid=0 m_bready=1
[TRACE_M2S_W] 885000 case=0 w_beat=1 active=1 from_fifo=0 fifo_empty=1 aw_hs=0
[TRACE_M2S_WFIFO] 885000 mst=3 f_vld=0 f_last=0 f_wdata=0x00000000 f_rdy=1 S_WREADY=1
[885000] S2M[M0] R: RSELECT=1111 RGRANT=0000 S_RVALID=0000 M_RREADY=1 M_RVALID=0
[TRACE_C4K] 885000 AW_ST=0 split=1 t1done=0 stall=0 stall_rel=1 beat=15/14
[TRACE_XBAR_B] 895000 M side m=0 m_bvalid=0 m_bready=1
[TRACE_M2S_W] 895000 case=0 w_beat=1 active=1 from_fifo=0 fifo_empty=1 aw_hs=0
[TRACE_M2S_WFIFO] 895000 mst=3 f_vld=0 f_last=0 f_wdata=0x00000000 f_rdy=1 S_WREADY=1
[895000] S2M[M0] R: RSELECT=1111 RGRANT=0000 S_RVALID=0000 M_RREADY=1 M_RVALID=0
[TRACE_C4K] 895000 AW_ST=0 split=1 t1done=0 stall=0 stall_rel=1 beat=15/14
[TRACE_XBAR_B] 905000 M side m=0 m_bvalid=0 m_bready=1
[TRACE_M2S_W] 905000 case=0 w_beat=1 active=1 from_fifo=0 fifo_empty=1 aw_hs=0
[TRACE_M2S_WFIFO] 905000 mst=3 f_vld=0 f_last=0 f_wdata=0x00000000 f_rdy=1 S_WREADY=1
[905000] S2M[M0] R: RSELECT=1111 RGRANT=0000 S_RVALID=0000 M_RREADY=1 M_RVALID=0
[TRACE_C4K] 905000 AW_ST=0 split=1 t1done=0 stall=0 stall_rel=1 beat=15/14
[TRACE_XBAR_B] 915000 M side m=0 m_bvalid=0 m_bready=1
[TRACE_M2S_W] 915000 case=0 w_beat=1 active=1 from_fifo=0 fifo_empty=1 aw_hs=0
[TRACE_M2S_WFIFO] 915000 mst=3 f_vld=0 f_last=0 f_wdata=0x00000000 f_rdy=1 S_WREADY=1
[915000] S2M[M0] R: RSELECT=1111 RGRANT=0000 S_RVALID=0000 M_RREADY=1 M_RVALID=0
[TRACE_C4K] 915000 AW_ST=0 split=1 t1done=0 stall=0 stall_rel=1 beat=15/14
[TRACE_XBAR_B] 925000 M side m=0 m_bvalid=0 m_bready=1
[TRACE_M2S_W] 925000 case=0 w_beat=1 active=1 from_fifo=0 fifo_empty=1 aw_hs=0
[TRACE_M2S_WFIFO] 925000 mst=3 f_vld=0 f_last=0 f_wdata=0x00000000 f_rdy=1 S_WREADY=1
[925000] S2M[M0] R: RSELECT=1111 RGRANT=0000 S_RVALID=0000 M_RREADY=1 M_RVALID=0
[TRACE_C4K] 925000 AW_ST=0 split=1 t1done=0 stall=0 stall_rel=1 beat=15/14
[TRACE_XBAR_B] 935000 M side m=0 m_bvalid=0 m_bready=1
[TRACE_M2S_W] 935000 case=0 w_beat=1 active=1 from_fifo=0 fifo_empty=1 aw_hs=0
[TRACE_M2S_WFIFO] 935000 mst=3 f_vld=0 f_last=0 f_wdata=0x00000000 f_rdy=1 S_WREADY=1
[935000] S2M[M0] R: RSELECT=1111 RGRANT=0000 S_RVALID=0000 M_RREADY=1 M_RVALID=0
[TRACE_C4K] 935000 AW_ST=0 split=1 t1done=0 stall=0 stall_rel=1 beat=15/14
[TRACE_XBAR_B] 945000 M side m=0 m_bvalid=0 m_bready=1
[TRACE_M2S_W] 945000 case=0 w_beat=1 active=1 from_fifo=0 fifo_empty=1 aw_hs=0
[TRACE_M2S_WFIFO] 945000 mst=3 f_vld=0 f_last=0 f_wdata=0x00000000 f_rdy=1 S_WREADY=1
[945000] S2M[M0] R: RSELECT=1111 RGRANT=0000 S_RVALID=0000 M_RREADY=1 M_RVALID=0
[TRACE_C4K] 945000 AW_ST=0 split=1 t1done=0 stall=0 stall_rel=1 beat=15/14
[TRACE_XBAR_B] 955000 M side m=0 m_bvalid=0 m_bready=1
[TRACE_M2S_W] 955000 case=0 w_beat=1 active=1 from_fifo=0 fifo_empty=1 aw_hs=0
[TRACE_M2S_WFIFO] 955000 mst=3 f_vld=0 f_last=0 f_wdata=0x00000000 f_rdy=1 S_WREADY=1
[955000] S2M[M0] R: RSELECT=1111 RGRANT=0000 S_RVALID=0000 M_RREADY=1 M_RVALID=0
[TRACE_C4K] 955000 AW_ST=0 split=1 t1done=0 stall=0 stall_rel=1 beat=15/14
[TRACE_XBAR_B] 965000 M side m=0 m_bvalid=0 m_bready=1
[TRACE_M2S_W] 965000 case=0 w_beat=1 active=1 from_fifo=0 fifo_empty=1 aw_hs=0
[TRACE_M2S_WFIFO] 965000 mst=3 f_vld=0 f_last=0 f_wdata=0x00000000 f_rdy=1 S_WREADY=1
[965000] S2M[M0] R: RSELECT=1111 RGRANT=0000 S_RVALID=0000 M_RREADY=1 M_RVALID=0
[TRACE_C4K] 965000 AW_ST=0 split=1 t1done=0 stall=0 stall_rel=1 beat=15/14
[TRACE_XBAR_B] 975000 M side m=0 m_bvalid=0 m_bready=1
[TRACE_M2S_W] 975000 case=0 w_beat=1 active=1 from_fifo=0 fifo_empty=1 aw_hs=0
[TRACE_M2S_WFIFO] 975000 mst=3 f_vld=0 f_last=0 f_wdata=0x00000000 f_rdy=1 S_WREADY=1
[975000] S2M[M0] R: RSELECT=1111 RGRANT=0000 S_RVALID=0000 M_RREADY=1 M_RVALID=0
[TRACE_C4K] 975000 AW_ST=0 split=1 t1done=0 stall=0 stall_rel=1 beat=15/14
[TRACE_XBAR_B] 985000 M side m=0 m_bvalid=0 m_bready=1
[TRACE_M2S_W] 985000 case=0 w_beat=1 active=1 from_fifo=0 fifo_empty=1 aw_hs=0
[TRACE_M2S_WFIFO] 985000 mst=3 f_vld=0 f_last=0 f_wdata=0x00000000 f_rdy=1 S_WREADY=1
[985000] S2M[M0] R: RSELECT=1111 RGRANT=0000 S_RVALID=0000 M_RREADY=1 M_RVALID=0
[TRACE_C4K] 985000 AW_ST=0 split=1 t1done=0 stall=0 stall_rel=1 beat=15/14
[TRACE_XBAR_B] 995000 M side m=0 m_bvalid=0 m_bready=1
[TRACE_M2S_W] 995000 case=0 w_beat=1 active=1 from_fifo=0 fifo_empty=1 aw_hs=0
[TRACE_M2S_WFIFO] 995000 mst=3 f_vld=0 f_last=0 f_wdata=0x00000000 f_rdy=1 S_WREADY=1
[995000] S2M[M0] R: RSELECT=1111 RGRANT=0000 S_RVALID=0000 M_RREADY=1 M_RVALID=0
[TRACE_C4K] 995000 AW_ST=0 split=1 t1done=0 stall=0 stall_rel=1 beat=15/14
UVM_WARNING ./uvm/split4k_test.sv(12) @ 1000000: uvm_test_top [TIMEOUT] Simulation timeout at 6000000ns, stopping
UVM_INFO /home/synopsys/vcs/O-2018.09-SP2/etc/uvm-1.2/base/uvm_objection.svh(1276) @ 1000000: reporter [TEST_DONE] 'run' phase is ready to proceed to the 'extract' phase
COVERAGE REPORT:
  Outstanding: AW peak=1 AR peak=1
  Arbitration: 2 total grants
  4KB Splits: 1 total
    by_len: 1-3=0 4-7=0 8-15=1
    by_slv: S0=1 S1=0 S2=0 S3=0
    by_pos: early=1 mid=0 late=0
  Reorder: 0 events, max depth=0
  Default Slave: 0 hits
UVM_INFO ./uvm/axi_protocol_checker.sv(233) @ 1000000: uvm_test_top.env.proto_chk [PROT_CHKER_SUMMARY] 
==================================================
  AXI PROTOCOL CHECKER仿真报告:
  AW次数: 1 | W次数: 15 | B次数: 1
  AR次数: 1 | R次数: 16
  总计发现协议违例错误(Error): 2
==================================================
REF MODEL: 1 writes, 1 reads, 1 4KB splits predicted
AXI SCOREBOARD:
  Routing : 2 checks, 0 errors
  Data    : 16 checks, 14 errors
  Response: 1 writes, 1 reads, 2 errors, 0 reorder events
UVM_INFO /home/synopsys/vcs/O-2018.09-SP2/etc/uvm-1.2/base/uvm_report_catcher.svh(705) @ 1000000: reporter [UVM/REPORT/CATCHER] 
--- UVM Report catcher Summary ---


Number of demoted UVM_FATAL reports  :    0
Number of demoted UVM_ERROR reports  :    0
Number of demoted UVM_WARNING reports:    0
Number of caught UVM_FATAL reports   :    0
Number of caught UVM_ERROR reports   :    0
Number of caught UVM_WARNING reports :    0

UVM_INFO /home/synopsys/vcs/O-2018.09-SP2/etc/uvm-1.2/base/uvm_report_server.svh(894) @ 1000000: reporter [UVM/REPORT/SERVER] 
--- UVM Report Summary ---

** Report counts by severity
UVM_INFO :   65
UVM_WARNING :    1
UVM_ERROR :   22
UVM_FATAL :    0
** Report counts by id
[DATA]    14
[DRIVER]     2
[LEN_MISMATCH]     2
[NO_DPI_TSTNAME]     1
[PROTOCOL_VIOLATION]     2
[PROT_CHKER_SUMMARY]     1
[PROT_ERR_RLEN]     1
[PROT_ERR_RLEN_OVER]     1
[RESP]     2
[RNTST]     1
[TEST_DONE]     1
[TIMEOUT]     1
[TRACE]    53
[UVM/COMP/NAMECHECK]     1
[UVM/RELNOTES]     1
[UVM/REPORT/CATCHER]     1
[UVMTOP]     1
[VSEQ]     2

$finish called from file "/home/synopsys/vcs/O-2018.09-SP2/etc/uvm-1.2/base/uvm_root.svh", line 527.
$finish at simulation time              1000000
