Command: vcs -full64 -sverilog -f ./list/top.f -R +v2k -debug_access+all -timescale=1ns/1ps \
-fsdb +define+FSDB -l com.log +lint=TFIPC-L +lint=PCWM
                         Chronologic VCS (TM)
       Version O-2018.09-SP2_Full64 -- Thu May 28 20:56:18 2026
               Copyright (c) 1991-2018 by Synopsys Inc.
                         ALL RIGHTS RESERVED

This program is proprietary and confidential information of Synopsys Inc.
and may be used and disclosed only as authorized in a license agreement
controlling such use and disclosure.

Parsing design file './rtl/aw_order_fifo.v'
Parsing design file './rtl/axi_arbiter_m2s_m_amt.v'
Parsing design file './rtl/axi_m2s_m_amt.v'
Parsing design file './rtl/axi_s2m_s_amt.v'
Parsing design file './rtl/axi_arbiter_param_rr.v'
Parsing design file './rtl/axi_crossbar.v'
Parsing design file './rtl/axi_default_slave.v'
Parsing design file './rtl/axi_fifo_sync.v'
Parsing design file './rtl/axi_interconnect.v'

Warning-[IPDW] Identifier previously declared
./rtl/axi_interconnect.v, 737
  Second declaration for identifier 'clr_last_packed' ignored
  Identifier 'clr_last_packed' previously declared as wire. 
  [./rtl/axi_interconnect.v, 644]


Warning-[IPDW] Identifier previously declared
./rtl/axi_interconnect.v, 738
  Second declaration for identifier 'clr_sid_packed' ignored
  Identifier 'clr_sid_packed' previously declared as wire. 
  [./rtl/axi_interconnect.v, 645]


Warning-[IPDW] Identifier previously declared
./rtl/axi_interconnect.v, 739
  Second declaration for identifier 'clr_sid_vld_packed' ignored
  Identifier 'clr_sid_vld_packed' previously declared as wire. 
  [./rtl/axi_interconnect.v, 646]


Warning-[IPDW] Identifier previously declared
./rtl/axi_interconnect.v, 740
  Second declaration for identifier 'sid_buf_s_clr_rdy' ignored
  Identifier 'sid_buf_s_clr_rdy' previously declared as wire. 
  [./rtl/axi_interconnect.v, 647]

Parsing design file './rtl/axi_split_b_merge.v'
Parsing design file './rtl/axi_split_r_merge.v'
Parsing design file './rtl/cross_4k_if.v'
Parsing design file './rtl/sid_buffer.v'
Parsing design file './rtl/reorder.v'
Parsing design file './tb/axi_tb.sv'
Top Level Modules:
       axi_tb
TimeScale is 1 ns / 1 ps
Notice: Ports coerced to inout, use -notice for details
Starting vcs inline pass...
12 modules and 0 UDP read.
recompiling module axi_m2s_m_amt
recompiling module axi_s2m_s_amt
recompiling module axi_arbiter_param_rr
recompiling module axi_crossbar
recompiling module axi_fifo_sync
recompiling module axi_interconnect
recompiling module axi_split_b_merge
recompiling module axi_split_r_merge
recompiling module cross_4k_if
recompiling module sid_buffer
recompiling module reorder
recompiling module axi_tb
All of 12 modules done
make[1]: Entering directory '/home/ICer/project/axi4/csrc'
rm -f _csrc*.so pre_vcsobj_*.so share_vcsobj_*.so
if [ -x ../simv ]; then chmod -x ../simv; fi
g++  -o ../simv    -Wl,-rpath-link=./ -Wl,-rpath='$ORIGIN'/simv.daidir/ -Wl,-rpath=./simv.daidir/ \
-Wl,-rpath='$ORIGIN'/simv.daidir//scsim.db.dir  -rdynamic  -Wl,-rpath=/home/synopsys/vcs/O-2018.09-SP2/linux64/lib \
-L/home/synopsys/vcs/O-2018.09-SP2/linux64/lib   objs/amcQw_d.o   _26261_archive_1.so \
SIM_l.o       rmapats_mop.o rmapats.o rmar.o rmar_nd.o  rmar_llvm_0_1.o rmar_llvm_0_0.o \
-lzerosoft_rt_stubs -lvirsim -lerrorinf -lsnpsmalloc -lvfs    -lvcsnew -lsimprofile \
-luclinative /home/synopsys/vcs/O-2018.09-SP2/linux64/lib/vcs_tls.o   -Wl,-whole-archive \
-lvcsucli -Wl,-no-whole-archive        _vcs_pli_stub_.o   /home/synopsys/vcs/O-2018.09-SP2/linux64/lib/vcs_save_restore_new.o \
/home/synopsys/verdi/Verdi_O-2018.09-SP2/share/PLI/VCS/LINUX64/pli.a -ldl  -lc -lm \
-lpthread -ldl 
../simv up to date
make[1]: Leaving directory '/home/ICer/project/axi4/csrc'
Command: /home/ICer/project/axi4/./simv +v2k +define+FSDB -a com.log +lint=TFIPC-L +lint=PCWM
Chronologic VCS simulator copyright 1991-2018
Contains Synopsys proprietary information.
Compiler version O-2018.09-SP2_Full64; Runtime version O-2018.09-SP2_Full64;  May 28 20:56 2026
*Verdi* Loading libsscore_vcs201809.so
FSDB Dumper for VCS, Release Verdi_O-2018.09-SP2, Linux x86_64/64bit, 02/21/2019
(C) 1996 - 2019 by Synopsys, Inc.
*Verdi* : Create FSDB file 'axi_tb.fsdb'
*Verdi* : Begin traversing the scope (axi_tb), layer (0).
*Verdi* : End of traversing.
*Verdi* : Begin traversing the MDAs, layer (0).
*Verdi* : Enable +mda and +packedmda dumping.
*Verdi* : End of traversing the MDAs.
============================================================
 AXI INTERCONNECT COMPREHENSIVE TESTBENCH — 4M × 4S
============================================================

[PHASE 1] ========== PHASE 1: Basic Single-Beat Sanity ==========
[395000] MASTER[0] WRITE START: addr=0x00000000 len=0 id=0x0
[395000] MONITOR [phase=1][cnt=0]
  M[0] AW: addr=0x00000000 valid=0 ready=1
  M[0] W : data=0x00000000 last=0 valid=0 ready=1
  M[0] B : id=0x0 resp=0x0 valid=0 ready=1
  M[0] AR: addr=0x00000000 valid=0 ready=1
  M[0] R : data=0x00000000 last=0 valid=0 ready=1
  M[1] AW: addr=0x00000000 valid=0 ready=1
  M[1] W : data=0x00000000 last=0 valid=0 ready=1
  M[1] B : id=0x0 resp=0x0 valid=0 ready=1
  M[1] AR: addr=0x00000000 valid=0 ready=1
  M[1] R : data=0x00000000 last=0 valid=0 ready=1
  M[2] AW: addr=0x00000000 valid=0 ready=1
  M[2] W : data=0x00000000 last=0 valid=0 ready=1
  M[2] B : id=0x0 resp=0x0 valid=0 ready=1
  M[2] AR: addr=0x00000000 valid=0 ready=1
  M[2] R : data=0x00000000 last=0 valid=0 ready=1
  M[3] AW: addr=0x00000000 valid=0 ready=1
  M[3] W : data=0x00000000 last=0 valid=0 ready=1
  M[3] B : id=0x0 resp=0x0 valid=0 ready=1
  M[3] AR: addr=0x00000000 valid=0 ready=1
  M[3] R : data=0x00000000 last=0 valid=0 ready=1
  S[0] AW: addr=0x00000000 valid=0 ready=1
  S[0] W : data=0x00000000 last=0 valid=0 ready=0
  S[0] B : id=0x0 resp=0x0 valid=0 ready=1
  S[0] AR: addr=0x00000000 valid=0 ready=1
  S[0] R : data=0x00000000 last=0 valid=0 ready=1
  S[1] AW: addr=0x00000000 valid=0 ready=1
  S[1] W : data=0x00000000 last=0 valid=0 ready=0
  S[1] B : id=0x0 resp=0x0 valid=0 ready=1
  S[1] AR: addr=0x00000000 valid=0 ready=1
  S[1] R : data=0x00000000 last=0 valid=0 ready=1
  S[2] AW: addr=0x00000000 valid=0 ready=1
  S[2] W : data=0x00000000 last=0 valid=0 ready=0
  S[2] B : id=0x0 resp=0x0 valid=0 ready=1
  S[2] AR: addr=0x00000000 valid=0 ready=1
  S[2] R : data=0x00000000 last=0 valid=0 ready=1
  S[3] AW: addr=0x00000000 valid=0 ready=1
  S[3] W : data=0x00000000 last=0 valid=0 ready=0
  S[3] B : id=0x0 resp=0x0 valid=0 ready=1
  S[3] AR: addr=0x00000000 valid=0 ready=1
  S[3] R : data=0x00000000 last=0 valid=0 ready=1
[405000] MONITOR [phase=1][cnt=1]
  M[0] AW: addr=0x00000000 valid=0 ready=1
  M[0] W : data=0x00000000 last=0 valid=0 ready=1
  M[0] B : id=0x0 resp=0x0 valid=0 ready=1
  M[0] AR: addr=0x00000000 valid=0 ready=1
  M[0] R : data=0x00000000 last=0 valid=0 ready=1
  M[1] AW: addr=0x00000000 valid=0 ready=1
  M[1] W : data=0x00000000 last=0 valid=0 ready=1
  M[1] B : id=0x0 resp=0x0 valid=0 ready=1
  M[1] AR: addr=0x00000000 valid=0 ready=1
  M[1] R : data=0x00000000 last=0 valid=0 ready=1
  M[2] AW: addr=0x00000000 valid=0 ready=1
  M[2] W : data=0x00000000 last=0 valid=0 ready=1
  M[2] B : id=0x0 resp=0x0 valid=0 ready=1
  M[2] AR: addr=0x00000000 valid=0 ready=1
  M[2] R : data=0x00000000 last=0 valid=0 ready=1
  M[3] AW: addr=0x00000000 valid=0 ready=1
  M[3] W : data=0x00000000 last=0 valid=0 ready=1
  M[3] B : id=0x0 resp=0x0 valid=0 ready=1
  M[3] AR: addr=0x00000000 valid=0 ready=1
  M[3] R : data=0x00000000 last=0 valid=0 ready=1
  S[0] AW: addr=0x00000000 valid=0 ready=1
  S[0] W : data=0x00000000 last=0 valid=0 ready=0
  S[0] B : id=0x0 resp=0x0 valid=0 ready=1
  S[0] AR: addr=0x00000000 valid=0 ready=1
  S[0] R : data=0x00000000 last=0 valid=0 ready=1
  S[1] AW: addr=0x00000000 valid=0 ready=1
  S[1] W : data=0x00000000 last=0 valid=0 ready=0
  S[1] B : id=0x0 resp=0x0 valid=0 ready=1
  S[1] AR: addr=0x00000000 valid=0 ready=1
  S[1] R : data=0x00000000 last=0 valid=0 ready=1
  S[2] AW: addr=0x00000000 valid=0 ready=1
  S[2] W : data=0x00000000 last=0 valid=0 ready=0
  S[2] B : id=0x0 resp=0x0 valid=0 ready=1
  S[2] AR: addr=0x00000000 valid=0 ready=1
  S[2] R : data=0x00000000 last=0 valid=0 ready=1
  S[3] AW: addr=0x00000000 valid=0 ready=1
  S[3] W : data=0x00000000 last=0 valid=0 ready=0
  S[3] B : id=0x0 resp=0x0 valid=0 ready=1
  S[3] AR: addr=0x00000000 valid=0 ready=1
  S[3] R : data=0x00000000 last=0 valid=0 ready=1
[415000] MONITOR [phase=1][cnt=2]
  M[0] AW: addr=0x00000000 valid=1 ready=1
  M[0] W : data=0x00000000 last=0 valid=0 ready=1
  M[0] B : id=0x0 resp=0x0 valid=0 ready=1
  M[0] AR: addr=0x00000000 valid=0 ready=1
  M[0] R : data=0x00000000 last=0 valid=0 ready=1
  M[1] AW: addr=0x00000000 valid=0 ready=1
  M[1] W : data=0x00000000 last=0 valid=0 ready=1
  M[1] B : id=0x0 resp=0x0 valid=0 ready=1
  M[1] AR: addr=0x00000000 valid=0 ready=1
  M[1] R : data=0x00000000 last=0 valid=0 ready=1
  M[2] AW: addr=0x00000000 valid=0 ready=1
  M[2] W : data=0x00000000 last=0 valid=0 ready=1
  M[2] B : id=0x0 resp=0x0 valid=0 ready=1
  M[2] AR: addr=0x00000000 valid=0 ready=1
  M[2] R : data=0x00000000 last=0 valid=0 ready=1
  M[3] AW: addr=0x00000000 valid=0 ready=1
  M[3] W : data=0x00000000 last=0 valid=0 ready=1
  M[3] B : id=0x0 resp=0x0 valid=0 ready=1
  M[3] AR: addr=0x00000000 valid=0 ready=1
  M[3] R : data=0x00000000 last=0 valid=0 ready=1
  S[0] AW: addr=0x00000000 valid=0 ready=1
  S[0] W : data=0x00000000 last=0 valid=0 ready=0
  S[0] B : id=0x0 resp=0x0 valid=0 ready=1
  S[0] AR: addr=0x00000000 valid=0 ready=1
  S[0] R : data=0x00000000 last=0 valid=0 ready=1
  S[1] AW: addr=0x00000000 valid=0 ready=1
  S[1] W : data=0x00000000 last=0 valid=0 ready=0
  S[1] B : id=0x0 resp=0x0 valid=0 ready=1
  S[1] AR: addr=0x00000000 valid=0 ready=1
  S[1] R : data=0x00000000 last=0 valid=0 ready=1
  S[2] AW: addr=0x00000000 valid=0 ready=1
  S[2] W : data=0x00000000 last=0 valid=0 ready=0
  S[2] B : id=0x0 resp=0x0 valid=0 ready=1
  S[2] AR: addr=0x00000000 valid=0 ready=1
  S[2] R : data=0x00000000 last=0 valid=0 ready=1
  S[3] AW: addr=0x00000000 valid=0 ready=1
  S[3] W : data=0x00000000 last=0 valid=0 ready=0
  S[3] B : id=0x0 resp=0x0 valid=0 ready=1
  S[3] AR: addr=0x00000000 valid=0 ready=1
  S[3] R : data=0x00000000 last=0 valid=0 ready=1
[425000] MONITOR [phase=1][cnt=3]
  M[0] AW: addr=0x00000000 valid=0 ready=1
  M[0] W : data=0x00000000 last=0 valid=0 ready=1
  M[0] B : id=0x0 resp=0x0 valid=0 ready=1
  M[0] AR: addr=0x00000000 valid=0 ready=1
  M[0] R : data=0x00000000 last=0 valid=0 ready=1
  M[1] AW: addr=0x00000000 valid=0 ready=1
  M[1] W : data=0x00000000 last=0 valid=0 ready=1
  M[1] B : id=0x0 resp=0x0 valid=0 ready=1
  M[1] AR: addr=0x00000000 valid=0 ready=1
  M[1] R : data=0x00000000 last=0 valid=0 ready=1
  M[2] AW: addr=0x00000000 valid=0 ready=1
  M[2] W : data=0x00000000 last=0 valid=0 ready=1
  M[2] B : id=0x0 resp=0x0 valid=0 ready=1
  M[2] AR: addr=0x00000000 valid=0 ready=1
  M[2] R : data=0x00000000 last=0 valid=0 ready=1
  M[3] AW: addr=0x00000000 valid=0 ready=1
  M[3] W : data=0x00000000 last=0 valid=0 ready=1
  M[3] B : id=0x0 resp=0x0 valid=0 ready=1
  M[3] AR: addr=0x00000000 valid=0 ready=1
  M[3] R : data=0x00000000 last=0 valid=0 ready=1
  S[0] AW: addr=0x00000000 valid=0 ready=1
  S[0] W : data=0x00000000 last=0 valid=0 ready=0
  S[0] B : id=0x0 resp=0x0 valid=0 ready=1
  S[0] AR: addr=0x00000000 valid=0 ready=1
  S[0] R : data=0x00000000 last=0 valid=0 ready=1
  S[1] AW: addr=0x00000000 valid=0 ready=1
  S[1] W : data=0x00000000 last=0 valid=0 ready=0
  S[1] B : id=0x0 resp=0x0 valid=0 ready=1
  S[1] AR: addr=0x00000000 valid=0 ready=1
  S[1] R : data=0x00000000 last=0 valid=0 ready=1
  S[2] AW: addr=0x00000000 valid=0 ready=1
  S[2] W : data=0x00000000 last=0 valid=0 ready=0
  S[2] B : id=0x0 resp=0x0 valid=0 ready=1
  S[2] AR: addr=0x00000000 valid=0 ready=1
  S[2] R : data=0x00000000 last=0 valid=0 ready=1
  S[3] AW: addr=0x00000000 valid=0 ready=1
  S[3] W : data=0x00000000 last=0 valid=0 ready=0
  S[3] B : id=0x0 resp=0x0 valid=0 ready=1
  S[3] AR: addr=0x00000000 valid=0 ready=1
  S[3] R : data=0x00000000 last=0 valid=0 ready=1
[435000] SLAVE[0] AW accepted: addr=0x00000000 len=0 size=2 id=0x0
[435000] MONITOR [phase=1][cnt=4]
  M[0] AW: addr=0x00000000 valid=0 ready=1
  M[0] W : data=0x00000000 last=0 valid=0 ready=1
  M[0] B : id=0x0 resp=0x0 valid=0 ready=1
  M[0] AR: addr=0x00000000 valid=0 ready=1
  M[0] R : data=0x00000000 last=0 valid=0 ready=1
  M[1] AW: addr=0x00000000 valid=0 ready=1
  M[1] W : data=0x00000000 last=0 valid=0 ready=1
  M[1] B : id=0x0 resp=0x0 valid=0 ready=1
  M[1] AR: addr=0x00000000 valid=0 ready=1
  M[1] R : data=0x00000000 last=0 valid=0 ready=1
  M[2] AW: addr=0x00000000 valid=0 ready=1
  M[2] W : data=0x00000000 last=0 valid=0 ready=1
  M[2] B : id=0x0 resp=0x0 valid=0 ready=1
  M[2] AR: addr=0x00000000 valid=0 ready=1
  M[2] R : data=0x00000000 last=0 valid=0 ready=1
  M[3] AW: addr=0x00000000 valid=0 ready=1
  M[3] W : data=0x00000000 last=0 valid=0 ready=1
  M[3] B : id=0x0 resp=0x0 valid=0 ready=1
  M[3] AR: addr=0x00000000 valid=0 ready=1
  M[3] R : data=0x00000000 last=0 valid=0 ready=1
  S[0] AW: addr=0x00000000 valid=1 ready=1
  S[0] W : data=0x00000000 last=0 valid=0 ready=0
  S[0] B : id=0x0 resp=0x0 valid=0 ready=1
  S[0] AR: addr=0x00000000 valid=0 ready=1
  S[0] R : data=0x00000000 last=0 valid=0 ready=1
  S[1] AW: addr=0x00000000 valid=0 ready=1
  S[1] W : data=0x00000000 last=0 valid=0 ready=0
  S[1] B : id=0x0 resp=0x0 valid=0 ready=1
  S[1] AR: addr=0x00000000 valid=0 ready=1
  S[1] R : data=0x00000000 last=0 valid=0 ready=1
  S[2] AW: addr=0x00000000 valid=0 ready=1
  S[2] W : data=0x00000000 last=0 valid=0 ready=0
  S[2] B : id=0x0 resp=0x0 valid=0 ready=1
  S[2] AR: addr=0x00000000 valid=0 ready=1
  S[2] R : data=0x00000000 last=0 valid=0 ready=1
  S[3] AW: addr=0x00000000 valid=0 ready=1
  S[3] W : data=0x00000000 last=0 valid=0 ready=0
  S[3] B : id=0x0 resp=0x0 valid=0 ready=1
  S[3] AR: addr=0x00000000 valid=0 ready=1
  S[3] R : data=0x00000000 last=0 valid=0 ready=1
[445000] MONITOR [phase=1][cnt=5]
  M[0] AW: addr=0x00000000 valid=0 ready=1
  M[0] W : data=0x000000a5 last=1 valid=1 ready=1
  M[0] B : id=0x0 resp=0x0 valid=0 ready=1
  M[0] AR: addr=0x00000000 valid=0 ready=1
  M[0] R : data=0x00000000 last=0 valid=0 ready=1
  M[1] AW: addr=0x00000000 valid=0 ready=1
  M[1] W : data=0x00000000 last=0 valid=0 ready=1
  M[1] B : id=0x0 resp=0x0 valid=0 ready=1
  M[1] AR: addr=0x00000000 valid=0 ready=1
  M[1] R : data=0x00000000 last=0 valid=0 ready=1
  M[2] AW: addr=0x00000000 valid=0 ready=1
  M[2] W : data=0x00000000 last=0 valid=0 ready=1
  M[2] B : id=0x0 resp=0x0 valid=0 ready=1
  M[2] AR: addr=0x00000000 valid=0 ready=1
  M[2] R : data=0x00000000 last=0 valid=0 ready=1
  M[3] AW: addr=0x00000000 valid=0 ready=1
  M[3] W : data=0x00000000 last=0 valid=0 ready=1
  M[3] B : id=0x0 resp=0x0 valid=0 ready=1
  M[3] AR: addr=0x00000000 valid=0 ready=1
  M[3] R : data=0x00000000 last=0 valid=0 ready=1
  S[0] AW: addr=0x00000000 valid=0 ready=1
  S[0] W : data=0x00000000 last=0 valid=0 ready=1
  S[0] B : id=0x0 resp=0x0 valid=0 ready=1
  S[0] AR: addr=0x00000000 valid=0 ready=1
  S[0] R : data=0x00000000 last=0 valid=0 ready=1
  S[1] AW: addr=0x00000000 valid=0 ready=1
  S[1] W : data=0x00000000 last=0 valid=0 ready=0
  S[1] B : id=0x0 resp=0x0 valid=0 ready=1
  S[1] AR: addr=0x00000000 valid=0 ready=1
  S[1] R : data=0x00000000 last=0 valid=0 ready=1
  S[2] AW: addr=0x00000000 valid=0 ready=1
  S[2] W : data=0x00000000 last=0 valid=0 ready=0
  S[2] B : id=0x0 resp=0x0 valid=0 ready=1
  S[2] AR: addr=0x00000000 valid=0 ready=1
  S[2] R : data=0x00000000 last=0 valid=0 ready=1
  S[3] AW: addr=0x00000000 valid=0 ready=1
  S[3] W : data=0x00000000 last=0 valid=0 ready=0
  S[3] B : id=0x0 resp=0x0 valid=0 ready=1
  S[3] AR: addr=0x00000000 valid=0 ready=1
  S[3] R : data=0x00000000 last=0 valid=0 ready=1
[455000] MONITOR [phase=1][cnt=6]
  M[0] AW: addr=0x00000000 valid=0 ready=1
  M[0] W : data=0x000000a5 last=0 valid=0 ready=1
  M[0] B : id=0x0 resp=0x0 valid=0 ready=1
  M[0] AR: addr=0x00000000 valid=0 ready=1
  M[0] R : data=0x00000000 last=0 valid=0 ready=1
  M[1] AW: addr=0x00000000 valid=0 ready=1
  M[1] W : data=0x00000000 last=0 valid=0 ready=1
  M[1] B : id=0x0 resp=0x0 valid=0 ready=1
  M[1] AR: addr=0x00000000 valid=0 ready=1
  M[1] R : data=0x00000000 last=0 valid=0 ready=1
  M[2] AW: addr=0x00000000 valid=0 ready=1
  M[2] W : data=0x00000000 last=0 valid=0 ready=1
  M[2] B : id=0x0 resp=0x0 valid=0 ready=1
  M[2] AR: addr=0x00000000 valid=0 ready=1
  M[2] R : data=0x00000000 last=0 valid=0 ready=1
  M[3] AW: addr=0x00000000 valid=0 ready=1
  M[3] W : data=0x00000000 last=0 valid=0 ready=1
  M[3] B : id=0x0 resp=0x0 valid=0 ready=1
  M[3] AR: addr=0x00000000 valid=0 ready=1
  M[3] R : data=0x00000000 last=0 valid=0 ready=1
  S[0] AW: addr=0x00000000 valid=0 ready=1
  S[0] W : data=0x00000000 last=0 valid=0 ready=1
  S[0] B : id=0x0 resp=0x0 valid=0 ready=1
  S[0] AR: addr=0x00000000 valid=0 ready=1
  S[0] R : data=0x00000000 last=0 valid=0 ready=1
  S[1] AW: addr=0x00000000 valid=0 ready=1
  S[1] W : data=0x00000000 last=0 valid=0 ready=0
  S[1] B : id=0x0 resp=0x0 valid=0 ready=1
  S[1] AR: addr=0x00000000 valid=0 ready=1
  S[1] R : data=0x00000000 last=0 valid=0 ready=1
  S[2] AW: addr=0x00000000 valid=0 ready=1
  S[2] W : data=0x00000000 last=0 valid=0 ready=0
  S[2] B : id=0x0 resp=0x0 valid=0 ready=1
  S[2] AR: addr=0x00000000 valid=0 ready=1
  S[2] R : data=0x00000000 last=0 valid=0 ready=1
  S[3] AW: addr=0x00000000 valid=0 ready=1
  S[3] W : data=0x00000000 last=0 valid=0 ready=0
  S[3] B : id=0x0 resp=0x0 valid=0 ready=1
  S[3] AR: addr=0x00000000 valid=0 ready=1
  S[3] R : data=0x00000000 last=0 valid=0 ready=1
[465000] MONITOR [phase=1][cnt=7]
  M[0] AW: addr=0x00000000 valid=0 ready=1
  M[0] W : data=0x000000a5 last=0 valid=0 ready=1
  M[0] B : id=0x0 resp=0x0 valid=0 ready=1
  M[0] AR: addr=0x00000000 valid=0 ready=1
  M[0] R : data=0x00000000 last=0 valid=0 ready=1
  M[1] AW: addr=0x00000000 valid=0 ready=1
  M[1] W : data=0x00000000 last=0 valid=0 ready=1
  M[1] B : id=0x0 resp=0x0 valid=0 ready=1
  M[1] AR: addr=0x00000000 valid=0 ready=1
  M[1] R : data=0x00000000 last=0 valid=0 ready=1
  M[2] AW: addr=0x00000000 valid=0 ready=1
  M[2] W : data=0x00000000 last=0 valid=0 ready=1
  M[2] B : id=0x0 resp=0x0 valid=0 ready=1
  M[2] AR: addr=0x00000000 valid=0 ready=1
  M[2] R : data=0x00000000 last=0 valid=0 ready=1
  M[3] AW: addr=0x00000000 valid=0 ready=1
  M[3] W : data=0x00000000 last=0 valid=0 ready=1
  M[3] B : id=0x0 resp=0x0 valid=0 ready=1
  M[3] AR: addr=0x00000000 valid=0 ready=1
  M[3] R : data=0x00000000 last=0 valid=0 ready=1
  S[0] AW: addr=0x00000000 valid=0 ready=1
  S[0] W : data=0x00000000 last=0 valid=0 ready=1
  S[0] B : id=0x0 resp=0x0 valid=0 ready=1
  S[0] AR: addr=0x00000000 valid=0 ready=1
  S[0] R : data=0x00000000 last=0 valid=0 ready=1
  S[1] AW: addr=0x00000000 valid=0 ready=1
  S[1] W : data=0x00000000 last=0 valid=0 ready=0
  S[1] B : id=0x0 resp=0x0 valid=0 ready=1
  S[1] AR: addr=0x00000000 valid=0 ready=1
  S[1] R : data=0x00000000 last=0 valid=0 ready=1
  S[2] AW: addr=0x00000000 valid=0 ready=1
  S[2] W : data=0x00000000 last=0 valid=0 ready=0
  S[2] B : id=0x0 resp=0x0 valid=0 ready=1
  S[2] AR: addr=0x00000000 valid=0 ready=1
  S[2] R : data=0x00000000 last=0 valid=0 ready=1
  S[3] AW: addr=0x00000000 valid=0 ready=1
  S[3] W : data=0x00000000 last=0 valid=0 ready=0
  S[3] B : id=0x0 resp=0x0 valid=0 ready=1
  S[3] AR: addr=0x00000000 valid=0 ready=1
  S[3] R : data=0x00000000 last=0 valid=0 ready=1
[475000] SLAVE[0] W beat: data=0x000000a5 last=1 beat_left=0
[475000] MONITOR [phase=1][cnt=8]
  M[0] AW: addr=0x00000000 valid=0 ready=1
  M[0] W : data=0x000000a5 last=0 valid=0 ready=1
  M[0] B : id=0x0 resp=0x0 valid=0 ready=1
  M[0] AR: addr=0x00000000 valid=0 ready=1
  M[0] R : data=0x00000000 last=0 valid=0 ready=1
  M[1] AW: addr=0x00000000 valid=0 ready=1
  M[1] W : data=0x00000000 last=0 valid=0 ready=1
  M[1] B : id=0x0 resp=0x0 valid=0 ready=1
  M[1] AR: addr=0x00000000 valid=0 ready=1
  M[1] R : data=0x00000000 last=0 valid=0 ready=1
  M[2] AW: addr=0x00000000 valid=0 ready=1
  M[2] W : data=0x00000000 last=0 valid=0 ready=1
  M[2] B : id=0x0 resp=0x0 valid=0 ready=1
  M[2] AR: addr=0x00000000 valid=0 ready=1
  M[2] R : data=0x00000000 last=0 valid=0 ready=1
  M[3] AW: addr=0x00000000 valid=0 ready=1
  M[3] W : data=0x00000000 last=0 valid=0 ready=1
  M[3] B : id=0x0 resp=0x0 valid=0 ready=1
  M[3] AR: addr=0x00000000 valid=0 ready=1
  M[3] R : data=0x00000000 last=0 valid=0 ready=1
  S[0] AW: addr=0x00000000 valid=0 ready=1
  S[0] W : data=0x000000a5 last=1 valid=1 ready=1
  S[0] B : id=0x0 resp=0x0 valid=0 ready=1
  S[0] AR: addr=0x00000000 valid=0 ready=1
  S[0] R : data=0x00000000 last=0 valid=0 ready=1
  S[1] AW: addr=0x00000000 valid=0 ready=1
  S[1] W : data=0x00000000 last=0 valid=0 ready=0
  S[1] B : id=0x0 resp=0x0 valid=0 ready=1
  S[1] AR: addr=0x00000000 valid=0 ready=1
  S[1] R : data=0x00000000 last=0 valid=0 ready=1
  S[2] AW: addr=0x00000000 valid=0 ready=1
  S[2] W : data=0x00000000 last=0 valid=0 ready=0
  S[2] B : id=0x0 resp=0x0 valid=0 ready=1
  S[2] AR: addr=0x00000000 valid=0 ready=1
  S[2] R : data=0x00000000 last=0 valid=0 ready=1
  S[3] AW: addr=0x00000000 valid=0 ready=1
  S[3] W : data=0x00000000 last=0 valid=0 ready=0
  S[3] B : id=0x0 resp=0x0 valid=0 ready=1
  S[3] AR: addr=0x00000000 valid=0 ready=1
  S[3] R : data=0x00000000 last=0 valid=0 ready=1
[485000] SLAVE[0] B sent: id=0x0
[485000] MONITOR [phase=1][cnt=9]
  M[0] AW: addr=0x00000000 valid=0 ready=1
  M[0] W : data=0x000000a5 last=0 valid=0 ready=1
  M[0] B : id=0x0 resp=0x0 valid=0 ready=1
  M[0] AR: addr=0x00000000 valid=0 ready=1
  M[0] R : data=0x00000000 last=0 valid=0 ready=1
  M[1] AW: addr=0x00000000 valid=0 ready=1
  M[1] W : data=0x00000000 last=0 valid=0 ready=1
  M[1] B : id=0x0 resp=0x0 valid=0 ready=1
  M[1] AR: addr=0x00000000 valid=0 ready=1
  M[1] R : data=0x00000000 last=0 valid=0 ready=1
  M[2] AW: addr=0x00000000 valid=0 ready=1
  M[2] W : data=0x00000000 last=0 valid=0 ready=1
  M[2] B : id=0x0 resp=0x0 valid=0 ready=1
  M[2] AR: addr=0x00000000 valid=0 ready=1
  M[2] R : data=0x00000000 last=0 valid=0 ready=1
  M[3] AW: addr=0x00000000 valid=0 ready=1
  M[3] W : data=0x00000000 last=0 valid=0 ready=1
  M[3] B : id=0x0 resp=0x0 valid=0 ready=1
  M[3] AR: addr=0x00000000 valid=0 ready=1
  M[3] R : data=0x00000000 last=0 valid=0 ready=1
  S[0] AW: addr=0x00000000 valid=0 ready=1
  S[0] W : data=0x00000000 last=0 valid=0 ready=0
  S[0] B : id=0x0 resp=0x0 valid=1 ready=1
  S[0] AR: addr=0x00000000 valid=0 ready=1
  S[0] R : data=0x00000000 last=0 valid=0 ready=1
  S[1] AW: addr=0x00000000 valid=0 ready=1
  S[1] W : data=0x00000000 last=0 valid=0 ready=0
  S[1] B : id=0x0 resp=0x0 valid=0 ready=1
  S[1] AR: addr=0x00000000 valid=0 ready=1
  S[1] R : data=0x00000000 last=0 valid=0 ready=1
  S[2] AW: addr=0x00000000 valid=0 ready=1
  S[2] W : data=0x00000000 last=0 valid=0 ready=0
  S[2] B : id=0x0 resp=0x0 valid=0 ready=1
  S[2] AR: addr=0x00000000 valid=0 ready=1
  S[2] R : data=0x00000000 last=0 valid=0 ready=1
  S[3] AW: addr=0x00000000 valid=0 ready=1
  S[3] W : data=0x00000000 last=0 valid=0 ready=0
  S[3] B : id=0x0 resp=0x0 valid=0 ready=1
  S[3] AR: addr=0x00000000 valid=0 ready=1
  S[3] R : data=0x00000000 last=0 valid=0 ready=1
[495000] MONITOR [phase=1][cnt=10]
  M[0] AW: addr=0x00000000 valid=0 ready=1
  M[0] W : data=0x000000a5 last=0 valid=0 ready=1
  M[0] B : id=0x0 resp=0x0 valid=0 ready=1
  M[0] AR: addr=0x00000000 valid=0 ready=1
  M[0] R : data=0x00000000 last=0 valid=0 ready=1
  M[1] AW: addr=0x00000000 valid=0 ready=1
  M[1] W : data=0x00000000 last=0 valid=0 ready=1
  M[1] B : id=0x0 resp=0x0 valid=0 ready=1
  M[1] AR: addr=0x00000000 valid=0 ready=1
  M[1] R : data=0x00000000 last=0 valid=0 ready=1
  M[2] AW: addr=0x00000000 valid=0 ready=1
  M[2] W : data=0x00000000 last=0 valid=0 ready=1
  M[2] B : id=0x0 resp=0x0 valid=0 ready=1
  M[2] AR: addr=0x00000000 valid=0 ready=1
  M[2] R : data=0x00000000 last=0 valid=0 ready=1
  M[3] AW: addr=0x00000000 valid=0 ready=1
  M[3] W : data=0x00000000 last=0 valid=0 ready=1
  M[3] B : id=0x0 resp=0x0 valid=0 ready=1
  M[3] AR: addr=0x00000000 valid=0 ready=1
  M[3] R : data=0x00000000 last=0 valid=0 ready=1
  S[0] AW: addr=0x00000000 valid=0 ready=1
  S[0] W : data=0x00000000 last=0 valid=0 ready=0
  S[0] B : id=0x0 resp=0x0 valid=0 ready=1
  S[0] AR: addr=0x00000000 valid=0 ready=1
  S[0] R : data=0x00000000 last=0 valid=0 ready=1
  S[1] AW: addr=0x00000000 valid=0 ready=1
  S[1] W : data=0x00000000 last=0 valid=0 ready=0
  S[1] B : id=0x0 resp=0x0 valid=0 ready=1
  S[1] AR: addr=0x00000000 valid=0 ready=1
  S[1] R : data=0x00000000 last=0 valid=0 ready=1
  S[2] AW: addr=0x00000000 valid=0 ready=1
  S[2] W : data=0x00000000 last=0 valid=0 ready=0
  S[2] B : id=0x0 resp=0x0 valid=0 ready=1
  S[2] AR: addr=0x00000000 valid=0 ready=1
  S[2] R : data=0x00000000 last=0 valid=0 ready=1
  S[3] AW: addr=0x00000000 valid=0 ready=1
  S[3] W : data=0x00000000 last=0 valid=0 ready=0
  S[3] B : id=0x0 resp=0x0 valid=0 ready=1
  S[3] AR: addr=0x00000000 valid=0 ready=1
  S[3] R : data=0x00000000 last=0 valid=0 ready=1
[505000] B_LISTENER[0]: B resp=0x0 BID=0x0
[505000] MASTER[0] WRITE DONE: addr=0x00000000 BID=0x0
[505000] MONITOR [phase=1][cnt=11]
  M[0] AW: addr=0x00000000 valid=0 ready=1
  M[0] W : data=0x000000a5 last=0 valid=0 ready=1
  M[0] B : id=0x0 resp=0x0 valid=1 ready=1
  M[0] AR: addr=0x00000000 valid=0 ready=1
  M[0] R : data=0x00000000 last=0 valid=0 ready=1
  M[1] AW: addr=0x00000000 valid=0 ready=1
  M[1] W : data=0x00000000 last=0 valid=0 ready=1
  M[1] B : id=0x0 resp=0x0 valid=0 ready=1
  M[1] AR: addr=0x00000000 valid=0 ready=1
  M[1] R : data=0x00000000 last=0 valid=0 ready=1
  M[2] AW: addr=0x00000000 valid=0 ready=1
  M[2] W : data=0x00000000 last=0 valid=0 ready=1
  M[2] B : id=0x0 resp=0x0 valid=0 ready=1
  M[2] AR: addr=0x00000000 valid=0 ready=1
  M[2] R : data=0x00000000 last=0 valid=0 ready=1
  M[3] AW: addr=0x00000000 valid=0 ready=1
  M[3] W : data=0x00000000 last=0 valid=0 ready=1
  M[3] B : id=0x0 resp=0x0 valid=0 ready=1
  M[3] AR: addr=0x00000000 valid=0 ready=1
  M[3] R : data=0x00000000 last=0 valid=0 ready=1
  S[0] AW: addr=0x00000000 valid=0 ready=1
  S[0] W : data=0x00000000 last=0 valid=0 ready=0
  S[0] B : id=0x0 resp=0x0 valid=0 ready=1
  S[0] AR: addr=0x00000000 valid=0 ready=1
  S[0] R : data=0x00000000 last=0 valid=0 ready=1
  S[1] AW: addr=0x00000000 valid=0 ready=1
  S[1] W : data=0x00000000 last=0 valid=0 ready=0
  S[1] B : id=0x0 resp=0x0 valid=0 ready=1
  S[1] AR: addr=0x00000000 valid=0 ready=1
  S[1] R : data=0x00000000 last=0 valid=0 ready=1
  S[2] AW: addr=0x00000000 valid=0 ready=1
  S[2] W : data=0x00000000 last=0 valid=0 ready=0
  S[2] B : id=0x0 resp=0x0 valid=0 ready=1
  S[2] AR: addr=0x00000000 valid=0 ready=1
  S[2] R : data=0x00000000 last=0 valid=0 ready=1
  S[3] AW: addr=0x00000000 valid=0 ready=1
  S[3] W : data=0x00000000 last=0 valid=0 ready=0
  S[3] B : id=0x0 resp=0x0 valid=0 ready=1
  S[3] AR: addr=0x00000000 valid=0 ready=1
  S[3] R : data=0x00000000 last=0 valid=0 ready=1
[515000] MONITOR [phase=1][cnt=12]
  M[0] AW: addr=0x00000000 valid=0 ready=1
  M[0] W : data=0x000000a5 last=0 valid=0 ready=1
  M[0] B : id=0x0 resp=0x0 valid=0 ready=1
  M[0] AR: addr=0x00000000 valid=0 ready=1
  M[0] R : data=0x00000000 last=0 valid=0 ready=1
  M[1] AW: addr=0x00000000 valid=0 ready=1
  M[1] W : data=0x00000000 last=0 valid=0 ready=1
  M[1] B : id=0x0 resp=0x0 valid=0 ready=1
  M[1] AR: addr=0x00000000 valid=0 ready=1
  M[1] R : data=0x00000000 last=0 valid=0 ready=1
  M[2] AW: addr=0x00000000 valid=0 ready=1
  M[2] W : data=0x00000000 last=0 valid=0 ready=1
  M[2] B : id=0x0 resp=0x0 valid=0 ready=1
  M[2] AR: addr=0x00000000 valid=0 ready=1
  M[2] R : data=0x00000000 last=0 valid=0 ready=1
  M[3] AW: addr=0x00000000 valid=0 ready=1
  M[3] W : data=0x00000000 last=0 valid=0 ready=1
  M[3] B : id=0x0 resp=0x0 valid=0 ready=1
  M[3] AR: addr=0x00000000 valid=0 ready=1
  M[3] R : data=0x00000000 last=0 valid=0 ready=1
  S[0] AW: addr=0x00000000 valid=0 ready=1
  S[0] W : data=0x00000000 last=0 valid=0 ready=0
  S[0] B : id=0x0 resp=0x0 valid=0 ready=1
  S[0] AR: addr=0x00000000 valid=0 ready=1
  S[0] R : data=0x00000000 last=0 valid=0 ready=1
  S[1] AW: addr=0x00000000 valid=0 ready=1
  S[1] W : data=0x00000000 last=0 valid=0 ready=0
  S[1] B : id=0x0 resp=0x0 valid=0 ready=1
  S[1] AR: addr=0x00000000 valid=0 ready=1
  S[1] R : data=0x00000000 last=0 valid=0 ready=1
  S[2] AW: addr=0x00000000 valid=0 ready=1
  S[2] W : data=0x00000000 last=0 valid=0 ready=0
  S[2] B : id=0x0 resp=0x0 valid=0 ready=1
  S[2] AR: addr=0x00000000 valid=0 ready=1
  S[2] R : data=0x00000000 last=0 valid=0 ready=1
  S[3] AW: addr=0x00000000 valid=0 ready=1
  S[3] W : data=0x00000000 last=0 valid=0 ready=0
  S[3] B : id=0x0 resp=0x0 valid=0 ready=1
  S[3] AR: addr=0x00000000 valid=0 ready=1
  S[3] R : data=0x00000000 last=0 valid=0 ready=1
[525000] MONITOR [phase=1][cnt=13]
  M[0] AW: addr=0x00000000 valid=0 ready=1
  M[0] W : data=0x000000a5 last=0 valid=0 ready=1
  M[0] B : id=0x0 resp=0x0 valid=0 ready=1
  M[0] AR: addr=0x00000000 valid=0 ready=1
  M[0] R : data=0x00000000 last=0 valid=0 ready=1
  M[1] AW: addr=0x00000000 valid=0 ready=1
  M[1] W : data=0x00000000 last=0 valid=0 ready=1
  M[1] B : id=0x0 resp=0x0 valid=0 ready=1
  M[1] AR: addr=0x00000000 valid=0 ready=1
  M[1] R : data=0x00000000 last=0 valid=0 ready=1
  M[2] AW: addr=0x00000000 valid=0 ready=1
  M[2] W : data=0x00000000 last=0 valid=0 ready=1
  M[2] B : id=0x0 resp=0x0 valid=0 ready=1
  M[2] AR: addr=0x00000000 valid=0 ready=1
  M[2] R : data=0x00000000 last=0 valid=0 ready=1
  M[3] AW: addr=0x00000000 valid=0 ready=1
  M[3] W : data=0x00000000 last=0 valid=0 ready=1
  M[3] B : id=0x0 resp=0x0 valid=0 ready=1
  M[3] AR: addr=0x00000000 valid=0 ready=1
  M[3] R : data=0x00000000 last=0 valid=0 ready=1
  S[0] AW: addr=0x00000000 valid=0 ready=1
  S[0] W : data=0x00000000 last=0 valid=0 ready=0
  S[0] B : id=0x0 resp=0x0 valid=0 ready=1
  S[0] AR: addr=0x00000000 valid=0 ready=1
  S[0] R : data=0x00000000 last=0 valid=0 ready=1
  S[1] AW: addr=0x00000000 valid=0 ready=1
  S[1] W : data=0x00000000 last=0 valid=0 ready=0
  S[1] B : id=0x0 resp=0x0 valid=0 ready=1
  S[1] AR: addr=0x00000000 valid=0 ready=1
  S[1] R : data=0x00000000 last=0 valid=0 ready=1
  S[2] AW: addr=0x00000000 valid=0 ready=1
  S[2] W : data=0x00000000 last=0 valid=0 ready=0
  S[2] B : id=0x0 resp=0x0 valid=0 ready=1
  S[2] AR: addr=0x00000000 valid=0 ready=1
  S[2] R : data=0x00000000 last=0 valid=0 ready=1
  S[3] AW: addr=0x00000000 valid=0 ready=1
  S[3] W : data=0x00000000 last=0 valid=0 ready=0
  S[3] B : id=0x0 resp=0x0 valid=0 ready=1
  S[3] AR: addr=0x00000000 valid=0 ready=1
  S[3] R : data=0x00000000 last=0 valid=0 ready=1
[535000] MONITOR [phase=1][cnt=14]
  M[0] AW: addr=0x00000000 valid=0 ready=1
  M[0] W : data=0x000000a5 last=0 valid=0 ready=1
  M[0] B : id=0x0 resp=0x0 valid=0 ready=1
  M[0] AR: addr=0x00000000 valid=0 ready=1
  M[0] R : data=0x00000000 last=0 valid=0 ready=1
  M[1] AW: addr=0x00000000 valid=0 ready=1
  M[1] W : data=0x00000000 last=0 valid=0 ready=1
  M[1] B : id=0x0 resp=0x0 valid=0 ready=1
  M[1] AR: addr=0x00000000 valid=0 ready=1
  M[1] R : data=0x00000000 last=0 valid=0 ready=1
  M[2] AW: addr=0x00000000 valid=0 ready=1
  M[2] W : data=0x00000000 last=0 valid=0 ready=1
  M[2] B : id=0x0 resp=0x0 valid=0 ready=1
  M[2] AR: addr=0x00000000 valid=0 ready=1
  M[2] R : data=0x00000000 last=0 valid=0 ready=1
  M[3] AW: addr=0x00000000 valid=0 ready=1
  M[3] W : data=0x00000000 last=0 valid=0 ready=1
  M[3] B : id=0x0 resp=0x0 valid=0 ready=1
  M[3] AR: addr=0x00000000 valid=0 ready=1
  M[3] R : data=0x00000000 last=0 valid=0 ready=1
  S[0] AW: addr=0x00000000 valid=0 ready=1
  S[0] W : data=0x00000000 last=0 valid=0 ready=0
  S[0] B : id=0x0 resp=0x0 valid=0 ready=1
  S[0] AR: addr=0x00000000 valid=0 ready=1
  S[0] R : data=0x00000000 last=0 valid=0 ready=1
  S[1] AW: addr=0x00000000 valid=0 ready=1
  S[1] W : data=0x00000000 last=0 valid=0 ready=0
  S[1] B : id=0x0 resp=0x0 valid=0 ready=1
  S[1] AR: addr=0x00000000 valid=0 ready=1
  S[1] R : data=0x00000000 last=0 valid=0 ready=1
  S[2] AW: addr=0x00000000 valid=0 ready=1
  S[2] W : data=0x00000000 last=0 valid=0 ready=0
  S[2] B : id=0x0 resp=0x0 valid=0 ready=1
  S[2] AR: addr=0x00000000 valid=0 ready=1
  S[2] R : data=0x00000000 last=0 valid=0 ready=1
  S[3] AW: addr=0x00000000 valid=0 ready=1
  S[3] W : data=0x00000000 last=0 valid=0 ready=0
  S[3] B : id=0x0 resp=0x0 valid=0 ready=1
  S[3] AR: addr=0x00000000 valid=0 ready=1
  S[3] R : data=0x00000000 last=0 valid=0 ready=1
[545000] MONITOR [phase=1][cnt=15]
  M[0] AW: addr=0x00000000 valid=0 ready=1
  M[0] W : data=0x000000a5 last=0 valid=0 ready=1
  M[0] B : id=0x0 resp=0x0 valid=0 ready=1
  M[0] AR: addr=0x00000000 valid=0 ready=1
  M[0] R : data=0x00000000 last=0 valid=0 ready=1
  M[1] AW: addr=0x00000000 valid=0 ready=1
  M[1] W : data=0x00000000 last=0 valid=0 ready=1
  M[1] B : id=0x0 resp=0x0 valid=0 ready=1
  M[1] AR: addr=0x00000000 valid=0 ready=1
  M[1] R : data=0x00000000 last=0 valid=0 ready=1
  M[2] AW: addr=0x00000000 valid=0 ready=1
  M[2] W : data=0x00000000 last=0 valid=0 ready=1
  M[2] B : id=0x0 resp=0x0 valid=0 ready=1
  M[2] AR: addr=0x00000000 valid=0 ready=1
  M[2] R : data=0x00000000 last=0 valid=0 ready=1
  M[3] AW: addr=0x00000000 valid=0 ready=1
  M[3] W : data=0x00000000 last=0 valid=0 ready=1
  M[3] B : id=0x0 resp=0x0 valid=0 ready=1
  M[3] AR: addr=0x00000000 valid=0 ready=1
  M[3] R : data=0x00000000 last=0 valid=0 ready=1
  S[0] AW: addr=0x00000000 valid=0 ready=1
  S[0] W : data=0x00000000 last=0 valid=0 ready=0
  S[0] B : id=0x0 resp=0x0 valid=0 ready=1
  S[0] AR: addr=0x00000000 valid=0 ready=1
  S[0] R : data=0x00000000 last=0 valid=0 ready=1
  S[1] AW: addr=0x00000000 valid=0 ready=1
  S[1] W : data=0x00000000 last=0 valid=0 ready=0
  S[1] B : id=0x0 resp=0x0 valid=0 ready=1
  S[1] AR: addr=0x00000000 valid=0 ready=1
  S[1] R : data=0x00000000 last=0 valid=0 ready=1
  S[2] AW: addr=0x00000000 valid=0 ready=1
  S[2] W : data=0x00000000 last=0 valid=0 ready=0
  S[2] B : id=0x0 resp=0x0 valid=0 ready=1
  S[2] AR: addr=0x00000000 valid=0 ready=1
  S[2] R : data=0x00000000 last=0 valid=0 ready=1
  S[3] AW: addr=0x00000000 valid=0 ready=1
  S[3] W : data=0x00000000 last=0 valid=0 ready=0
  S[3] B : id=0x0 resp=0x0 valid=0 ready=1
  S[3] AR: addr=0x00000000 valid=0 ready=1
  S[3] R : data=0x00000000 last=0 valid=0 ready=1
[555000] MASTER[0] WRITE START: addr=0x00002000 len=0 id=0x0
[555000] MONITOR [phase=1][cnt=16]
  M[0] AW: addr=0x00000000 valid=0 ready=1
  M[0] W : data=0x000000a5 last=0 valid=0 ready=1
  M[0] B : id=0x0 resp=0x0 valid=0 ready=1
  M[0] AR: addr=0x00000000 valid=0 ready=1
  M[0] R : data=0x00000000 last=0 valid=0 ready=1
  M[1] AW: addr=0x00000000 valid=0 ready=1
  M[1] W : data=0x00000000 last=0 valid=0 ready=1
  M[1] B : id=0x0 resp=0x0 valid=0 ready=1
  M[1] AR: addr=0x00000000 valid=0 ready=1
  M[1] R : data=0x00000000 last=0 valid=0 ready=1
  M[2] AW: addr=0x00000000 valid=0 ready=1
  M[2] W : data=0x00000000 last=0 valid=0 ready=1
  M[2] B : id=0x0 resp=0x0 valid=0 ready=1
  M[2] AR: addr=0x00000000 valid=0 ready=1
  M[2] R : data=0x00000000 last=0 valid=0 ready=1
  M[3] AW: addr=0x00000000 valid=0 ready=1
  M[3] W : data=0x00000000 last=0 valid=0 ready=1
  M[3] B : id=0x0 resp=0x0 valid=0 ready=1
  M[3] AR: addr=0x00000000 valid=0 ready=1
  M[3] R : data=0x00000000 last=0 valid=0 ready=1
  S[0] AW: addr=0x00000000 valid=0 ready=1
  S[0] W : data=0x00000000 last=0 valid=0 ready=0
  S[0] B : id=0x0 resp=0x0 valid=0 ready=1
  S[0] AR: addr=0x00000000 valid=0 ready=1
  S[0] R : data=0x00000000 last=0 valid=0 ready=1
  S[1] AW: addr=0x00000000 valid=0 ready=1
  S[1] W : data=0x00000000 last=0 valid=0 ready=0
  S[1] B : id=0x0 resp=0x0 valid=0 ready=1
  S[1] AR: addr=0x00000000 valid=0 ready=1
  S[1] R : data=0x00000000 last=0 valid=0 ready=1
  S[2] AW: addr=0x00000000 valid=0 ready=1
  S[2] W : data=0x00000000 last=0 valid=0 ready=0
  S[2] B : id=0x0 resp=0x0 valid=0 ready=1
  S[2] AR: addr=0x00000000 valid=0 ready=1
  S[2] R : data=0x00000000 last=0 valid=0 ready=1
  S[3] AW: addr=0x00000000 valid=0 ready=1
  S[3] W : data=0x00000000 last=0 valid=0 ready=0
  S[3] B : id=0x0 resp=0x0 valid=0 ready=1
  S[3] AR: addr=0x00000000 valid=0 ready=1
  S[3] R : data=0x00000000 last=0 valid=0 ready=1
[565000] MONITOR [phase=1][cnt=17]
  M[0] AW: addr=0x00000000 valid=0 ready=1
  M[0] W : data=0x000000a5 last=0 valid=0 ready=1
  M[0] B : id=0x0 resp=0x0 valid=0 ready=1
  M[0] AR: addr=0x00000000 valid=0 ready=1
  M[0] R : data=0x00000000 last=0 valid=0 ready=1
  M[1] AW: addr=0x00000000 valid=0 ready=1
  M[1] W : data=0x00000000 last=0 valid=0 ready=1
  M[1] B : id=0x0 resp=0x0 valid=0 ready=1
  M[1] AR: addr=0x00000000 valid=0 ready=1
  M[1] R : data=0x00000000 last=0 valid=0 ready=1
  M[2] AW: addr=0x00000000 valid=0 ready=1
  M[2] W : data=0x00000000 last=0 valid=0 ready=1
  M[2] B : id=0x0 resp=0x0 valid=0 ready=1
  M[2] AR: addr=0x00000000 valid=0 ready=1
  M[2] R : data=0x00000000 last=0 valid=0 ready=1
  M[3] AW: addr=0x00000000 valid=0 ready=1
  M[3] W : data=0x00000000 last=0 valid=0 ready=1
  M[3] B : id=0x0 resp=0x0 valid=0 ready=1
  M[3] AR: addr=0x00000000 valid=0 ready=1
  M[3] R : data=0x00000000 last=0 valid=0 ready=1
  S[0] AW: addr=0x00000000 valid=0 ready=1
  S[0] W : data=0x00000000 last=0 valid=0 ready=0
  S[0] B : id=0x0 resp=0x0 valid=0 ready=1
  S[0] AR: addr=0x00000000 valid=0 ready=1
  S[0] R : data=0x00000000 last=0 valid=0 ready=1
  S[1] AW: addr=0x00000000 valid=0 ready=1
  S[1] W : data=0x00000000 last=0 valid=0 ready=0
  S[1] B : id=0x0 resp=0x0 valid=0 ready=1
  S[1] AR: addr=0x00000000 valid=0 ready=1
  S[1] R : data=0x00000000 last=0 valid=0 ready=1
  S[2] AW: addr=0x00000000 valid=0 ready=1
  S[2] W : data=0x00000000 last=0 valid=0 ready=0
  S[2] B : id=0x0 resp=0x0 valid=0 ready=1
  S[2] AR: addr=0x00000000 valid=0 ready=1
  S[2] R : data=0x00000000 last=0 valid=0 ready=1
  S[3] AW: addr=0x00000000 valid=0 ready=1
  S[3] W : data=0x00000000 last=0 valid=0 ready=0
  S[3] B : id=0x0 resp=0x0 valid=0 ready=1
  S[3] AR: addr=0x00000000 valid=0 ready=1
  S[3] R : data=0x00000000 last=0 valid=0 ready=1
[575000] MONITOR [phase=1][cnt=18]
  M[0] AW: addr=0x00002000 valid=1 ready=1
  M[0] W : data=0x000000a5 last=0 valid=0 ready=1
  M[0] B : id=0x0 resp=0x0 valid=0 ready=1
  M[0] AR: addr=0x00000000 valid=0 ready=1
  M[0] R : data=0x00000000 last=0 valid=0 ready=1
  M[1] AW: addr=0x00000000 valid=0 ready=1
  M[1] W : data=0x00000000 last=0 valid=0 ready=1
  M[1] B : id=0x0 resp=0x0 valid=0 ready=1
  M[1] AR: addr=0x00000000 valid=0 ready=1
  M[1] R : data=0x00000000 last=0 valid=0 ready=1
  M[2] AW: addr=0x00000000 valid=0 ready=1
  M[2] W : data=0x00000000 last=0 valid=0 ready=1
  M[2] B : id=0x0 resp=0x0 valid=0 ready=1
  M[2] AR: addr=0x00000000 valid=0 ready=1
  M[2] R : data=0x00000000 last=0 valid=0 ready=1
  M[3] AW: addr=0x00000000 valid=0 ready=1
  M[3] W : data=0x00000000 last=0 valid=0 ready=1
  M[3] B : id=0x0 resp=0x0 valid=0 ready=1
  M[3] AR: addr=0x00000000 valid=0 ready=1
  M[3] R : data=0x00000000 last=0 valid=0 ready=1
  S[0] AW: addr=0x00000000 valid=0 ready=1
  S[0] W : data=0x00000000 last=0 valid=0 ready=0
  S[0] B : id=0x0 resp=0x0 valid=0 ready=1
  S[0] AR: addr=0x00000000 valid=0 ready=1
  S[0] R : data=0x00000000 last=0 valid=0 ready=1
  S[1] AW: addr=0x00000000 valid=0 ready=1
  S[1] W : data=0x00000000 last=0 valid=0 ready=0
  S[1] B : id=0x0 resp=0x0 valid=0 ready=1
  S[1] AR: addr=0x00000000 valid=0 ready=1
  S[1] R : data=0x00000000 last=0 valid=0 ready=1
  S[2] AW: addr=0x00000000 valid=0 ready=1
  S[2] W : data=0x00000000 last=0 valid=0 ready=0
  S[2] B : id=0x0 resp=0x0 valid=0 ready=1
  S[2] AR: addr=0x00000000 valid=0 ready=1
  S[2] R : data=0x00000000 last=0 valid=0 ready=1
  S[3] AW: addr=0x00000000 valid=0 ready=1
  S[3] W : data=0x00000000 last=0 valid=0 ready=0
  S[3] B : id=0x0 resp=0x0 valid=0 ready=1
  S[3] AR: addr=0x00000000 valid=0 ready=1
  S[3] R : data=0x00000000 last=0 valid=0 ready=1
[585000] MONITOR [phase=1][cnt=19]
  M[0] AW: addr=0x00002000 valid=0 ready=1
  M[0] W : data=0x000000a5 last=0 valid=0 ready=1
  M[0] B : id=0x0 resp=0x0 valid=0 ready=1
  M[0] AR: addr=0x00000000 valid=0 ready=1
  M[0] R : data=0x00000000 last=0 valid=0 ready=1
  M[1] AW: addr=0x00000000 valid=0 ready=1
  M[1] W : data=0x00000000 last=0 valid=0 ready=1
  M[1] B : id=0x0 resp=0x0 valid=0 ready=1
  M[1] AR: addr=0x00000000 valid=0 ready=1
  M[1] R : data=0x00000000 last=0 valid=0 ready=1
  M[2] AW: addr=0x00000000 valid=0 ready=1
  M[2] W : data=0x00000000 last=0 valid=0 ready=1
  M[2] B : id=0x0 resp=0x0 valid=0 ready=1
  M[2] AR: addr=0x00000000 valid=0 ready=1
  M[2] R : data=0x00000000 last=0 valid=0 ready=1
  M[3] AW: addr=0x00000000 valid=0 ready=1
  M[3] W : data=0x00000000 last=0 valid=0 ready=1
  M[3] B : id=0x0 resp=0x0 valid=0 ready=1
  M[3] AR: addr=0x00000000 valid=0 ready=1
  M[3] R : data=0x00000000 last=0 valid=0 ready=1
  S[0] AW: addr=0x00000000 valid=0 ready=1
  S[0] W : data=0x00000000 last=0 valid=0 ready=0
  S[0] B : id=0x0 resp=0x0 valid=0 ready=1
  S[0] AR: addr=0x00000000 valid=0 ready=1
  S[0] R : data=0x00000000 last=0 valid=0 ready=1
  S[1] AW: addr=0x00000000 valid=0 ready=1
  S[1] W : data=0x00000000 last=0 valid=0 ready=0
  S[1] B : id=0x0 resp=0x0 valid=0 ready=1
  S[1] AR: addr=0x00000000 valid=0 ready=1
  S[1] R : data=0x00000000 last=0 valid=0 ready=1
  S[2] AW: addr=0x00000000 valid=0 ready=1
  S[2] W : data=0x00000000 last=0 valid=0 ready=0
  S[2] B : id=0x0 resp=0x0 valid=0 ready=1
  S[2] AR: addr=0x00000000 valid=0 ready=1
  S[2] R : data=0x00000000 last=0 valid=0 ready=1
  S[3] AW: addr=0x00000000 valid=0 ready=1
  S[3] W : data=0x00000000 last=0 valid=0 ready=0
  S[3] B : id=0x0 resp=0x0 valid=0 ready=1
  S[3] AR: addr=0x00000000 valid=0 ready=1
  S[3] R : data=0x00000000 last=0 valid=0 ready=1
[595000] SLAVE[1] AW accepted: addr=0x00002000 len=0 size=2 id=0x0
[595000] MONITOR [phase=1][cnt=20]
  M[0] AW: addr=0x00002000 valid=0 ready=1
  M[0] W : data=0x000000a5 last=0 valid=0 ready=1
  M[0] B : id=0x0 resp=0x0 valid=0 ready=1
  M[0] AR: addr=0x00000000 valid=0 ready=1
  M[0] R : data=0x00000000 last=0 valid=0 ready=1
  M[1] AW: addr=0x00000000 valid=0 ready=1
  M[1] W : data=0x00000000 last=0 valid=0 ready=1
  M[1] B : id=0x0 resp=0x0 valid=0 ready=1
  M[1] AR: addr=0x00000000 valid=0 ready=1
  M[1] R : data=0x00000000 last=0 valid=0 ready=1
  M[2] AW: addr=0x00000000 valid=0 ready=1
  M[2] W : data=0x00000000 last=0 valid=0 ready=1
  M[2] B : id=0x0 resp=0x0 valid=0 ready=1
  M[2] AR: addr=0x00000000 valid=0 ready=1
  M[2] R : data=0x00000000 last=0 valid=0 ready=1
  M[3] AW: addr=0x00000000 valid=0 ready=1
  M[3] W : data=0x00000000 last=0 valid=0 ready=1
  M[3] B : id=0x0 resp=0x0 valid=0 ready=1
  M[3] AR: addr=0x00000000 valid=0 ready=1
  M[3] R : data=0x00000000 last=0 valid=0 ready=1
  S[0] AW: addr=0x00000000 valid=0 ready=1
  S[0] W : data=0x00000000 last=0 valid=0 ready=0
  S[0] B : id=0x0 resp=0x0 valid=0 ready=1
  S[0] AR: addr=0x00000000 valid=0 ready=1
  S[0] R : data=0x00000000 last=0 valid=0 ready=1
  S[1] AW: addr=0x00002000 valid=1 ready=1
  S[1] W : data=0x00000000 last=0 valid=0 ready=0
  S[1] B : id=0x0 resp=0x0 valid=0 ready=1
  S[1] AR: addr=0x00000000 valid=0 ready=1
  S[1] R : data=0x00000000 last=0 valid=0 ready=1
  S[2] AW: addr=0x00000000 valid=0 ready=1
  S[2] W : data=0x00000000 last=0 valid=0 ready=0
  S[2] B : id=0x0 resp=0x0 valid=0 ready=1
  S[2] AR: addr=0x00000000 valid=0 ready=1
  S[2] R : data=0x00000000 last=0 valid=0 ready=1
  S[3] AW: addr=0x00000000 valid=0 ready=1
  S[3] W : data=0x00000000 last=0 valid=0 ready=0
  S[3] B : id=0x0 resp=0x0 valid=0 ready=1
  S[3] AR: addr=0x00000000 valid=0 ready=1
  S[3] R : data=0x00000000 last=0 valid=0 ready=1
[605000] MONITOR [phase=1][cnt=21]
  M[0] AW: addr=0x00002000 valid=0 ready=1
  M[0] W : data=0x000001a5 last=1 valid=1 ready=1
  M[0] B : id=0x0 resp=0x0 valid=0 ready=1
  M[0] AR: addr=0x00000000 valid=0 ready=1
  M[0] R : data=0x00000000 last=0 valid=0 ready=1
  M[1] AW: addr=0x00000000 valid=0 ready=1
  M[1] W : data=0x00000000 last=0 valid=0 ready=1
  M[1] B : id=0x0 resp=0x0 valid=0 ready=1
  M[1] AR: addr=0x00000000 valid=0 ready=1
  M[1] R : data=0x00000000 last=0 valid=0 ready=1
  M[2] AW: addr=0x00000000 valid=0 ready=1
  M[2] W : data=0x00000000 last=0 valid=0 ready=1
  M[2] B : id=0x0 resp=0x0 valid=0 ready=1
  M[2] AR: addr=0x00000000 valid=0 ready=1
  M[2] R : data=0x00000000 last=0 valid=0 ready=1
  M[3] AW: addr=0x00000000 valid=0 ready=1
  M[3] W : data=0x00000000 last=0 valid=0 ready=1
  M[3] B : id=0x0 resp=0x0 valid=0 ready=1
  M[3] AR: addr=0x00000000 valid=0 ready=1
  M[3] R : data=0x00000000 last=0 valid=0 ready=1
  S[0] AW: addr=0x00000000 valid=0 ready=1
  S[0] W : data=0x00000000 last=0 valid=0 ready=0
  S[0] B : id=0x0 resp=0x0 valid=0 ready=1
  S[0] AR: addr=0x00000000 valid=0 ready=1
  S[0] R : data=0x00000000 last=0 valid=0 ready=1
  S[1] AW: addr=0x00000000 valid=0 ready=1
  S[1] W : data=0x00000000 last=0 valid=0 ready=1
  S[1] B : id=0x0 resp=0x0 valid=0 ready=1
  S[1] AR: addr=0x00000000 valid=0 ready=1
  S[1] R : data=0x00000000 last=0 valid=0 ready=1
  S[2] AW: addr=0x00000000 valid=0 ready=1
  S[2] W : data=0x00000000 last=0 valid=0 ready=0
  S[2] B : id=0x0 resp=0x0 valid=0 ready=1
  S[2] AR: addr=0x00000000 valid=0 ready=1
  S[2] R : data=0x00000000 last=0 valid=0 ready=1
  S[3] AW: addr=0x00000000 valid=0 ready=1
  S[3] W : data=0x00000000 last=0 valid=0 ready=0
  S[3] B : id=0x0 resp=0x0 valid=0 ready=1
  S[3] AR: addr=0x00000000 valid=0 ready=1
  S[3] R : data=0x00000000 last=0 valid=0 ready=1
[615000] MONITOR [phase=1][cnt=22]
  M[0] AW: addr=0x00002000 valid=0 ready=1
  M[0] W : data=0x000001a5 last=0 valid=0 ready=1
  M[0] B : id=0x0 resp=0x0 valid=0 ready=1
  M[0] AR: addr=0x00000000 valid=0 ready=1
  M[0] R : data=0x00000000 last=0 valid=0 ready=1
  M[1] AW: addr=0x00000000 valid=0 ready=1
  M[1] W : data=0x00000000 last=0 valid=0 ready=1
  M[1] B : id=0x0 resp=0x0 valid=0 ready=1
  M[1] AR: addr=0x00000000 valid=0 ready=1
  M[1] R : data=0x00000000 last=0 valid=0 ready=1
  M[2] AW: addr=0x00000000 valid=0 ready=1
  M[2] W : data=0x00000000 last=0 valid=0 ready=1
  M[2] B : id=0x0 resp=0x0 valid=0 ready=1
  M[2] AR: addr=0x00000000 valid=0 ready=1
  M[2] R : data=0x00000000 last=0 valid=0 ready=1
  M[3] AW: addr=0x00000000 valid=0 ready=1
  M[3] W : data=0x00000000 last=0 valid=0 ready=1
  M[3] B : id=0x0 resp=0x0 valid=0 ready=1
  M[3] AR: addr=0x00000000 valid=0 ready=1
  M[3] R : data=0x00000000 last=0 valid=0 ready=1
  S[0] AW: addr=0x00000000 valid=0 ready=1
  S[0] W : data=0x00000000 last=0 valid=0 ready=0
  S[0] B : id=0x0 resp=0x0 valid=0 ready=1
  S[0] AR: addr=0x00000000 valid=0 ready=1
  S[0] R : data=0x00000000 last=0 valid=0 ready=1
  S[1] AW: addr=0x00000000 valid=0 ready=1
  S[1] W : data=0x00000000 last=0 valid=0 ready=1
  S[1] B : id=0x0 resp=0x0 valid=0 ready=1
  S[1] AR: addr=0x00000000 valid=0 ready=1
  S[1] R : data=0x00000000 last=0 valid=0 ready=1
  S[2] AW: addr=0x00000000 valid=0 ready=1
  S[2] W : data=0x00000000 last=0 valid=0 ready=0
  S[2] B : id=0x0 resp=0x0 valid=0 ready=1
  S[2] AR: addr=0x00000000 valid=0 ready=1
  S[2] R : data=0x00000000 last=0 valid=0 ready=1
  S[3] AW: addr=0x00000000 valid=0 ready=1
  S[3] W : data=0x00000000 last=0 valid=0 ready=0
  S[3] B : id=0x0 resp=0x0 valid=0 ready=1
  S[3] AR: addr=0x00000000 valid=0 ready=1
  S[3] R : data=0x00000000 last=0 valid=0 ready=1
[625000] MONITOR [phase=1][cnt=23]
  M[0] AW: addr=0x00002000 valid=0 ready=1
  M[0] W : data=0x000001a5 last=0 valid=0 ready=1
  M[0] B : id=0x0 resp=0x0 valid=0 ready=1
  M[0] AR: addr=0x00000000 valid=0 ready=1
  M[0] R : data=0x00000000 last=0 valid=0 ready=1
  M[1] AW: addr=0x00000000 valid=0 ready=1
  M[1] W : data=0x00000000 last=0 valid=0 ready=1
  M[1] B : id=0x0 resp=0x0 valid=0 ready=1
  M[1] AR: addr=0x00000000 valid=0 ready=1
  M[1] R : data=0x00000000 last=0 valid=0 ready=1
  M[2] AW: addr=0x00000000 valid=0 ready=1
  M[2] W : data=0x00000000 last=0 valid=0 ready=1
  M[2] B : id=0x0 resp=0x0 valid=0 ready=1
  M[2] AR: addr=0x00000000 valid=0 ready=1
  M[2] R : data=0x00000000 last=0 valid=0 ready=1
  M[3] AW: addr=0x00000000 valid=0 ready=1
  M[3] W : data=0x00000000 last=0 valid=0 ready=1
  M[3] B : id=0x0 resp=0x0 valid=0 ready=1
  M[3] AR: addr=0x00000000 valid=0 ready=1
  M[3] R : data=0x00000000 last=0 valid=0 ready=1
  S[0] AW: addr=0x00000000 valid=0 ready=1
  S[0] W : data=0x00000000 last=0 valid=0 ready=0
  S[0] B : id=0x0 resp=0x0 valid=0 ready=1
  S[0] AR: addr=0x00000000 valid=0 ready=1
  S[0] R : data=0x00000000 last=0 valid=0 ready=1
  S[1] AW: addr=0x00000000 valid=0 ready=1
  S[1] W : data=0x00000000 last=0 valid=0 ready=1
  S[1] B : id=0x0 resp=0x0 valid=0 ready=1
  S[1] AR: addr=0x00000000 valid=0 ready=1
  S[1] R : data=0x00000000 last=0 valid=0 ready=1
  S[2] AW: addr=0x00000000 valid=0 ready=1
  S[2] W : data=0x00000000 last=0 valid=0 ready=0
  S[2] B : id=0x0 resp=0x0 valid=0 ready=1
  S[2] AR: addr=0x00000000 valid=0 ready=1
  S[2] R : data=0x00000000 last=0 valid=0 ready=1
  S[3] AW: addr=0x00000000 valid=0 ready=1
  S[3] W : data=0x00000000 last=0 valid=0 ready=0
  S[3] B : id=0x0 resp=0x0 valid=0 ready=1
  S[3] AR: addr=0x00000000 valid=0 ready=1
  S[3] R : data=0x00000000 last=0 valid=0 ready=1
[635000] SLAVE[1] W beat: data=0x000001a5 last=1 beat_left=0
[635000] MONITOR [phase=1][cnt=24]
  M[0] AW: addr=0x00002000 valid=0 ready=1
  M[0] W : data=0x000001a5 last=0 valid=0 ready=1
  M[0] B : id=0x0 resp=0x0 valid=0 ready=1
  M[0] AR: addr=0x00000000 valid=0 ready=1
  M[0] R : data=0x00000000 last=0 valid=0 ready=1
  M[1] AW: addr=0x00000000 valid=0 ready=1
  M[1] W : data=0x00000000 last=0 valid=0 ready=1
  M[1] B : id=0x0 resp=0x0 valid=0 ready=1
  M[1] AR: addr=0x00000000 valid=0 ready=1
  M[1] R : data=0x00000000 last=0 valid=0 ready=1
  M[2] AW: addr=0x00000000 valid=0 ready=1
  M[2] W : data=0x00000000 last=0 valid=0 ready=1
  M[2] B : id=0x0 resp=0x0 valid=0 ready=1
  M[2] AR: addr=0x00000000 valid=0 ready=1
  M[2] R : data=0x00000000 last=0 valid=0 ready=1
  M[3] AW: addr=0x00000000 valid=0 ready=1
  M[3] W : data=0x00000000 last=0 valid=0 ready=1
  M[3] B : id=0x0 resp=0x0 valid=0 ready=1
  M[3] AR: addr=0x00000000 valid=0 ready=1
  M[3] R : data=0x00000000 last=0 valid=0 ready=1
  S[0] AW: addr=0x00000000 valid=0 ready=1
  S[0] W : data=0x00000000 last=0 valid=0 ready=0
  S[0] B : id=0x0 resp=0x0 valid=0 ready=1
  S[0] AR: addr=0x00000000 valid=0 ready=1
  S[0] R : data=0x00000000 last=0 valid=0 ready=1
  S[1] AW: addr=0x00000000 valid=0 ready=1
  S[1] W : data=0x000001a5 last=1 valid=1 ready=1
  S[1] B : id=0x0 resp=0x0 valid=0 ready=1
  S[1] AR: addr=0x00000000 valid=0 ready=1
  S[1] R : data=0x00000000 last=0 valid=0 ready=1
  S[2] AW: addr=0x00000000 valid=0 ready=1
  S[2] W : data=0x00000000 last=0 valid=0 ready=0
  S[2] B : id=0x0 resp=0x0 valid=0 ready=1
  S[2] AR: addr=0x00000000 valid=0 ready=1
  S[2] R : data=0x00000000 last=0 valid=0 ready=1
  S[3] AW: addr=0x00000000 valid=0 ready=1
  S[3] W : data=0x00000000 last=0 valid=0 ready=0
  S[3] B : id=0x0 resp=0x0 valid=0 ready=1
  S[3] AR: addr=0x00000000 valid=0 ready=1
  S[3] R : data=0x00000000 last=0 valid=0 ready=1
[645000] SLAVE[1] B sent: id=0x0
[645000] MONITOR [phase=1][cnt=25]
  M[0] AW: addr=0x00002000 valid=0 ready=1
  M[0] W : data=0x000001a5 last=0 valid=0 ready=1
  M[0] B : id=0x0 resp=0x0 valid=0 ready=1
  M[0] AR: addr=0x00000000 valid=0 ready=1
  M[0] R : data=0x00000000 last=0 valid=0 ready=1
  M[1] AW: addr=0x00000000 valid=0 ready=1
  M[1] W : data=0x00000000 last=0 valid=0 ready=1
  M[1] B : id=0x0 resp=0x0 valid=0 ready=1
  M[1] AR: addr=0x00000000 valid=0 ready=1
  M[1] R : data=0x00000000 last=0 valid=0 ready=1
  M[2] AW: addr=0x00000000 valid=0 ready=1
  M[2] W : data=0x00000000 last=0 valid=0 ready=1
  M[2] B : id=0x0 resp=0x0 valid=0 ready=1
  M[2] AR: addr=0x00000000 valid=0 ready=1
  M[2] R : data=0x00000000 last=0 valid=0 ready=1
  M[3] AW: addr=0x00000000 valid=0 ready=1
  M[3] W : data=0x00000000 last=0 valid=0 ready=1
  M[3] B : id=0x0 resp=0x0 valid=0 ready=1
  M[3] AR: addr=0x00000000 valid=0 ready=1
  M[3] R : data=0x00000000 last=0 valid=0 ready=1
  S[0] AW: addr=0x00000000 valid=0 ready=1
  S[0] W : data=0x00000000 last=0 valid=0 ready=0
  S[0] B : id=0x0 resp=0x0 valid=0 ready=1
  S[0] AR: addr=0x00000000 valid=0 ready=1
  S[0] R : data=0x00000000 last=0 valid=0 ready=1
  S[1] AW: addr=0x00000000 valid=0 ready=1
  S[1] W : data=0x00000000 last=0 valid=0 ready=0
  S[1] B : id=0x0 resp=0x0 valid=1 ready=1
  S[1] AR: addr=0x00000000 valid=0 ready=1
  S[1] R : data=0x00000000 last=0 valid=0 ready=1
  S[2] AW: addr=0x00000000 valid=0 ready=1
  S[2] W : data=0x00000000 last=0 valid=0 ready=0
  S[2] B : id=0x0 resp=0x0 valid=0 ready=1
  S[2] AR: addr=0x00000000 valid=0 ready=1
  S[2] R : data=0x00000000 last=0 valid=0 ready=1
  S[3] AW: addr=0x00000000 valid=0 ready=1
  S[3] W : data=0x00000000 last=0 valid=0 ready=0
  S[3] B : id=0x0 resp=0x0 valid=0 ready=1
  S[3] AR: addr=0x00000000 valid=0 ready=1
  S[3] R : data=0x00000000 last=0 valid=0 ready=1
[655000] MONITOR [phase=1][cnt=26]
  M[0] AW: addr=0x00002000 valid=0 ready=1
  M[0] W : data=0x000001a5 last=0 valid=0 ready=1
  M[0] B : id=0x0 resp=0x0 valid=0 ready=1
  M[0] AR: addr=0x00000000 valid=0 ready=1
  M[0] R : data=0x00000000 last=0 valid=0 ready=1
  M[1] AW: addr=0x00000000 valid=0 ready=1
  M[1] W : data=0x00000000 last=0 valid=0 ready=1
  M[1] B : id=0x0 resp=0x0 valid=0 ready=1
  M[1] AR: addr=0x00000000 valid=0 ready=1
  M[1] R : data=0x00000000 last=0 valid=0 ready=1
  M[2] AW: addr=0x00000000 valid=0 ready=1
  M[2] W : data=0x00000000 last=0 valid=0 ready=1
  M[2] B : id=0x0 resp=0x0 valid=0 ready=1
  M[2] AR: addr=0x00000000 valid=0 ready=1
  M[2] R : data=0x00000000 last=0 valid=0 ready=1
  M[3] AW: addr=0x00000000 valid=0 ready=1
  M[3] W : data=0x00000000 last=0 valid=0 ready=1
  M[3] B : id=0x0 resp=0x0 valid=0 ready=1
  M[3] AR: addr=0x00000000 valid=0 ready=1
  M[3] R : data=0x00000000 last=0 valid=0 ready=1
  S[0] AW: addr=0x00000000 valid=0 ready=1
  S[0] W : data=0x00000000 last=0 valid=0 ready=0
  S[0] B : id=0x0 resp=0x0 valid=0 ready=1
  S[0] AR: addr=0x00000000 valid=0 ready=1
  S[0] R : data=0x00000000 last=0 valid=0 ready=1
  S[1] AW: addr=0x00000000 valid=0 ready=1
  S[1] W : data=0x00000000 last=0 valid=0 ready=0
  S[1] B : id=0x0 resp=0x0 valid=0 ready=1
  S[1] AR: addr=0x00000000 valid=0 ready=1
  S[1] R : data=0x00000000 last=0 valid=0 ready=1
  S[2] AW: addr=0x00000000 valid=0 ready=1
  S[2] W : data=0x00000000 last=0 valid=0 ready=0
  S[2] B : id=0x0 resp=0x0 valid=0 ready=1
  S[2] AR: addr=0x00000000 valid=0 ready=1
  S[2] R : data=0x00000000 last=0 valid=0 ready=1
  S[3] AW: addr=0x00000000 valid=0 ready=1
  S[3] W : data=0x00000000 last=0 valid=0 ready=0
  S[3] B : id=0x0 resp=0x0 valid=0 ready=1
  S[3] AR: addr=0x00000000 valid=0 ready=1
  S[3] R : data=0x00000000 last=0 valid=0 ready=1
[665000] B_LISTENER[0]: B resp=0x0 BID=0x0
[665000] MASTER[0] WRITE DONE: addr=0x00002000 BID=0x0
[665000] MONITOR [phase=1][cnt=27]
  M[0] AW: addr=0x00002000 valid=0 ready=1
  M[0] W : data=0x000001a5 last=0 valid=0 ready=1
  M[0] B : id=0x0 resp=0x0 valid=1 ready=1
  M[0] AR: addr=0x00000000 valid=0 ready=1
  M[0] R : data=0x00000000 last=0 valid=0 ready=1
  M[1] AW: addr=0x00000000 valid=0 ready=1
  M[1] W : data=0x00000000 last=0 valid=0 ready=1
  M[1] B : id=0x0 resp=0x0 valid=0 ready=1
  M[1] AR: addr=0x00000000 valid=0 ready=1
  M[1] R : data=0x00000000 last=0 valid=0 ready=1
  M[2] AW: addr=0x00000000 valid=0 ready=1
  M[2] W : data=0x00000000 last=0 valid=0 ready=1
  M[2] B : id=0x0 resp=0x0 valid=0 ready=1
  M[2] AR: addr=0x00000000 valid=0 ready=1
  M[2] R : data=0x00000000 last=0 valid=0 ready=1
  M[3] AW: addr=0x00000000 valid=0 ready=1
  M[3] W : data=0x00000000 last=0 valid=0 ready=1
  M[3] B : id=0x0 resp=0x0 valid=0 ready=1
  M[3] AR: addr=0x00000000 valid=0 ready=1
  M[3] R : data=0x00000000 last=0 valid=0 ready=1
  S[0] AW: addr=0x00000000 valid=0 ready=1
  S[0] W : data=0x00000000 last=0 valid=0 ready=0
  S[0] B : id=0x0 resp=0x0 valid=0 ready=1
  S[0] AR: addr=0x00000000 valid=0 ready=1
  S[0] R : data=0x00000000 last=0 valid=0 ready=1
  S[1] AW: addr=0x00000000 valid=0 ready=1
  S[1] W : data=0x00000000 last=0 valid=0 ready=0
  S[1] B : id=0x0 resp=0x0 valid=0 ready=1
  S[1] AR: addr=0x00000000 valid=0 ready=1
  S[1] R : data=0x00000000 last=0 valid=0 ready=1
  S[2] AW: addr=0x00000000 valid=0 ready=1
  S[2] W : data=0x00000000 last=0 valid=0 ready=0
  S[2] B : id=0x0 resp=0x0 valid=0 ready=1
  S[2] AR: addr=0x00000000 valid=0 ready=1
  S[2] R : data=0x00000000 last=0 valid=0 ready=1
  S[3] AW: addr=0x00000000 valid=0 ready=1
  S[3] W : data=0x00000000 last=0 valid=0 ready=0
  S[3] B : id=0x0 resp=0x0 valid=0 ready=1
  S[3] AR: addr=0x00000000 valid=0 ready=1
  S[3] R : data=0x00000000 last=0 valid=0 ready=1
[675000] MONITOR [phase=1][cnt=28]
  M[0] AW: addr=0x00002000 valid=0 ready=1
  M[0] W : data=0x000001a5 last=0 valid=0 ready=1
  M[0] B : id=0x0 resp=0x0 valid=0 ready=1
  M[0] AR: addr=0x00000000 valid=0 ready=1
  M[0] R : data=0x00000000 last=0 valid=0 ready=1
  M[1] AW: addr=0x00000000 valid=0 ready=1
  M[1] W : data=0x00000000 last=0 valid=0 ready=1
  M[1] B : id=0x0 resp=0x0 valid=0 ready=1
  M[1] AR: addr=0x00000000 valid=0 ready=1
  M[1] R : data=0x00000000 last=0 valid=0 ready=1
  M[2] AW: addr=0x00000000 valid=0 ready=1
  M[2] W : data=0x00000000 last=0 valid=0 ready=1
  M[2] B : id=0x0 resp=0x0 valid=0 ready=1
  M[2] AR: addr=0x00000000 valid=0 ready=1
  M[2] R : data=0x00000000 last=0 valid=0 ready=1
  M[3] AW: addr=0x00000000 valid=0 ready=1
  M[3] W : data=0x00000000 last=0 valid=0 ready=1
  M[3] B : id=0x0 resp=0x0 valid=0 ready=1
  M[3] AR: addr=0x00000000 valid=0 ready=1
  M[3] R : data=0x00000000 last=0 valid=0 ready=1
  S[0] AW: addr=0x00000000 valid=0 ready=1
  S[0] W : data=0x00000000 last=0 valid=0 ready=0
  S[0] B : id=0x0 resp=0x0 valid=0 ready=1
  S[0] AR: addr=0x00000000 valid=0 ready=1
  S[0] R : data=0x00000000 last=0 valid=0 ready=1
  S[1] AW: addr=0x00000000 valid=0 ready=1
  S[1] W : data=0x00000000 last=0 valid=0 ready=0
  S[1] B : id=0x0 resp=0x0 valid=0 ready=1
  S[1] AR: addr=0x00000000 valid=0 ready=1
  S[1] R : data=0x00000000 last=0 valid=0 ready=1
  S[2] AW: addr=0x00000000 valid=0 ready=1
  S[2] W : data=0x00000000 last=0 valid=0 ready=0
  S[2] B : id=0x0 resp=0x0 valid=0 ready=1
  S[2] AR: addr=0x00000000 valid=0 ready=1
  S[2] R : data=0x00000000 last=0 valid=0 ready=1
  S[3] AW: addr=0x00000000 valid=0 ready=1
  S[3] W : data=0x00000000 last=0 valid=0 ready=0
  S[3] B : id=0x0 resp=0x0 valid=0 ready=1
  S[3] AR: addr=0x00000000 valid=0 ready=1
  S[3] R : data=0x00000000 last=0 valid=0 ready=1
[685000] MONITOR [phase=1][cnt=29]
  M[0] AW: addr=0x00002000 valid=0 ready=1
  M[0] W : data=0x000001a5 last=0 valid=0 ready=1
  M[0] B : id=0x0 resp=0x0 valid=0 ready=1
  M[0] AR: addr=0x00000000 valid=0 ready=1
  M[0] R : data=0x00000000 last=0 valid=0 ready=1
  M[1] AW: addr=0x00000000 valid=0 ready=1
  M[1] W : data=0x00000000 last=0 valid=0 ready=1
  M[1] B : id=0x0 resp=0x0 valid=0 ready=1
  M[1] AR: addr=0x00000000 valid=0 ready=1
  M[1] R : data=0x00000000 last=0 valid=0 ready=1
  M[2] AW: addr=0x00000000 valid=0 ready=1
  M[2] W : data=0x00000000 last=0 valid=0 ready=1
  M[2] B : id=0x0 resp=0x0 valid=0 ready=1
  M[2] AR: addr=0x00000000 valid=0 ready=1
  M[2] R : data=0x00000000 last=0 valid=0 ready=1
  M[3] AW: addr=0x00000000 valid=0 ready=1
  M[3] W : data=0x00000000 last=0 valid=0 ready=1
  M[3] B : id=0x0 resp=0x0 valid=0 ready=1
  M[3] AR: addr=0x00000000 valid=0 ready=1
  M[3] R : data=0x00000000 last=0 valid=0 ready=1
  S[0] AW: addr=0x00000000 valid=0 ready=1
  S[0] W : data=0x00000000 last=0 valid=0 ready=0
  S[0] B : id=0x0 resp=0x0 valid=0 ready=1
  S[0] AR: addr=0x00000000 valid=0 ready=1
  S[0] R : data=0x00000000 last=0 valid=0 ready=1
  S[1] AW: addr=0x00000000 valid=0 ready=1
  S[1] W : data=0x00000000 last=0 valid=0 ready=0
  S[1] B : id=0x0 resp=0x0 valid=0 ready=1
  S[1] AR: addr=0x00000000 valid=0 ready=1
  S[1] R : data=0x00000000 last=0 valid=0 ready=1
  S[2] AW: addr=0x00000000 valid=0 ready=1
  S[2] W : data=0x00000000 last=0 valid=0 ready=0
  S[2] B : id=0x0 resp=0x0 valid=0 ready=1
  S[2] AR: addr=0x00000000 valid=0 ready=1
  S[2] R : data=0x00000000 last=0 valid=0 ready=1
  S[3] AW: addr=0x00000000 valid=0 ready=1
  S[3] W : data=0x00000000 last=0 valid=0 ready=0
  S[3] B : id=0x0 resp=0x0 valid=0 ready=1
  S[3] AR: addr=0x00000000 valid=0 ready=1
  S[3] R : data=0x00000000 last=0 valid=0 ready=1
[715000] MASTER[0] WRITE START: addr=0x00004000 len=0 id=0x0
[755000] SLAVE[2] AW accepted: addr=0x00004000 len=0 size=2 id=0x0
[795000] SLAVE[2] W beat: data=0x000002a5 last=1 beat_left=0
[805000] SLAVE[2] B sent: id=0x0
[825000] B_LISTENER[0]: B resp=0x0 BID=0x0
[825000] MASTER[0] WRITE DONE: addr=0x00004000 BID=0x0
[875000] MASTER[0] WRITE START: addr=0x00006000 len=0 id=0x0
[915000] SLAVE[3] AW accepted: addr=0x00006000 len=0 size=2 id=0x0
[955000] SLAVE[3] W beat: data=0x000003a5 last=1 beat_left=0
[965000] SLAVE[3] B sent: id=0x0
[985000] B_LISTENER[0]: B resp=0x0 BID=0x0
[985000] MASTER[0] WRITE DONE: addr=0x00006000 BID=0x0
[1035000] MASTER[1] WRITE START: addr=0x00000100 len=0 id=0x1
[1075000] SLAVE[0] AW accepted: addr=0x00000100 len=0 size=2 id=0x41
[1115000] SLAVE[0] W beat: data=0x000010a5 last=1 beat_left=0
[1125000] SLAVE[0] B sent: id=0x41
[1145000] B_LISTENER[1]: B resp=0x0 BID=0x1
[1145000] MASTER[1] WRITE DONE: addr=0x00000100 BID=0x1
[1195000] MASTER[1] WRITE START: addr=0x00002100 len=0 id=0x1
[1235000] SLAVE[1] AW accepted: addr=0x00002100 len=0 size=2 id=0x41
[1275000] SLAVE[1] W beat: data=0x000011a5 last=1 beat_left=0
[1285000] SLAVE[1] B sent: id=0x41
[1305000] B_LISTENER[1]: B resp=0x0 BID=0x1
[1305000] MASTER[1] WRITE DONE: addr=0x00002100 BID=0x1
[1355000] MASTER[1] WRITE START: addr=0x00004100 len=0 id=0x1
[1395000] SLAVE[2] AW accepted: addr=0x00004100 len=0 size=2 id=0x41
[1435000] SLAVE[2] W beat: data=0x000012a5 last=1 beat_left=0
[1445000] SLAVE[2] B sent: id=0x41
[1465000] B_LISTENER[1]: B resp=0x0 BID=0x1
[1465000] MASTER[1] WRITE DONE: addr=0x00004100 BID=0x1
[1515000] MASTER[1] WRITE START: addr=0x00006100 len=0 id=0x1
[1555000] SLAVE[3] AW accepted: addr=0x00006100 len=0 size=2 id=0x41
[1595000] SLAVE[3] W beat: data=0x000013a5 last=1 beat_left=0
[1605000] SLAVE[3] B sent: id=0x41
[1625000] B_LISTENER[1]: B resp=0x0 BID=0x1
[1625000] MASTER[1] WRITE DONE: addr=0x00006100 BID=0x1
[1675000] MASTER[2] WRITE START: addr=0x00000200 len=0 id=0x2
[1715000] SLAVE[0] AW accepted: addr=0x00000200 len=0 size=2 id=0x82
[1755000] SLAVE[0] W beat: data=0x000020a5 last=1 beat_left=0
[1765000] SLAVE[0] B sent: id=0x82
[1785000] B_LISTENER[2]: B resp=0x0 BID=0x2
[1785000] MASTER[2] WRITE DONE: addr=0x00000200 BID=0x2
[1835000] MASTER[2] WRITE START: addr=0x00002200 len=0 id=0x2
[1875000] SLAVE[1] AW accepted: addr=0x00002200 len=0 size=2 id=0x82
[1915000] SLAVE[1] W beat: data=0x000021a5 last=1 beat_left=0
[1925000] SLAVE[1] B sent: id=0x82
[1945000] B_LISTENER[2]: B resp=0x0 BID=0x2
[1945000] MASTER[2] WRITE DONE: addr=0x00002200 BID=0x2
[1995000] MASTER[2] WRITE START: addr=0x00004200 len=0 id=0x2
[2035000] SLAVE[2] AW accepted: addr=0x00004200 len=0 size=2 id=0x82
[2075000] SLAVE[2] W beat: data=0x000022a5 last=1 beat_left=0
[2085000] SLAVE[2] B sent: id=0x82
[2105000] B_LISTENER[2]: B resp=0x0 BID=0x2
[2105000] MASTER[2] WRITE DONE: addr=0x00004200 BID=0x2
[2155000] MASTER[2] WRITE START: addr=0x00006200 len=0 id=0x2
[2195000] SLAVE[3] AW accepted: addr=0x00006200 len=0 size=2 id=0x82
[2235000] SLAVE[3] W beat: data=0x000023a5 last=1 beat_left=0
[2245000] SLAVE[3] B sent: id=0x82
[2265000] B_LISTENER[2]: B resp=0x0 BID=0x2
[2265000] MASTER[2] WRITE DONE: addr=0x00006200 BID=0x2
[2315000] MASTER[3] WRITE START: addr=0x00000300 len=0 id=0x3
[2355000] SLAVE[0] AW accepted: addr=0x00000300 len=0 size=2 id=0xc3
[2395000] SLAVE[0] W beat: data=0x000030a5 last=1 beat_left=0
[2405000] SLAVE[0] B sent: id=0xc3
[2425000] B_LISTENER[3]: B resp=0x0 BID=0x3
[2425000] MASTER[3] WRITE DONE: addr=0x00000300 BID=0x3
[2475000] MASTER[3] WRITE START: addr=0x00002300 len=0 id=0x3
[2515000] SLAVE[1] AW accepted: addr=0x00002300 len=0 size=2 id=0xc3
[2555000] SLAVE[1] W beat: data=0x000031a5 last=1 beat_left=0
[2565000] SLAVE[1] B sent: id=0xc3
[2585000] B_LISTENER[3]: B resp=0x0 BID=0x3
[2585000] MASTER[3] WRITE DONE: addr=0x00002300 BID=0x3
[2635000] MASTER[3] WRITE START: addr=0x00004300 len=0 id=0x3
[2675000] SLAVE[2] AW accepted: addr=0x00004300 len=0 size=2 id=0xc3
[2715000] SLAVE[2] W beat: data=0x000032a5 last=1 beat_left=0
[2725000] SLAVE[2] B sent: id=0xc3
[2745000] B_LISTENER[3]: B resp=0x0 BID=0x3
[2745000] MASTER[3] WRITE DONE: addr=0x00004300 BID=0x3
[2795000] MASTER[3] WRITE START: addr=0x00006300 len=0 id=0x3
[2835000] SLAVE[3] AW accepted: addr=0x00006300 len=0 size=2 id=0xc3
[2875000] SLAVE[3] W beat: data=0x000033a5 last=1 beat_left=0
[2885000] SLAVE[3] B sent: id=0xc3
[2905000] B_LISTENER[3]: B resp=0x0 BID=0x3
[2905000] MASTER[3] WRITE DONE: addr=0x00006300 BID=0x3
[2955000] MASTER[0] READ START: addr=0x00000000 len=0 id=0x0
[2995000] SLAVE[0] AR accepted: addr=0x00000000 len=0 size=2 id=0x0
[3005000] SLAVE[0] R last beat done: id=0x0
[3025000] R_LISTENER[0]: beat=0 data=0x000000a5 rlast=1
[3025000] MASTER[0] R beat: data=0x000000a5 last=1
[3025000] MASTER[0] READ DONE: addr=0x00000000 RID=0x0
[3025000] CHECK OK: M[0] read data match @ addr=0x00000000 data=0x000000a5
[3075000] MASTER[0] READ START: addr=0x00002000 len=0 id=0x0
[3115000] SLAVE[1] AR accepted: addr=0x00002000 len=0 size=2 id=0x0
[3125000] SLAVE[1] R last beat done: id=0x0
[3145000] R_LISTENER[0]: beat=0 data=0x000001a5 rlast=1
[3145000] MASTER[0] R beat: data=0x000001a5 last=1
[3145000] MASTER[0] READ DONE: addr=0x00002000 RID=0x0
[3145000] CHECK OK: M[0] read data match @ addr=0x00002000 data=0x000001a5
[3195000] MASTER[0] READ START: addr=0x00004000 len=0 id=0x0
[3235000] SLAVE[2] AR accepted: addr=0x00004000 len=0 size=2 id=0x0
[3245000] SLAVE[2] R last beat done: id=0x0
[3265000] R_LISTENER[0]: beat=0 data=0x000002a5 rlast=1
[3265000] MASTER[0] R beat: data=0x000002a5 last=1
[3265000] MASTER[0] READ DONE: addr=0x00004000 RID=0x0
[3265000] CHECK OK: M[0] read data match @ addr=0x00004000 data=0x000002a5
[3315000] MASTER[0] READ START: addr=0x00006000 len=0 id=0x0
[3355000] SLAVE[3] AR accepted: addr=0x00006000 len=0 size=2 id=0x0
[3365000] SLAVE[3] R last beat done: id=0x0
[3385000] R_LISTENER[0]: beat=0 data=0x000003a5 rlast=1
[3385000] MASTER[0] R beat: data=0x000003a5 last=1
[3385000] MASTER[0] READ DONE: addr=0x00006000 RID=0x0
[3385000] CHECK OK: M[0] read data match @ addr=0x00006000 data=0x000003a5
[3435000] MASTER[1] READ START: addr=0x00000100 len=0 id=0x1
[3475000] SLAVE[0] AR accepted: addr=0x00000100 len=0 size=2 id=0x41
[3485000] SLAVE[0] R last beat done: id=0x41
[3505000] R_LISTENER[1]: beat=0 data=0x000010a5 rlast=1
[3505000] MASTER[1] R beat: data=0x000010a5 last=1
[3505000] MASTER[1] READ DONE: addr=0x00000100 RID=0x1
[3505000] CHECK OK: M[1] read data match @ addr=0x00000100 data=0x000010a5
[3555000] MASTER[1] READ START: addr=0x00002100 len=0 id=0x1
[3595000] SLAVE[1] AR accepted: addr=0x00002100 len=0 size=2 id=0x41
[3605000] SLAVE[1] R last beat done: id=0x41
[3625000] R_LISTENER[1]: beat=0 data=0x000011a5 rlast=1
[3625000] MASTER[1] R beat: data=0x000011a5 last=1
[3625000] MASTER[1] READ DONE: addr=0x00002100 RID=0x1
[3625000] CHECK OK: M[1] read data match @ addr=0x00002100 data=0x000011a5
[3675000] MASTER[1] READ START: addr=0x00004100 len=0 id=0x1
[3715000] SLAVE[2] AR accepted: addr=0x00004100 len=0 size=2 id=0x41
[3725000] SLAVE[2] R last beat done: id=0x41
[3745000] R_LISTENER[1]: beat=0 data=0x000012a5 rlast=1
[3745000] MASTER[1] R beat: data=0x000012a5 last=1
[3745000] MASTER[1] READ DONE: addr=0x00004100 RID=0x1
[3745000] CHECK OK: M[1] read data match @ addr=0x00004100 data=0x000012a5
[3795000] MASTER[1] READ START: addr=0x00006100 len=0 id=0x1
[3835000] SLAVE[3] AR accepted: addr=0x00006100 len=0 size=2 id=0x41
[3845000] SLAVE[3] R last beat done: id=0x41
[3865000] R_LISTENER[1]: beat=0 data=0x000013a5 rlast=1
[3865000] MASTER[1] R beat: data=0x000013a5 last=1
[3865000] MASTER[1] READ DONE: addr=0x00006100 RID=0x1
[3865000] CHECK OK: M[1] read data match @ addr=0x00006100 data=0x000013a5
[3915000] MASTER[2] READ START: addr=0x00000200 len=0 id=0x2
[3955000] SLAVE[0] AR accepted: addr=0x00000200 len=0 size=2 id=0x82
[3965000] SLAVE[0] R last beat done: id=0x82
[3985000] R_LISTENER[2]: beat=0 data=0x000020a5 rlast=1
[3985000] MASTER[2] R beat: data=0x000020a5 last=1
[3985000] MASTER[2] READ DONE: addr=0x00000200 RID=0x2
[3985000] CHECK OK: M[2] read data match @ addr=0x00000200 data=0x000020a5
[4035000] MASTER[2] READ START: addr=0x00002200 len=0 id=0x2
[4075000] SLAVE[1] AR accepted: addr=0x00002200 len=0 size=2 id=0x82
[4085000] SLAVE[1] R last beat done: id=0x82
[4105000] R_LISTENER[2]: beat=0 data=0x000021a5 rlast=1
[4105000] MASTER[2] R beat: data=0x000021a5 last=1
[4105000] MASTER[2] READ DONE: addr=0x00002200 RID=0x2
[4105000] CHECK OK: M[2] read data match @ addr=0x00002200 data=0x000021a5
[4155000] MASTER[2] READ START: addr=0x00004200 len=0 id=0x2
[4195000] SLAVE[2] AR accepted: addr=0x00004200 len=0 size=2 id=0x82
[4205000] SLAVE[2] R last beat done: id=0x82
[4225000] R_LISTENER[2]: beat=0 data=0x000022a5 rlast=1
[4225000] MASTER[2] R beat: data=0x000022a5 last=1
[4225000] MASTER[2] READ DONE: addr=0x00004200 RID=0x2
[4225000] CHECK OK: M[2] read data match @ addr=0x00004200 data=0x000022a5
[4275000] MASTER[2] READ START: addr=0x00006200 len=0 id=0x2
[4315000] SLAVE[3] AR accepted: addr=0x00006200 len=0 size=2 id=0x82
[4325000] SLAVE[3] R last beat done: id=0x82
[4345000] R_LISTENER[2]: beat=0 data=0x000023a5 rlast=1
[4345000] MASTER[2] R beat: data=0x000023a5 last=1
[4345000] MASTER[2] READ DONE: addr=0x00006200 RID=0x2
[4345000] CHECK OK: M[2] read data match @ addr=0x00006200 data=0x000023a5
[4395000] MASTER[3] READ START: addr=0x00000300 len=0 id=0x3
[4435000] SLAVE[0] AR accepted: addr=0x00000300 len=0 size=2 id=0xc3
[4445000] SLAVE[0] R last beat done: id=0xc3
[4465000] R_LISTENER[3]: beat=0 data=0x000030a5 rlast=1
[4465000] MASTER[3] R beat: data=0x000030a5 last=1
[4465000] MASTER[3] READ DONE: addr=0x00000300 RID=0x3
[4465000] CHECK OK: M[3] read data match @ addr=0x00000300 data=0x000030a5
[4515000] MASTER[3] READ START: addr=0x00002300 len=0 id=0x3
[4555000] SLAVE[1] AR accepted: addr=0x00002300 len=0 size=2 id=0xc3
[4565000] SLAVE[1] R last beat done: id=0xc3
[4585000] R_LISTENER[3]: beat=0 data=0x000031a5 rlast=1
[4585000] MASTER[3] R beat: data=0x000031a5 last=1
[4585000] MASTER[3] READ DONE: addr=0x00002300 RID=0x3
[4585000] CHECK OK: M[3] read data match @ addr=0x00002300 data=0x000031a5
[4635000] MASTER[3] READ START: addr=0x00004300 len=0 id=0x3
[4675000] SLAVE[2] AR accepted: addr=0x00004300 len=0 size=2 id=0xc3
[4685000] SLAVE[2] R last beat done: id=0xc3
[4705000] R_LISTENER[3]: beat=0 data=0x000032a5 rlast=1
[4705000] MASTER[3] R beat: data=0x000032a5 last=1
[4705000] MASTER[3] READ DONE: addr=0x00004300 RID=0x3
[4705000] CHECK OK: M[3] read data match @ addr=0x00004300 data=0x000032a5
[4755000] MASTER[3] READ START: addr=0x00006300 len=0 id=0x3
[4795000] SLAVE[3] AR accepted: addr=0x00006300 len=0 size=2 id=0xc3
[4805000] SLAVE[3] R last beat done: id=0xc3
[4825000] R_LISTENER[3]: beat=0 data=0x000033a5 rlast=1
[4825000] MASTER[3] R beat: data=0x000033a5 last=1
[4825000] MASTER[3] READ DONE: addr=0x00006300 RID=0x3
[4825000] CHECK OK: M[3] read data match @ addr=0x00006300 data=0x000033a5

[PHASE 2] ========== PHASE 2: Multi-Beat INCR Burst ==========
--- Burst len=0 (AWLEN=0, 1 beats) ---
[4875000] MASTER[0] WRITE START: addr=0x00001000 len=0 id=0xa
[4915000] SLAVE[0] AW accepted: addr=0x00001000 len=0 size=2 id=0xa
[4955000] SLAVE[0] W beat: data=0x00000000 last=1 beat_left=0
[4965000] SLAVE[0] B sent: id=0xa
[4985000] B_LISTENER[0]: B resp=0x0 BID=0xa
[4985000] MASTER[0] WRITE DONE: addr=0x00001000 BID=0xa
[5035000] MASTER[0] READ START: addr=0x00001000 len=0 id=0xa
[5075000] SLAVE[0] AR accepted: addr=0x00001000 len=0 size=2 id=0xa
[5085000] SLAVE[0] R last beat done: id=0xa
[5105000] R_LISTENER[0]: beat=0 data=0x00000000 rlast=1
[5105000] MASTER[0] R beat: data=0x00000000 last=1
[5105000] MASTER[0] READ DONE: addr=0x00001000 RID=0xa
[5105000] CHECK OK: M[0] read data match @ addr=0x00001000 data=0x00000000
--- Burst len=1 (AWLEN=1, 2 beats) ---
[5205000] MASTER[0] WRITE START: addr=0x00001000 len=1 id=0xa
[5245000] SLAVE[0] AW accepted: addr=0x00001000 len=1 size=2 id=0xa
[5285000] SLAVE[0] W beat: data=0x00000000 last=0 beat_left=1
[5295000] SLAVE[0] W beat: data=0x00000001 last=1 beat_left=0
[5305000] SLAVE[0] B sent: id=0xa
[5325000] B_LISTENER[0]: B resp=0x0 BID=0xa
[5325000] MASTER[0] WRITE DONE: addr=0x00001000 BID=0xa
[5375000] MASTER[0] READ START: addr=0x00001000 len=1 id=0xa
[5415000] SLAVE[0] AR accepted: addr=0x00001000 len=1 size=2 id=0xa
[5425000] SLAVE[0] R beat: data=0x00000001 last=1 beat_left=0
[5435000] SLAVE[0] R last beat done: id=0xa
[5445000] R_LISTENER[0]: beat=0 data=0x00000000 rlast=0
[5455000] R_LISTENER[0]: beat=1 data=0x00000001 rlast=1
[5455000] MASTER[0] R beat: data=0x00000000 last=0
[5455000] MASTER[0] R beat: data=0x00000001 last=1
[5455000] MASTER[0] READ DONE: addr=0x00001000 RID=0xa
[5455000] CHECK OK: M[0] read data match @ addr=0x00001000 data=0x00000000
[5455000] CHECK OK: M[0] read data match @ addr=0x00001004 data=0x00000001
--- Burst len=3 (AWLEN=3, 4 beats) ---
[5555000] MASTER[0] WRITE START: addr=0x00001000 len=3 id=0xa
[5595000] SLAVE[0] AW accepted: addr=0x00001000 len=3 size=2 id=0xa
[5635000] SLAVE[0] W beat: data=0x00000000 last=0 beat_left=3
[5645000] SLAVE[0] W beat: data=0x00000001 last=0 beat_left=2
[5655000] SLAVE[0] W beat: data=0x00000002 last=0 beat_left=1
[5665000] SLAVE[0] W beat: data=0x00000003 last=1 beat_left=0
[5675000] SLAVE[0] B sent: id=0xa
[5695000] B_LISTENER[0]: B resp=0x0 BID=0xa
[5695000] MASTER[0] WRITE DONE: addr=0x00001000 BID=0xa
[5745000] MASTER[0] READ START: addr=0x00001000 len=3 id=0xa
[5785000] SLAVE[0] AR accepted: addr=0x00001000 len=3 size=2 id=0xa
[5795000] SLAVE[0] R beat: data=0x00000001 last=0 beat_left=2
[5805000] SLAVE[0] R beat: data=0x00000002 last=0 beat_left=1
[5815000] SLAVE[0] R beat: data=0x00000003 last=1 beat_left=0
[5815000] R_LISTENER[0]: beat=0 data=0x00000000 rlast=0
[5825000] SLAVE[0] R last beat done: id=0xa
[5825000] R_LISTENER[0]: beat=1 data=0x00000001 rlast=0
[5835000] R_LISTENER[0]: beat=2 data=0x00000002 rlast=0
[5845000] R_LISTENER[0]: beat=3 data=0x00000003 rlast=1
[5845000] MASTER[0] R beat: data=0x00000000 last=0
[5845000] MASTER[0] R beat: data=0x00000001 last=0
[5845000] MASTER[0] R beat: data=0x00000002 last=0
[5845000] MASTER[0] R beat: data=0x00000003 last=1
[5845000] MASTER[0] READ DONE: addr=0x00001000 RID=0xa
[5845000] CHECK OK: M[0] read data match @ addr=0x00001000 data=0x00000000
[5845000] CHECK OK: M[0] read data match @ addr=0x00001004 data=0x00000001
[5845000] CHECK OK: M[0] read data match @ addr=0x00001008 data=0x00000002
[5845000] CHECK OK: M[0] read data match @ addr=0x0000100c data=0x00000003
--- Burst len=7 (AWLEN=7, 8 beats) ---
[5945000] MASTER[0] WRITE START: addr=0x00001000 len=7 id=0xa
[5985000] SLAVE[0] AW accepted: addr=0x00001000 len=7 size=2 id=0xa
[6025000] SLAVE[0] W beat: data=0x00000000 last=0 beat_left=7
[6035000] SLAVE[0] W beat: data=0x00000001 last=0 beat_left=6
[6045000] SLAVE[0] W beat: data=0x00000002 last=0 beat_left=5
[6055000] SLAVE[0] W beat: data=0x00000003 last=0 beat_left=4
[6065000] SLAVE[0] W beat: data=0x00000004 last=0 beat_left=3
[6075000] SLAVE[0] W beat: data=0x00000005 last=0 beat_left=2
[6085000] SLAVE[0] W beat: data=0x00000006 last=0 beat_left=1
[6095000] SLAVE[0] W beat: data=0x00000007 last=1 beat_left=0
[6105000] SLAVE[0] B sent: id=0xa
[6125000] B_LISTENER[0]: B resp=0x0 BID=0xa
[6125000] MASTER[0] WRITE DONE: addr=0x00001000 BID=0xa
[6175000] MASTER[0] READ START: addr=0x00001000 len=7 id=0xa
[6215000] SLAVE[0] AR accepted: addr=0x00001000 len=7 size=2 id=0xa
[6225000] SLAVE[0] R beat: data=0x00000001 last=0 beat_left=6
[6235000] SLAVE[0] R beat: data=0x00000002 last=0 beat_left=5
[6245000] SLAVE[0] R beat: data=0x00000003 last=0 beat_left=4
[6245000] R_LISTENER[0]: beat=0 data=0x00000000 rlast=0
[6255000] SLAVE[0] R beat: data=0x00000004 last=0 beat_left=3
[6255000] R_LISTENER[0]: beat=1 data=0x00000001 rlast=0
[6265000] SLAVE[0] R beat: data=0x00000005 last=0 beat_left=2
[6265000] R_LISTENER[0]: beat=2 data=0x00000002 rlast=0
[6275000] SLAVE[0] R beat: data=0x00000006 last=0 beat_left=1
[6275000] R_LISTENER[0]: beat=3 data=0x00000003 rlast=0
[6285000] SLAVE[0] R beat: data=0x00000007 last=1 beat_left=0
[6285000] R_LISTENER[0]: beat=4 data=0x00000004 rlast=0
[6295000] SLAVE[0] R last beat done: id=0xa
[6295000] R_LISTENER[0]: beat=5 data=0x00000005 rlast=0
[6305000] R_LISTENER[0]: beat=6 data=0x00000006 rlast=0
[6315000] R_LISTENER[0]: beat=7 data=0x00000007 rlast=1
[6315000] MASTER[0] R beat: data=0x00000000 last=0
[6315000] MASTER[0] R beat: data=0x00000001 last=0
[6315000] MASTER[0] R beat: data=0x00000002 last=0
[6315000] MASTER[0] R beat: data=0x00000003 last=0
[6315000] MASTER[0] R beat: data=0x00000004 last=0
[6315000] MASTER[0] R beat: data=0x00000005 last=0
[6315000] MASTER[0] R beat: data=0x00000006 last=0
[6315000] MASTER[0] R beat: data=0x00000007 last=1
[6315000] MASTER[0] READ DONE: addr=0x00001000 RID=0xa
[6315000] CHECK OK: M[0] read data match @ addr=0x00001000 data=0x00000000
[6315000] CHECK OK: M[0] read data match @ addr=0x00001004 data=0x00000001
[6315000] CHECK OK: M[0] read data match @ addr=0x00001008 data=0x00000002
[6315000] CHECK OK: M[0] read data match @ addr=0x0000100c data=0x00000003
[6315000] CHECK OK: M[0] read data match @ addr=0x00001010 data=0x00000004
[6315000] CHECK OK: M[0] read data match @ addr=0x00001014 data=0x00000005
[6315000] CHECK OK: M[0] read data match @ addr=0x00001018 data=0x00000006
[6315000] CHECK OK: M[0] read data match @ addr=0x0000101c data=0x00000007
--- Burst len=15 (AWLEN=15, 16 beats) ---
[6415000] MASTER[0] WRITE START: addr=0x00001000 len=15 id=0xa
[6455000] SLAVE[0] AW accepted: addr=0x00001000 len=15 size=2 id=0xa
[6495000] SLAVE[0] W beat: data=0x00000000 last=0 beat_left=15
[6505000] SLAVE[0] W beat: data=0x00000001 last=0 beat_left=14
[6515000] SLAVE[0] W beat: data=0x00000002 last=0 beat_left=13
[6525000] SLAVE[0] W beat: data=0x00000003 last=0 beat_left=12
[6535000] SLAVE[0] W beat: data=0x00000004 last=0 beat_left=11
[6545000] SLAVE[0] W beat: data=0x00000005 last=0 beat_left=10
[6555000] SLAVE[0] W beat: data=0x00000006 last=0 beat_left=9
[6565000] SLAVE[0] W beat: data=0x00000007 last=0 beat_left=8
[6575000] SLAVE[0] W beat: data=0x00000008 last=0 beat_left=7
[6585000] SLAVE[0] W beat: data=0x00000009 last=0 beat_left=6
[6595000] SLAVE[0] W beat: data=0x0000000a last=0 beat_left=5
[6605000] SLAVE[0] W beat: data=0x0000000b last=0 beat_left=4
[6615000] SLAVE[0] W beat: data=0x0000000c last=0 beat_left=3
[6625000] SLAVE[0] W beat: data=0x0000000d last=0 beat_left=2
[6635000] SLAVE[0] W beat: data=0x0000000e last=0 beat_left=1
[6645000] SLAVE[0] W beat: data=0x0000000f last=1 beat_left=0
[6655000] SLAVE[0] B sent: id=0xa
[6675000] B_LISTENER[0]: B resp=0x0 BID=0xa
[6675000] MASTER[0] WRITE DONE: addr=0x00001000 BID=0xa
[6725000] MASTER[0] READ START: addr=0x00001000 len=15 id=0xa
[6765000] SLAVE[0] AR accepted: addr=0x00001000 len=15 size=2 id=0xa
[6775000] SLAVE[0] R beat: data=0x00000001 last=0 beat_left=14
[6785000] SLAVE[0] R beat: data=0x00000002 last=0 beat_left=13
[6795000] SLAVE[0] R beat: data=0x00000003 last=0 beat_left=12
[6795000] R_LISTENER[0]: beat=0 data=0x00000000 rlast=0
[6805000] SLAVE[0] R beat: data=0x00000004 last=0 beat_left=11
[6805000] R_LISTENER[0]: beat=1 data=0x00000001 rlast=0
[6815000] SLAVE[0] R beat: data=0x00000005 last=0 beat_left=10
[6815000] R_LISTENER[0]: beat=2 data=0x00000002 rlast=0
[6825000] SLAVE[0] R beat: data=0x00000006 last=0 beat_left=9
[6825000] R_LISTENER[0]: beat=3 data=0x00000003 rlast=0
[6835000] SLAVE[0] R beat: data=0x00000007 last=0 beat_left=8
[6835000] R_LISTENER[0]: beat=4 data=0x00000004 rlast=0
[6845000] SLAVE[0] R beat: data=0x00000008 last=0 beat_left=7
[6845000] R_LISTENER[0]: beat=5 data=0x00000005 rlast=0
[6855000] SLAVE[0] R beat: data=0x00000009 last=0 beat_left=6
[6855000] R_LISTENER[0]: beat=6 data=0x00000006 rlast=0
[6865000] SLAVE[0] R beat: data=0x0000000a last=0 beat_left=5
[6865000] R_LISTENER[0]: beat=7 data=0x00000007 rlast=0
[6875000] SLAVE[0] R beat: data=0x0000000b last=0 beat_left=4
[6875000] R_LISTENER[0]: beat=8 data=0x00000008 rlast=0
[6885000] SLAVE[0] R beat: data=0x0000000c last=0 beat_left=3
[6885000] R_LISTENER[0]: beat=9 data=0x00000009 rlast=0
[6895000] SLAVE[0] R beat: data=0x0000000d last=0 beat_left=2
[6895000] R_LISTENER[0]: beat=10 data=0x0000000a rlast=0
[6905000] SLAVE[0] R beat: data=0x0000000e last=0 beat_left=1
[6905000] R_LISTENER[0]: beat=11 data=0x0000000b rlast=0
[6915000] SLAVE[0] R beat: data=0x0000000f last=1 beat_left=0
[6915000] R_LISTENER[0]: beat=12 data=0x0000000c rlast=0
[6925000] SLAVE[0] R last beat done: id=0xa
[6925000] R_LISTENER[0]: beat=13 data=0x0000000d rlast=0
[6935000] R_LISTENER[0]: beat=14 data=0x0000000e rlast=0
[6945000] R_LISTENER[0]: beat=15 data=0x0000000f rlast=1
[6945000] MASTER[0] R beat: data=0x00000000 last=0
[6945000] MASTER[0] R beat: data=0x00000001 last=0
[6945000] MASTER[0] R beat: data=0x00000002 last=0
[6945000] MASTER[0] R beat: data=0x00000003 last=0
[6945000] MASTER[0] R beat: data=0x00000004 last=0
[6945000] MASTER[0] R beat: data=0x00000005 last=0
[6945000] MASTER[0] R beat: data=0x00000006 last=0
[6945000] MASTER[0] R beat: data=0x00000007 last=0
[6945000] MASTER[0] R beat: data=0x00000008 last=0
[6945000] MASTER[0] R beat: data=0x00000009 last=0
[6945000] MASTER[0] R beat: data=0x0000000a last=0
[6945000] MASTER[0] R beat: data=0x0000000b last=0
[6945000] MASTER[0] R beat: data=0x0000000c last=0
[6945000] MASTER[0] R beat: data=0x0000000d last=0
[6945000] MASTER[0] R beat: data=0x0000000e last=0
[6945000] MASTER[0] R beat: data=0x0000000f last=1
[6945000] MASTER[0] READ DONE: addr=0x00001000 RID=0xa
[6945000] CHECK OK: M[0] read data match @ addr=0x00001000 data=0x00000000
[6945000] CHECK OK: M[0] read data match @ addr=0x00001004 data=0x00000001
[6945000] CHECK OK: M[0] read data match @ addr=0x00001008 data=0x00000002
[6945000] CHECK OK: M[0] read data match @ addr=0x0000100c data=0x00000003
[6945000] CHECK OK: M[0] read data match @ addr=0x00001010 data=0x00000004
[6945000] CHECK OK: M[0] read data match @ addr=0x00001014 data=0x00000005
[6945000] CHECK OK: M[0] read data match @ addr=0x00001018 data=0x00000006
[6945000] CHECK OK: M[0] read data match @ addr=0x0000101c data=0x00000007
[6945000] CHECK OK: M[0] read data match @ addr=0x00001020 data=0x00000008
[6945000] CHECK OK: M[0] read data match @ addr=0x00001024 data=0x00000009
[6945000] CHECK OK: M[0] read data match @ addr=0x00001028 data=0x0000000a
[6945000] CHECK OK: M[0] read data match @ addr=0x0000102c data=0x0000000b
[6945000] CHECK OK: M[0] read data match @ addr=0x00001030 data=0x0000000c
[6945000] CHECK OK: M[0] read data match @ addr=0x00001034 data=0x0000000d
[6945000] CHECK OK: M[0] read data match @ addr=0x00001038 data=0x0000000e
[6945000] CHECK OK: M[0] read data match @ addr=0x0000103c data=0x0000000f

[PHASE 3] ========== PHASE 3: Full-Word Single-Beat Writes ==========
[7045000] MASTER[0] WRITE START: addr=0x00002000 len=0 id=0x3
[7085000] SLAVE[1] AW accepted: addr=0x00002000 len=0 size=2 id=0x3
[7125000] SLAVE[1] W beat: data=0x12345678 last=1 beat_left=0
[7135000] SLAVE[1] B sent: id=0x3
[7155000] B_LISTENER[0]: B resp=0x0 BID=0x3
[7155000] MASTER[0] WRITE DONE: addr=0x00002000 BID=0x3
[7175000] MASTER[0] READ START: addr=0x00002000 len=0 id=0x3
[7215000] SLAVE[1] AR accepted: addr=0x00002000 len=0 size=2 id=0x3
[7225000] SLAVE[1] R last beat done: id=0x3
[7245000] R_LISTENER[0]: beat=0 data=0x12345678 rlast=1
[7245000] MASTER[0] R beat: data=0x12345678 last=1
[7245000] MASTER[0] READ DONE: addr=0x00002000 RID=0x3
[7245000] CHECK OK: M[0] read data match @ addr=0x00002000 data=0x12345678
[7245000] MASTER[1] WRITE START: addr=0x00002004 len=0 id=0x3
[7285000] SLAVE[1] AW accepted: addr=0x00002004 len=0 size=2 id=0x43
[7325000] SLAVE[1] W beat: data=0xaaaabbbb last=1 beat_left=0
[7335000] SLAVE[1] B sent: id=0x43
[7355000] B_LISTENER[1]: B resp=0x0 BID=0x3
[7355000] MASTER[1] WRITE DONE: addr=0x00002004 BID=0x3
[7375000] MASTER[1] READ START: addr=0x00002004 len=0 id=0x3
[7415000] SLAVE[1] AR accepted: addr=0x00002004 len=0 size=2 id=0x43
[7425000] SLAVE[1] R last beat done: id=0x43
[7445000] R_LISTENER[1]: beat=0 data=0xaaaabbbb rlast=1
[7445000] MASTER[1] R beat: data=0xaaaabbbb last=1
[7445000] MASTER[1] READ DONE: addr=0x00002004 RID=0x3
[7445000] CHECK OK: M[1] read data match @ addr=0x00002004 data=0xaaaabbbb
[7445000] MASTER[2] WRITE START: addr=0x00002008 len=0 id=0x3
[7485000] SLAVE[1] AW accepted: addr=0x00002008 len=0 size=2 id=0x83
[7525000] SLAVE[1] W beat: data=0xffff0000 last=1 beat_left=0
[7535000] SLAVE[1] B sent: id=0x83
[7555000] B_LISTENER[2]: B resp=0x0 BID=0x3
[7555000] MASTER[2] WRITE DONE: addr=0x00002008 BID=0x3
[7575000] MASTER[2] READ START: addr=0x00002008 len=0 id=0x3
[7615000] SLAVE[1] AR accepted: addr=0x00002008 len=0 size=2 id=0x83
[7625000] SLAVE[1] R last beat done: id=0x83
[7645000] R_LISTENER[2]: beat=0 data=0xffff0000 rlast=1
[7645000] MASTER[2] R beat: data=0xffff0000 last=1
[7645000] MASTER[2] READ DONE: addr=0x00002008 RID=0x3
[7645000] CHECK OK: M[2] read data match @ addr=0x00002008 data=0xffff0000
[7645000] MASTER[3] WRITE START: addr=0x0000200c len=0 id=0x3
[7685000] SLAVE[1] AW accepted: addr=0x0000200c len=0 size=2 id=0xc3
[7725000] SLAVE[1] W beat: data=0x0000ffff last=1 beat_left=0
[7735000] SLAVE[1] B sent: id=0xc3
[7755000] B_LISTENER[3]: B resp=0x0 BID=0x3
[7755000] MASTER[3] WRITE DONE: addr=0x0000200c BID=0x3
[7775000] MASTER[3] READ START: addr=0x0000200c len=0 id=0x3
[7815000] SLAVE[1] AR accepted: addr=0x0000200c len=0 size=2 id=0xc3
[7825000] SLAVE[1] R last beat done: id=0xc3
[7845000] R_LISTENER[3]: beat=0 data=0x0000ffff rlast=1
[7845000] MASTER[3] R beat: data=0x0000ffff last=1
[7845000] MASTER[3] READ DONE: addr=0x0000200c RID=0x3
[7845000] CHECK OK: M[3] read data match @ addr=0x0000200c data=0x0000ffff

[PHASE 4] ========== PHASE 4: Concurrent Multi-Master ==========
--- 4 Masters → Slave 0 (write, concurrent) ---
[7845000] MASTER[0] WRITE START: addr=0x00000100 len=0 id=0x0
[7845000] MASTER[1] WRITE START: addr=0x00000104 len=0 id=0x0
[7845000] MASTER[2] WRITE START: addr=0x00000108 len=0 id=0x0
[7845000] MASTER[3] WRITE START: addr=0x0000010c len=0 id=0x0
[7885000] SLAVE[0] AW accepted: addr=0x0000010c len=0 size=2 id=0xc0
[7895000] SLAVE[0] AW accepted: addr=0x00000104 len=0 size=2 id=0x40
[7905000] SLAVE[0] AW accepted: addr=0x00000108 len=0 size=2 id=0x80
[7915000] SLAVE[0] AW accepted: addr=0x00000100 len=0 size=2 id=0x0
[7925000] SLAVE[0] W beat: data=0xdddd0004 last=1 beat_left=0
[7935000] SLAVE[0] B sent: id=0xc0
[7945000] SLAVE[0] W beat: data=0xbbbb0002 last=1 beat_left=0
[7955000] SLAVE[0] B sent: id=0x40
[7955000] B_LISTENER[3]: B resp=0x0 BID=0x0
[7955000] MASTER[3] WRITE DONE: addr=0x0000010c BID=0x0
[7965000] SLAVE[0] W beat: data=0xcccc0003 last=1 beat_left=0
[7975000] SLAVE[0] B sent: id=0x80
[7975000] B_LISTENER[1]: B resp=0x0 BID=0x0
[7975000] MASTER[1] WRITE DONE: addr=0x00000104 BID=0x0
[7985000] SLAVE[0] W beat: data=0xaaaa0001 last=1 beat_left=0
[7995000] SLAVE[0] B sent: id=0x0
[7995000] B_LISTENER[2]: B resp=0x0 BID=0x0
[7995000] MASTER[2] WRITE DONE: addr=0x00000108 BID=0x0
[8015000] B_LISTENER[0]: B resp=0x0 BID=0x0
[8015000] MASTER[0] WRITE DONE: addr=0x00000100 BID=0x0
--- 4 Masters ← Slave 0 (read, concurrent) ---
[8015000] MASTER[0] READ START: addr=0x00000100 len=0 id=0x0
[8015000] MASTER[1] READ START: addr=0x00000104 len=0 id=0x0
[8015000] MASTER[2] READ START: addr=0x00000108 len=0 id=0x0
[8015000] MASTER[3] READ START: addr=0x0000010c len=0 id=0x0
[8055000] SLAVE[0] AR accepted: addr=0x0000010c len=0 size=2 id=0xc0
[8065000] SLAVE[0] AR accepted: addr=0x00000104 len=0 size=2 id=0x40
[8065000] SLAVE[0] R last beat done: id=0xc0
[8075000] SLAVE[0] AR accepted: addr=0x00000108 len=0 size=2 id=0x80
[8085000] SLAVE[0] AR accepted: addr=0x00000100 len=0 size=2 id=0x0
[8085000] SLAVE[0] R last beat done: id=0x40
[8085000] R_LISTENER[3]: beat=0 data=0xdddd0004 rlast=1
[8085000] MASTER[3] R beat: data=0xdddd0004 last=1
[8085000] MASTER[3] READ DONE: addr=0x0000010c RID=0x0
[8085000] CHECK OK: M[3] read data match @ addr=0x0000010c data=0xdddd0004
[8105000] SLAVE[0] R last beat done: id=0x80
[8105000] R_LISTENER[1]: beat=0 data=0xbbbb0002 rlast=1
[8105000] MASTER[1] R beat: data=0xbbbb0002 last=1
[8105000] MASTER[1] READ DONE: addr=0x00000104 RID=0x0
[8105000] CHECK OK: M[1] read data match @ addr=0x00000104 data=0xbbbb0002
[8125000] SLAVE[0] R last beat done: id=0x0
[8125000] R_LISTENER[2]: beat=0 data=0xcccc0003 rlast=1
[8125000] MASTER[2] R beat: data=0xcccc0003 last=1
[8125000] MASTER[2] READ DONE: addr=0x00000108 RID=0x0
[8125000] CHECK OK: M[2] read data match @ addr=0x00000108 data=0xcccc0003
[8145000] R_LISTENER[0]: beat=0 data=0xaaaa0001 rlast=1
[8145000] MASTER[0] R beat: data=0xaaaa0001 last=1
[8145000] MASTER[0] READ DONE: addr=0x00000100 RID=0x0
[8145000] CHECK OK: M[0] read data match @ addr=0x00000100 data=0xaaaa0001

[PHASE 5] ========== PHASE 5: Multi-Slave Concurrent Access ==========
--- 4 Masters → 4 Slaves (write, concurrent) ---
[8145000] MASTER[0] WRITE START: addr=0x00000300 len=0 id=0x1
[8145000] MASTER[1] WRITE START: addr=0x00002300 len=0 id=0x1
[8145000] MASTER[2] WRITE START: addr=0x00004300 len=0 id=0x1
[8145000] MASTER[3] WRITE START: addr=0x00006300 len=0 id=0x1
[8185000] SLAVE[3] AW accepted: addr=0x00006300 len=0 size=2 id=0xc1
[8185000] SLAVE[2] AW accepted: addr=0x00004300 len=0 size=2 id=0x81
[8185000] SLAVE[1] AW accepted: addr=0x00002300 len=0 size=2 id=0x41
[8185000] SLAVE[0] AW accepted: addr=0x00000300 len=0 size=2 id=0x1
[8225000] SLAVE[3] W beat: data=0x44444444 last=1 beat_left=0
[8225000] SLAVE[2] W beat: data=0x33333333 last=1 beat_left=0
[8225000] SLAVE[1] W beat: data=0x22222222 last=1 beat_left=0
[8225000] SLAVE[0] W beat: data=0x11111111 last=1 beat_left=0
[8235000] SLAVE[3] B sent: id=0xc1
[8235000] SLAVE[2] B sent: id=0x81
[8235000] SLAVE[1] B sent: id=0x41
[8235000] SLAVE[0] B sent: id=0x1
[8255000] B_LISTENER[3]: B resp=0x0 BID=0x1
[8255000] B_LISTENER[2]: B resp=0x0 BID=0x1
[8255000] B_LISTENER[1]: B resp=0x0 BID=0x1
[8255000] B_LISTENER[0]: B resp=0x0 BID=0x1
[8255000] MASTER[3] WRITE DONE: addr=0x00006300 BID=0x1
[8255000] MASTER[2] WRITE DONE: addr=0x00004300 BID=0x1
[8255000] MASTER[1] WRITE DONE: addr=0x00002300 BID=0x1
[8255000] MASTER[0] WRITE DONE: addr=0x00000300 BID=0x1
--- 4 Masters ← 4 Slaves (read, concurrent) ---
[8255000] MASTER[0] READ START: addr=0x00000300 len=0 id=0x1
[8255000] MASTER[1] READ START: addr=0x00002300 len=0 id=0x1
[8255000] MASTER[2] READ START: addr=0x00004300 len=0 id=0x1
[8255000] MASTER[3] READ START: addr=0x00006300 len=0 id=0x1
[8295000] SLAVE[3] AR accepted: addr=0x00006300 len=0 size=2 id=0xc1
[8295000] SLAVE[2] AR accepted: addr=0x00004300 len=0 size=2 id=0x81
[8295000] SLAVE[1] AR accepted: addr=0x00002300 len=0 size=2 id=0x41
[8295000] SLAVE[0] AR accepted: addr=0x00000300 len=0 size=2 id=0x1
[8305000] SLAVE[3] R last beat done: id=0xc1
[8305000] SLAVE[2] R last beat done: id=0x81
[8305000] SLAVE[1] R last beat done: id=0x41
[8305000] SLAVE[0] R last beat done: id=0x1
[8325000] R_LISTENER[3]: beat=0 data=0x44444444 rlast=1
[8325000] R_LISTENER[2]: beat=0 data=0x33333333 rlast=1
[8325000] R_LISTENER[1]: beat=0 data=0x22222222 rlast=1
[8325000] R_LISTENER[0]: beat=0 data=0x11111111 rlast=1
[8325000] MASTER[3] R beat: data=0x44444444 last=1
[8325000] MASTER[3] READ DONE: addr=0x00006300 RID=0x1
[8325000] CHECK OK: M[3] read data match @ addr=0x00006300 data=0x44444444
[8325000] MASTER[2] R beat: data=0x33333333 last=1
[8325000] MASTER[2] READ DONE: addr=0x00004300 RID=0x1
[8325000] CHECK OK: M[2] read data match @ addr=0x00004300 data=0x33333333
[8325000] MASTER[1] R beat: data=0x22222222 last=1
[8325000] MASTER[1] READ DONE: addr=0x00002300 RID=0x1
[8325000] CHECK OK: M[1] read data match @ addr=0x00002300 data=0x22222222
[8325000] MASTER[0] R beat: data=0x11111111 last=1
[8325000] MASTER[0] READ DONE: addr=0x00000300 RID=0x1
[8325000] CHECK OK: M[0] read data match @ addr=0x00000300 data=0x11111111

[PHASE 6] ========== PHASE 6: Mixed Concurrent Read/Write ==========
[8325000] MASTER[0] WRITE START: addr=0x00000500 len=0 id=0xf
[8365000] SLAVE[0] AW accepted: addr=0x00000500 len=0 size=2 id=0xf
[8405000] SLAVE[0] W beat: data=0xcafec0de last=1 beat_left=0
[8415000] SLAVE[0] B sent: id=0xf
[8435000] B_LISTENER[0]: B resp=0x0 BID=0xf
[8435000] MASTER[0] WRITE DONE: addr=0x00000500 BID=0xf
[8435000] MASTER[1] WRITE START: addr=0x00002500 len=0 id=0xf
[8475000] SLAVE[1] AW accepted: addr=0x00002500 len=0 size=2 id=0x4f
[8515000] SLAVE[1] W beat: data=0xfeedface last=1 beat_left=0
[8525000] SLAVE[1] B sent: id=0x4f
[8545000] B_LISTENER[1]: B resp=0x0 BID=0xf
[8545000] MASTER[1] WRITE DONE: addr=0x00002500 BID=0xf
--- M0 read Slave0, M1 write Slave1, M2 write Slave2, M3 read Slave3 ---
[8645000] MASTER[0] READ START: addr=0x00000500 len=0 id=0xf
[8645000] MASTER[1] WRITE START: addr=0x00002600 len=0 id=0xe
[8645000] MASTER[2] WRITE START: addr=0x00004600 len=0 id=0xe
[8645000] MASTER[3] WRITE START: addr=0x00006500 len=0 id=0xe
[8685000] SLAVE[3] AW accepted: addr=0x00006500 len=0 size=2 id=0xce
[8685000] SLAVE[2] AW accepted: addr=0x00004600 len=0 size=2 id=0x8e
[8685000] SLAVE[1] AW accepted: addr=0x00002600 len=0 size=2 id=0x4e
[8685000] SLAVE[0] AR accepted: addr=0x00000500 len=0 size=2 id=0xf
[8695000] SLAVE[0] R last beat done: id=0xf
[8715000] R_LISTENER[0]: beat=0 data=0xcafec0de rlast=1
[8715000] MASTER[0] R beat: data=0xcafec0de last=1
[8715000] MASTER[0] READ DONE: addr=0x00000500 RID=0xf
[8715000] CHECK OK: M[0] read data match @ addr=0x00000500 data=0xcafec0de
[8725000] SLAVE[3] W beat: data=0xdeadbeef last=1 beat_left=0
[8725000] SLAVE[2] W beat: data=0xbeef0002 last=1 beat_left=0
[8725000] SLAVE[1] W beat: data=0xbeef0001 last=1 beat_left=0
[8735000] SLAVE[3] B sent: id=0xce
[8735000] SLAVE[2] B sent: id=0x8e
[8735000] SLAVE[1] B sent: id=0x4e
[8755000] B_LISTENER[3]: B resp=0x0 BID=0xe
[8755000] B_LISTENER[2]: B resp=0x0 BID=0xe
[8755000] B_LISTENER[1]: B resp=0x0 BID=0xe
[8755000] MASTER[3] WRITE DONE: addr=0x00006500 BID=0xe
[8755000] MASTER[2] WRITE DONE: addr=0x00004600 BID=0xe
[8755000] MASTER[1] WRITE DONE: addr=0x00002600 BID=0xe
[8785000] MASTER[3] READ START: addr=0x00006500 len=0 id=0xe
[8825000] SLAVE[3] AR accepted: addr=0x00006500 len=0 size=2 id=0xce
[8835000] SLAVE[3] R last beat done: id=0xce
[8855000] R_LISTENER[3]: beat=0 data=0xdeadbeef rlast=1
[8855000] MASTER[3] R beat: data=0xdeadbeef last=1
[8855000] MASTER[3] READ DONE: addr=0x00006500 RID=0xe
[8855000] CHECK OK: M[3] read data match @ addr=0x00006500 data=0xdeadbeef

[PHASE 7] ========== PHASE 7: Multi-ID Outstanding Transactions ==========
--- M0: 4 writes with different IDs → Slave 0 ---
[8855000] MASTER[0] WRITE START: addr=0x00000700 len=0 id=0x0
[8895000] SLAVE[0] AW accepted: addr=0x00000700 len=0 size=2 id=0x0
[8935000] SLAVE[0] W beat: data=0xa001a001 last=1 beat_left=0
[8945000] SLAVE[0] B sent: id=0x0
[8965000] B_LISTENER[0]: B resp=0x0 BID=0x0
[8965000] MASTER[0] WRITE DONE: addr=0x00000700 BID=0x0
[8965000] MASTER[0] WRITE START: addr=0x00000704 len=0 id=0x2
[9005000] SLAVE[0] AW accepted: addr=0x00000704 len=0 size=2 id=0x2
[9045000] SLAVE[0] W beat: data=0xa002a002 last=1 beat_left=0
[9055000] SLAVE[0] B sent: id=0x2
[9075000] B_LISTENER[0]: B resp=0x0 BID=0x2
[9075000] MASTER[0] WRITE DONE: addr=0x00000704 BID=0x2
[9075000] MASTER[0] WRITE START: addr=0x00000708 len=0 id=0x4
[9115000] SLAVE[0] AW accepted: addr=0x00000708 len=0 size=2 id=0x4
[9155000] SLAVE[0] W beat: data=0xa003a003 last=1 beat_left=0
[9165000] SLAVE[0] B sent: id=0x4
[9185000] B_LISTENER[0]: B resp=0x0 BID=0x4
[9185000] MASTER[0] WRITE DONE: addr=0x00000708 BID=0x4
[9185000] MASTER[0] WRITE START: addr=0x0000070c len=0 id=0x6
[9225000] SLAVE[0] AW accepted: addr=0x0000070c len=0 size=2 id=0x6
[9265000] SLAVE[0] W beat: data=0xa004a004 last=1 beat_left=0
[9275000] SLAVE[0] B sent: id=0x6
[9295000] B_LISTENER[0]: B resp=0x0 BID=0x6
[9295000] MASTER[0] WRITE DONE: addr=0x0000070c BID=0x6
--- M0: 4 reads with different IDs ← Slave 0 ---
[9395000] MASTER[0] READ START: addr=0x00000700 len=0 id=0x0
[9435000] SLAVE[0] AR accepted: addr=0x00000700 len=0 size=2 id=0x0
[9445000] SLAVE[0] R last beat done: id=0x0
[9465000] R_LISTENER[0]: beat=0 data=0xa001a001 rlast=1
[9465000] MASTER[0] R beat: data=0xa001a001 last=1
[9465000] MASTER[0] READ DONE: addr=0x00000700 RID=0x0
[9465000] CHECK OK: M[0] read data match @ addr=0x00000700 data=0xa001a001
[9465000] MASTER[0] READ START: addr=0x00000704 len=0 id=0x2
[9505000] SLAVE[0] AR accepted: addr=0x00000704 len=0 size=2 id=0x2
[9515000] SLAVE[0] R last beat done: id=0x2
[9535000] R_LISTENER[0]: beat=0 data=0xa002a002 rlast=1
[9535000] MASTER[0] R beat: data=0xa002a002 last=1
[9535000] MASTER[0] READ DONE: addr=0x00000704 RID=0x2
[9535000] CHECK OK: M[0] read data match @ addr=0x00000704 data=0xa002a002
[9535000] MASTER[0] READ START: addr=0x00000708 len=0 id=0x4
[9575000] SLAVE[0] AR accepted: addr=0x00000708 len=0 size=2 id=0x4
[9585000] SLAVE[0] R last beat done: id=0x4
[9605000] R_LISTENER[0]: beat=0 data=0xa003a003 rlast=1
[9605000] MASTER[0] R beat: data=0xa003a003 last=1
[9605000] MASTER[0] READ DONE: addr=0x00000708 RID=0x4
[9605000] CHECK OK: M[0] read data match @ addr=0x00000708 data=0xa003a003
[9605000] MASTER[0] READ START: addr=0x0000070c len=0 id=0x6
[9645000] SLAVE[0] AR accepted: addr=0x0000070c len=0 size=2 id=0x6
[9655000] SLAVE[0] R last beat done: id=0x6
[9675000] R_LISTENER[0]: beat=0 data=0xa004a004 rlast=1
[9675000] MASTER[0] R beat: data=0xa004a004 last=1
[9675000] MASTER[0] READ DONE: addr=0x0000070c RID=0x6
[9675000] CHECK OK: M[0] read data match @ addr=0x0000070c data=0xa004a004

[PHASE 8] ========== PHASE 8: Long Burst Stress ==========
--- 16-beat write burst M0 → Slave 0 ---
[9675000] MASTER[0] WRITE START: addr=0x00001000 len=15 id=0xc
[9715000] SLAVE[0] AW accepted: addr=0x00001000 len=15 size=2 id=0xc
[9755000] SLAVE[0] W beat: data=0x00000000 last=0 beat_left=15
[9765000] SLAVE[0] W beat: data=0x00000001 last=0 beat_left=14
[9775000] SLAVE[0] W beat: data=0x00000002 last=0 beat_left=13
[9785000] SLAVE[0] W beat: data=0x00000003 last=0 beat_left=12
[9795000] SLAVE[0] W beat: data=0x00000004 last=0 beat_left=11
