Command: vcs -q -full64 -sverilog -f ./list/flist.f -R +v2k -debug_access+all -timescale=1ns/1ps \
-fsdb +define+FSDB -l com.log +lint=TFIPC-L +lint=PCWM -ntb_opts uvm-1.2 +UVM_TESTNAME=split4k_test \


Warning-[IPDW] Identifier previously declared
./rtl/axi_interconnect.v, 762
  Second declaration for identifier 'clr_last_packed' ignored
  Identifier 'clr_last_packed' previously declared as wire. 
  [./rtl/axi_interconnect.v, 669]


Warning-[IPDW] Identifier previously declared
./rtl/axi_interconnect.v, 763
  Second declaration for identifier 'clr_sid_packed' ignored
  Identifier 'clr_sid_packed' previously declared as wire. 
  [./rtl/axi_interconnect.v, 670]


Warning-[IPDW] Identifier previously declared
./rtl/axi_interconnect.v, 764
  Second declaration for identifier 'clr_sid_vld_packed' ignored
  Identifier 'clr_sid_vld_packed' previously declared as wire. 
  [./rtl/axi_interconnect.v, 671]


Warning-[IPDW] Identifier previously declared
./rtl/axi_interconnect.v, 765
  Second declaration for identifier 'sid_buf_s_clr_rdy' ignored
  Identifier 'sid_buf_s_clr_rdy' previously declared as wire. 
  [./rtl/axi_interconnect.v, 672]


Warning-[AOUP] Attempt to override undefined parameter
./uvm/tb_top.sv, 27
  Attempting to override undefined parameter "DEFAULT_SLV_EN", will ignore it.

Notice: Ports coerced to inout, use -notice for details
20 modules and 0 UDP read.
make[1]: Entering directory '/home/ICer/project/axi4/csrc'
g++ -w  -pipe -DVCS -DUVM_DPI_DO_TYPE_CHECK -fPIC -O -I/home/synopsys/vcs/O-2018.09-SP2/include \
-c /home/synopsys/vcs/O-2018.09-SP2/etc/uvm-1.2/dpi/uvm_dpi.cc
g++ -w  -pipe -DVCS -DUVM_DPI_DO_TYPE_CHECK -fPIC -O -I/home/synopsys/vcs/O-2018.09-SP2/include \
-c /home/synopsys/vcs/O-2018.09-SP2/etc/uvm-1.2/verdi/dpi/uvm_verdi_dpi.cpp
../simv up to date
make[1]: Leaving directory '/home/ICer/project/axi4/csrc'
Command: /home/ICer/project/axi4/./simv -q +v2k +define+FSDB -a com.log +lint=TFIPC-L +lint=PCWM +UVM_TESTNAME=split4k_test
UVM_INFO /home/synopsys/vcs/O-2018.09-SP2/etc/uvm-1.2/base/uvm_root.svh(402) @ 0: reporter [UVM/RELNOTES] 
----------------------------------------------------------------
UVM-1.2.Synopsys
(C) 2007-2014 Mentor Graphics Corporation
(C) 2007-2014 Cadence Design Systems, Inc.
(C) 2006-2014 Synopsys, Inc.
(C) 2011-2013 Cypress Semiconductor Corp.
(C) 2013-2014 NVIDIA Corporation
----------------------------------------------------------------

  ***********       IMPORTANT RELEASE NOTES         ************

  You are using a version of the UVM library that has been compiled
  with `UVM_NO_DEPRECATED undefined.
  See http://www.eda.org/svdb/view.php?id=3313 for more details.

  You are using a version of the UVM library that has been compiled
  with `UVM_OBJECT_DO_NOT_NEED_CONSTRUCTOR undefined.
  See http://www.eda.org/svdb/view.php?id=3770 for more details.

      (Specify +UVM_NO_RELNOTES to turn off this notice)

*Verdi* Loading libsscore_vcs201809.so
FSDB Dumper for VCS, Release Verdi_O-2018.09-SP2, Linux x86_64/64bit, 02/21/2019
(C) 1996 - 2019 by Synopsys, Inc.
*Verdi* : Create FSDB file 'tb_top.fsdb'
*Verdi* : Begin traversing the scope (tb_top), layer (0).
*Verdi* : End of traversing.
*Verdi* : Begin traversing the MDAs, layer (0).
*Verdi* : Enable +mda and +packedmda dumping.
*Verdi* : End of traversing the MDAs.
UVM_INFO /home/synopsys/vcs/O-2018.09-SP2/etc/uvm-1.2/base/uvm_root.svh(463) @ 0: reporter [NO_DPI_TSTNAME] UVM_NO_DPI defined--getting UVM_TESTNAME directly, without DPI
UVM_INFO @ 0: reporter [RNTST] Running test split4k_test...
UVM_INFO /home/synopsys/vcs/O-2018.09-SP2/etc/uvm-1.2/base/uvm_root.svh(589) @ 0: reporter [UVMTOP] UVM testbench topology:
------------------------------------------------------------------
Name                       Type                        Size  Value
------------------------------------------------------------------
uvm_test_top               split4k_test                -     @343 
  env                      axi_env                     -     @356 
    cov                    axi_cov                     -     @456 
      ar_ap                uvm_analysis_export         -     @484 
      ar_fifo              uvm_tlm_analysis_fifo #(T)  -     @573 
        analysis_export    uvm_analysis_imp            -     @622 
        get_ap             uvm_analysis_port           -     @612 
        get_peek_export    uvm_get_peek_imp            -     @592 
        put_ap             uvm_analysis_port           -     @602 
        put_export         uvm_put_imp                 -     @582 
      aw_ap                uvm_analysis_export         -     @474 
      aw_fifo              uvm_tlm_analysis_fifo #(T)  -     @514 
        analysis_export    uvm_analysis_imp            -     @563 
        get_ap             uvm_analysis_port           -     @553 
        get_peek_export    uvm_get_peek_imp            -     @533 
        put_ap             uvm_analysis_port           -     @543 
        put_export         uvm_put_imp                 -     @523 
      b_ap                 uvm_analysis_export         -     @494 
      b_fifo               uvm_tlm_analysis_fifo #(T)  -     @632 
        analysis_export    uvm_analysis_imp            -     @681 
        get_ap             uvm_analysis_port           -     @671 
        get_peek_export    uvm_get_peek_imp            -     @651 
        put_ap             uvm_analysis_port           -     @661 
        put_export         uvm_put_imp                 -     @641 
      r_ap                 uvm_analysis_export         -     @504 
      r_fifo               uvm_tlm_analysis_fifo #(T)  -     @691 
        analysis_export    uvm_analysis_imp            -     @740 
        get_ap             uvm_analysis_port           -     @730 
        get_peek_export    uvm_get_peek_imp            -     @710 
        put_ap             uvm_analysis_port           -     @720 
        put_export         uvm_put_imp                 -     @700 
    mst_ag0                axi_master_agent            -     @366 
      drv_m0               axi_driver                  -     @888 
        rsp_port           uvm_analysis_port           -     @907 
        seq_item_port      uvm_seq_item_pull_port      -     @897 
      mon_m0               axi_monitor                 -     @917 
        ap_ar              uvm_analysis_port           -     @956 
        ap_aw              uvm_analysis_port           -     @926 
        ap_b               uvm_analysis_port           -     @946 
        ap_r               uvm_analysis_port           -     @966 
        ap_w               uvm_analysis_port           -     @936 
      sqr_m0               axi_sequencer               -     @751 
        rsp_export         uvm_analysis_export         -     @760 
        seq_item_export    uvm_seq_item_pull_imp       -     @878 
        arbitration_queue  array                       0     -    
        lock_queue         array                       0     -    
        num_last_reqs      integral                    32    'd1  
        num_last_rsps      integral                    32    'd1  
    mst_ag1                axi_master_agent            -     @384 
      drv_m1               axi_driver                  -     @1119
        rsp_port           uvm_analysis_port           -     @1138
        seq_item_port      uvm_seq_item_pull_port      -     @1128
      mon_m1               axi_monitor                 -     @1148
        ap_ar              uvm_analysis_port           -     @1187
        ap_aw              uvm_analysis_port           -     @1157
        ap_b               uvm_analysis_port           -     @1177
        ap_r               uvm_analysis_port           -     @1197
        ap_w               uvm_analysis_port           -     @1167
      sqr_m1               axi_sequencer               -     @982 
        rsp_export         uvm_analysis_export         -     @991 
        seq_item_export    uvm_seq_item_pull_imp       -     @1109
        arbitration_queue  array                       0     -    
        lock_queue         array                       0     -    
        num_last_reqs      integral                    32    'd1  
        num_last_rsps      integral                    32    'd1  
    mst_ag2                axi_master_agent            -     @402 
      drv_m2               axi_driver                  -     @1350
        rsp_port           uvm_analysis_port           -     @1369
        seq_item_port      uvm_seq_item_pull_port      -     @1359
      mon_m2               axi_monitor                 -     @1379
        ap_ar              uvm_analysis_port           -     @1418
        ap_aw              uvm_analysis_port           -     @1388
        ap_b               uvm_analysis_port           -     @1408
        ap_r               uvm_analysis_port           -     @1428
        ap_w               uvm_analysis_port           -     @1398
      sqr_m2               axi_sequencer               -     @1213
        rsp_export         uvm_analysis_export         -     @1222
        seq_item_export    uvm_seq_item_pull_imp       -     @1340
        arbitration_queue  array                       0     -    
        lock_queue         array                       0     -    
        num_last_reqs      integral                    32    'd1  
        num_last_rsps      integral                    32    'd1  
    mst_ag3                axi_master_agent            -     @420 
      drv_m3               axi_driver                  -     @1581
        rsp_port           uvm_analysis_port           -     @1600
        seq_item_port      uvm_seq_item_pull_port      -     @1590
      mon_m3               axi_monitor                 -     @1610
        ap_ar              uvm_analysis_port           -     @1649
        ap_aw              uvm_analysis_port           -     @1619
        ap_b               uvm_analysis_port           -     @1639
        ap_r               uvm_analysis_port           -     @1659
        ap_w               uvm_analysis_port           -     @1629
      sqr_m3               axi_sequencer               -     @1444
        rsp_export         uvm_analysis_export         -     @1453
        seq_item_export    uvm_seq_item_pull_imp       -     @1571
        arbitration_queue  array                       0     -    
        lock_queue         array                       0     -    
        num_last_reqs      integral                    32    'd1  
        num_last_rsps      integral                    32    'd1  
    proto_chk              axi_protocol_checker        -     @465 
      ar_ap                uvm_analysis_export         -     @1704
      ar_fifo              uvm_tlm_analysis_fifo #(T)  -     @1901
        analysis_export    uvm_analysis_imp            -     @1950
        get_ap             uvm_analysis_port           -     @1940
        get_peek_export    uvm_get_peek_imp            -     @1920
        put_ap             uvm_analysis_port           -     @1930
        put_export         uvm_put_imp                 -     @1910
      aw_ap                uvm_analysis_export         -     @1674
      aw_fifo              uvm_tlm_analysis_fifo #(T)  -     @1724
        analysis_export    uvm_analysis_imp            -     @1773
        get_ap             uvm_analysis_port           -     @1763
        get_peek_export    uvm_get_peek_imp            -     @1743
        put_ap             uvm_analysis_port           -     @1753
        put_export         uvm_put_imp                 -     @1733
      b_ap                 uvm_analysis_export         -     @1694
      b_fifo               uvm_tlm_analysis_fifo #(T)  -     @1842
        analysis_export    uvm_analysis_imp            -     @1891
        get_ap             uvm_analysis_port           -     @1881
        get_peek_export    uvm_get_peek_imp            -     @1861
        put_ap             uvm_analysis_port           -     @1871
        put_export         uvm_put_imp                 -     @1851
      r_ap                 uvm_analysis_export         -     @1714
      r_fifo               uvm_tlm_analysis_fifo #(T)  -     @1960
        analysis_export    uvm_analysis_imp            -     @2009
        get_ap             uvm_analysis_port           -     @1999
        get_peek_export    uvm_get_peek_imp            -     @1979
        put_ap             uvm_analysis_port           -     @1989
        put_export         uvm_put_imp                 -     @1969
      w_ap                 uvm_analysis_export         -     @1684
      w_fifo               uvm_tlm_analysis_fifo #(T)  -     @1783
        analysis_export    uvm_analysis_imp            -     @1832
        get_ap             uvm_analysis_port           -     @1822
        get_peek_export    uvm_get_peek_imp            -     @1802
        put_ap             uvm_analysis_port           -     @1812
        put_export         uvm_put_imp                 -     @1792
    refm                   reference_model             -     @447 
      ar_ap                uvm_analysis_export         -     @2029
      ar_fifo              uvm_tlm_analysis_fifo #(T)  -     @2098
        analysis_export    uvm_analysis_imp            -     @2147
        get_ap             uvm_analysis_port           -     @2137
        get_peek_export    uvm_get_peek_imp            -     @2117
        put_ap             uvm_analysis_port           -     @2127
        put_export         uvm_put_imp                 -     @2107
      aw_ap                uvm_analysis_export         -     @2019
      aw_fifo              uvm_tlm_analysis_fifo #(T)  -     @2039
        analysis_export    uvm_analysis_imp            -     @2088
        get_ap             uvm_analysis_port           -     @2078
        get_peek_export    uvm_get_peek_imp            -     @2058
        put_ap             uvm_analysis_port           -     @2068
        put_export         uvm_put_imp                 -     @2048
      pred_ar_ap           uvm_analysis_port           -     @2167
      pred_aw_ap           uvm_analysis_port           -     @2157
    sb                     axi_scoreboard              -     @438 
      ar_d_fifo            uvm_tlm_analysis_fifo #(T)  -     @2660
        analysis_export    uvm_analysis_imp            -     @2709
        get_ap             uvm_analysis_port           -     @2699
        get_peek_export    uvm_get_peek_imp            -     @2679
        put_ap             uvm_analysis_port           -     @2689
        put_export         uvm_put_imp                 -     @2669
      ar_imp               uvm_analysis_imp_ar         -     @2207
      ar_p_fifo            uvm_tlm_analysis_fifo #(T)  -     @2719
        analysis_export    uvm_analysis_imp            -     @2768
        get_ap             uvm_analysis_port           -     @2758
        get_peek_export    uvm_get_peek_imp            -     @2738
        put_ap             uvm_analysis_port           -     @2748
        put_export         uvm_put_imp                 -     @2728
      ar_r_fifo            uvm_tlm_analysis_fifo #(T)  -     @2601
        analysis_export    uvm_analysis_imp            -     @2650
        get_ap             uvm_analysis_port           -     @2640
        get_peek_export    uvm_get_peek_imp            -     @2620
        put_ap             uvm_analysis_port           -     @2630
        put_export         uvm_put_imp                 -     @2610
      aw_d_fifo            uvm_tlm_analysis_fifo #(T)  -     @2306
        analysis_export    uvm_analysis_imp            -     @2355
        get_ap             uvm_analysis_port           -     @2345
        get_peek_export    uvm_get_peek_imp            -     @2325
        put_ap             uvm_analysis_port           -     @2335
        put_export         uvm_put_imp                 -     @2315
      aw_imp               uvm_analysis_imp_aw         -     @2177
      aw_p_fifo            uvm_tlm_analysis_fifo #(T)  -     @2365
        analysis_export    uvm_analysis_imp            -     @2414
        get_ap             uvm_analysis_port           -     @2404
        get_peek_export    uvm_get_peek_imp            -     @2384
        put_ap             uvm_analysis_port           -     @2394
        put_export         uvm_put_imp                 -     @2374
      aw_r_fifo            uvm_tlm_analysis_fifo #(T)  -     @2247
        analysis_export    uvm_analysis_imp            -     @2296
        get_ap             uvm_analysis_port           -     @2286
        get_peek_export    uvm_get_peek_imp            -     @2266
        put_ap             uvm_analysis_port           -     @2276
        put_export         uvm_put_imp                 -     @2256
      b_imp                uvm_analysis_imp_b          -     @2197
      b_p_fifo             uvm_tlm_analysis_fifo #(T)  -     @2542
        analysis_export    uvm_analysis_imp            -     @2591
        get_ap             uvm_analysis_port           -     @2581
        get_peek_export    uvm_get_peek_imp            -     @2561
        put_ap             uvm_analysis_port           -     @2571
        put_export         uvm_put_imp                 -     @2551
      r_d_fifo             uvm_tlm_analysis_fifo #(T)  -     @2778
        analysis_export    uvm_analysis_imp            -     @2827
        get_ap             uvm_analysis_port           -     @2817
        get_peek_export    uvm_get_peek_imp            -     @2797
        put_ap             uvm_analysis_port           -     @2807
        put_export         uvm_put_imp                 -     @2787
      r_imp                uvm_analysis_imp_r          -     @2217
      r_p_fifo             uvm_tlm_analysis_fifo #(T)  -     @2837
        analysis_export    uvm_analysis_imp            -     @2886
        get_ap             uvm_analysis_port           -     @2876
        get_peek_export    uvm_get_peek_imp            -     @2856
        put_ap             uvm_analysis_port           -     @2866
        put_export         uvm_put_imp                 -     @2846
      slv_ar_fifo          uvm_tlm_analysis_fifo #(T)  -     @2955
        analysis_export    uvm_analysis_imp            -     @3004
        get_ap             uvm_analysis_port           -     @2994
        get_peek_export    uvm_get_peek_imp            -     @2974
        put_ap             uvm_analysis_port           -     @2984
        put_export         uvm_put_imp                 -     @2964
      slv_ar_imp           uvm_analysis_imp_slv_ar     -     @2237
      slv_aw_fifo          uvm_tlm_analysis_fifo #(T)  -     @2896
        analysis_export    uvm_analysis_imp            -     @2945
        get_ap             uvm_analysis_port           -     @2935
        get_peek_export    uvm_get_peek_imp            -     @2915
        put_ap             uvm_analysis_port           -     @2925
        put_export         uvm_put_imp                 -     @2905
      slv_aw_imp           uvm_analysis_imp_slv_aw     -     @2227
      w_d_fifo             uvm_tlm_analysis_fifo #(T)  -     @2424
        analysis_export    uvm_analysis_imp            -     @2473
        get_ap             uvm_analysis_port           -     @2463
        get_peek_export    uvm_get_peek_imp            -     @2443
        put_ap             uvm_analysis_port           -     @2453
        put_export         uvm_put_imp                 -     @2433
      w_imp                uvm_analysis_imp_w          -     @2187
      w_p_fifo             uvm_tlm_analysis_fifo #(T)  -     @2483
        analysis_export    uvm_analysis_imp            -     @2532
        get_ap             uvm_analysis_port           -     @2522
        get_peek_export    uvm_get_peek_imp            -     @2502
        put_ap             uvm_analysis_port           -     @2512
        put_export         uvm_put_imp                 -     @2492
    slv_ag0                axi_slave_agent             -     @375 
      mon_s0               axi_monitor                 -     @3015
        ap_ar              uvm_analysis_port           -     @3054
        ap_aw              uvm_analysis_port           -     @3024
        ap_b               uvm_analysis_port           -     @3044
        ap_r               uvm_analysis_port           -     @3064
        ap_w               uvm_analysis_port           -     @3034
    slv_ag1                axi_slave_agent             -     @393 
      mon_s1               axi_monitor                 -     @3075
        ap_ar              uvm_analysis_port           -     @3114
        ap_aw              uvm_analysis_port           -     @3084
        ap_b               uvm_analysis_port           -     @3104
        ap_r               uvm_analysis_port           -     @3124
        ap_w               uvm_analysis_port           -     @3094
    slv_ag2                axi_slave_agent             -     @411 
      mon_s2               axi_monitor                 -     @3135
        ap_ar              uvm_analysis_port           -     @3174
        ap_aw              uvm_analysis_port           -     @3144
        ap_b               uvm_analysis_port           -     @3164
        ap_r               uvm_analysis_port           -     @3184
        ap_w               uvm_analysis_port           -     @3154
    slv_ag3                axi_slave_agent             -     @429 
      mon_s3               axi_monitor                 -     @3195
        ap_ar              uvm_analysis_port           -     @3234
        ap_aw              uvm_analysis_port           -     @3204
        ap_b               uvm_analysis_port           -     @3224
        ap_r               uvm_analysis_port           -     @3244
        ap_w               uvm_analysis_port           -     @3214
------------------------------------------------------------------

UVM_INFO /home/synopsys/vcs/O-2018.09-SP2/etc/uvm-1.2/base/uvm_traversal.svh(279) @ 0: reporter [UVM/COMP/NAMECHECK] This implementation of the component name checks requires DPI to be enabled
UVM_INFO ./uvm/axi_driver.sv(22) @ 0: uvm_test_top.env.mst_ag0.drv_m0 [DRIVER] M[0] driving: WR id=15 addr=0x00000ff0 len=7 size=2 burst=1 mst=0 slv=0
UVM_INFO ./uvm/axi_driver.sv(43) @ 10000: uvm_test_top.env.mst_ag0.drv_m0 [TRACE] M[0] DRV AW start addr=0x00000ff0 len=7
UVM_INFO ./uvm/axi_driver.sv(46) @ 125000: uvm_test_top.env.mst_ag0.drv_m0 [TRACE] M[0] DRV AW handshake done
[TRACE] 125000 AW pre-FIFO m=0 addr=0x00000ff0 len=3
UVM_INFO ./uvm/axi_slave_agent.sv(47) @ 135000: uvm_test_top.env.slv_ag0 [TRACE] S[0] SLV AW handshake id=31 addr=0x00000ff0 len=3
[TRACE] 135000 AW pre-FIFO m=0 addr=0x00001000 len=3
[TRACE] 135000 AW at slave s=0 addr=0x00000ff0 len=3
UVM_INFO ./uvm/axi_driver.sv(57) @ 140000: uvm_test_top.env.mst_ag0.drv_m0 [TRACE] M[0] DRV W beat 0/7 last=0
UVM_INFO ./uvm/axi_slave_agent.sv(47) @ 145000: uvm_test_top.env.slv_ag0 [TRACE] S[0] SLV AW handshake id=47 addr=0x00001000 len=3
[TRACE] 145000 W FIFO write m=0 last=0 data=0x119cb34d
[TRACE] 145000 AW at slave s=0 addr=0x00001000 len=3
[TRACE] 155000 W FIFO read m=0 last=0 data=0x119cb34d
[TRACE] 155000 AW pre-FIFO m=0 addr=0x00000ff0 len=3
[TRACE] 155000 W  pre-FIFO m=0
UVM_INFO ./uvm/axi_driver.sv(57) @ 160000: uvm_test_top.env.mst_ag0.drv_m0 [TRACE] M[0] DRV W beat 1/7 last=0
UVM_INFO ./uvm/axi_slave_agent.sv(47) @ 165000: uvm_test_top.env.slv_ag0 [TRACE] S[0] SLV AW handshake id=31 addr=0x00000ff0 len=3
[TRACE] 165000 W FIFO write m=0 last=0 data=0x6dea7bbf
[TRACE] 165000 AW pre-FIFO m=0 addr=0x00001000 len=3
[TRACE] 165000 AW at slave s=0 addr=0x00000ff0 len=3
UVM_INFO ./uvm/axi_slave_agent.sv(47) @ 175000: uvm_test_top.env.slv_ag0 [TRACE] S[0] SLV AW handshake id=47 addr=0x00001000 len=3
UVM_INFO ./uvm/axi_slave_agent.sv(66) @ 175000: uvm_test_top.env.slv_ag0 [TRACE] S[0] SLV W beat data=0x119cb34d last=0
[TRACE] 175000 W FIFO read m=0 last=0 data=0x6dea7bbf
[TRACE] 175000 W at slave s=0 last=0 data=0x119cb34d
[TRACE] 175000 W  pre-FIFO m=0
[TRACE] 175000 AW at slave s=0 addr=0x00001000 len=3
[TRACE] 175000 W  at slave s=0
UVM_INFO ./uvm/axi_driver.sv(57) @ 180000: uvm_test_top.env.mst_ag0.drv_m0 [TRACE] M[0] DRV W beat 2/7 last=0
[TRACE] 185000 W FIFO write m=0 last=0 data=0x9b11e01b
[TRACE] 185000 AW pre-FIFO m=0 addr=0x00000ff0 len=3
UVM_INFO ./uvm/axi_slave_agent.sv(47) @ 195000: uvm_test_top.env.slv_ag0 [TRACE] S[0] SLV AW handshake id=31 addr=0x00000ff0 len=3
UVM_INFO ./uvm/axi_slave_agent.sv(66) @ 195000: uvm_test_top.env.slv_ag0 [TRACE] S[0] SLV W beat data=0x6dea7bbf last=0
[TRACE] 195000 W FIFO read m=0 last=0 data=0x9b11e01b
[TRACE] 195000 W at slave s=0 last=0 data=0x6dea7bbf
[TRACE] 195000 AW pre-FIFO m=0 addr=0x00001000 len=3
[TRACE] 195000 W  pre-FIFO m=0
[TRACE] 195000 AW at slave s=0 addr=0x00000ff0 len=3
[TRACE] 195000 W  at slave s=0
UVM_INFO ./uvm/axi_driver.sv(57) @ 200000: uvm_test_top.env.mst_ag0.drv_m0 [TRACE] M[0] DRV W beat 3/7 last=0
UVM_INFO ./uvm/axi_slave_agent.sv(47) @ 205000: uvm_test_top.env.slv_ag0 [TRACE] S[0] SLV AW handshake id=47 addr=0x00001000 len=3
[TRACE] 205000 W FIFO write m=0 last=0 data=0xd85b22c8
[TRACE] 205000 AW at slave s=0 addr=0x00001000 len=3
UVM_INFO ./uvm/axi_slave_agent.sv(66) @ 215000: uvm_test_top.env.slv_ag0 [TRACE] S[0] SLV W beat data=0x9b11e01b last=0
[TRACE] 215000 W FIFO read m=0 last=0 data=0xd85b22c8
[TRACE] 215000 W at slave s=0 last=0 data=0x9b11e01b
[TRACE] 215000 AW pre-FIFO m=0 addr=0x00000ff0 len=3
[TRACE] 215000 W  pre-FIFO m=0
[TRACE] 215000 W  at slave s=0
UVM_INFO ./uvm/axi_driver.sv(57) @ 220000: uvm_test_top.env.mst_ag0.drv_m0 [TRACE] M[0] DRV W beat 4/7 last=0
UVM_INFO ./uvm/axi_slave_agent.sv(47) @ 225000: uvm_test_top.env.slv_ag0 [TRACE] S[0] SLV AW handshake id=31 addr=0x00000ff0 len=3
[TRACE] 225000 W FIFO write m=0 last=0 data=0x0788f874
[TRACE] 225000 AW pre-FIFO m=0 addr=0x00001000 len=3
[TRACE] 225000 AW at slave s=0 addr=0x00000ff0 len=3
UVM_INFO ./uvm/axi_slave_agent.sv(47) @ 235000: uvm_test_top.env.slv_ag0 [TRACE] S[0] SLV AW handshake id=47 addr=0x00001000 len=3
UVM_INFO ./uvm/axi_slave_agent.sv(66) @ 235000: uvm_test_top.env.slv_ag0 [TRACE] S[0] SLV W beat data=0xd85b22c8 last=0
[TRACE] 235000 W FIFO read m=0 last=0 data=0x0788f874
[TRACE] 235000 W at slave s=0 last=0 data=0xd85b22c8
[TRACE] 235000 W  pre-FIFO m=0
[TRACE] 235000 AW at slave s=0 addr=0x00001000 len=3
[TRACE] 235000 W  at slave s=0
UVM_INFO ./uvm/axi_driver.sv(57) @ 240000: uvm_test_top.env.mst_ag0.drv_m0 [TRACE] M[0] DRV W beat 5/7 last=0
[TRACE] 245000 W FIFO write m=0 last=0 data=0x1dcad065
[TRACE] 245000 AW pre-FIFO m=0 addr=0x00000ff0 len=3
UVM_INFO ./uvm/axi_slave_agent.sv(47) @ 255000: uvm_test_top.env.slv_ag0 [TRACE] S[0] SLV AW handshake id=31 addr=0x00000ff0 len=3
UVM_INFO ./uvm/axi_slave_agent.sv(66) @ 255000: uvm_test_top.env.slv_ag0 [TRACE] S[0] SLV W beat data=0x0788f874 last=0
[TRACE] 255000 W FIFO read m=0 last=0 data=0x1dcad065
[TRACE] 255000 W at slave s=0 last=0 data=0x0788f874
[TRACE] 255000 W  pre-FIFO m=0
[TRACE] 255000 AW at slave s=0 addr=0x00000ff0 len=3
[TRACE] 255000 W  at slave s=0
UVM_INFO ./uvm/axi_driver.sv(57) @ 260000: uvm_test_top.env.mst_ag0.drv_m0 [TRACE] M[0] DRV W beat 6/7 last=0
UVM_INFO ./uvm/axi_slave_agent.sv(47) @ 265000: uvm_test_top.env.slv_ag0 [TRACE] S[0] SLV AW handshake id=47 addr=0x00001000 len=3
[TRACE] 265000 W FIFO write m=0 last=0 data=0x904eca72
[TRACE] 265000 AW at slave s=0 addr=0x00001000 len=3
UVM_INFO ./uvm/axi_slave_agent.sv(47) @ 275000: uvm_test_top.env.slv_ag0 [TRACE] S[0] SLV AW handshake id=47 addr=0x00001000 len=3
UVM_INFO ./uvm/axi_slave_agent.sv(66) @ 275000: uvm_test_top.env.slv_ag0 [TRACE] S[0] SLV W beat data=0x1dcad065 last=0
[TRACE] 275000 W FIFO read m=0 last=0 data=0x904eca72
[TRACE] 275000 W at slave s=0 last=0 data=0x1dcad065
[TRACE] 275000 W  pre-FIFO m=0
[TRACE] 275000 AW at slave s=0 addr=0x00001000 len=3
[TRACE] 275000 W  at slave s=0
UVM_INFO ./uvm/axi_driver.sv(57) @ 280000: uvm_test_top.env.mst_ag0.drv_m0 [TRACE] M[0] DRV W beat 7/7 last=1
UVM_INFO ./uvm/axi_slave_agent.sv(47) @ 285000: uvm_test_top.env.slv_ag0 [TRACE] S[0] SLV AW handshake id=47 addr=0x00001000 len=3
[TRACE] 285000 W FIFO write m=0 last=1 data=0x2eb45e44
[TRACE] 285000 AW at slave s=0 addr=0x00001000 len=3
UVM_INFO ./uvm/axi_driver.sv(65) @ 290000: uvm_test_top.env.mst_ag0.drv_m0 [TRACE] M[0] DRV B wait
UVM_INFO ./uvm/axi_slave_agent.sv(47) @ 295000: uvm_test_top.env.slv_ag0 [TRACE] S[0] SLV AW handshake id=47 addr=0x00001000 len=3
UVM_INFO ./uvm/axi_slave_agent.sv(66) @ 295000: uvm_test_top.env.slv_ag0 [TRACE] S[0] SLV W beat data=0x904eca72 last=0
[TRACE] 295000 W FIFO read m=0 last=1 data=0x2eb45e44
[TRACE] 295000 W at slave s=0 last=0 data=0x904eca72
[TRACE] 295000 W  pre-FIFO m=0
[TRACE] 295000 AW at slave s=0 addr=0x00001000 len=3
[TRACE] 295000 W  at slave s=0
UVM_INFO ./uvm/axi_slave_agent.sv(47) @ 305000: uvm_test_top.env.slv_ag0 [TRACE] S[0] SLV AW handshake id=47 addr=0x00001000 len=3
[TRACE] 305000 AW at slave s=0 addr=0x00001000 len=3
UVM_INFO ./uvm/axi_slave_agent.sv(47) @ 315000: uvm_test_top.env.slv_ag0 [TRACE] S[0] SLV AW handshake id=47 addr=0x00001000 len=3
UVM_INFO ./uvm/axi_slave_agent.sv(66) @ 315000: uvm_test_top.env.slv_ag0 [TRACE] S[0] SLV W beat data=0x2eb45e44 last=1
[TRACE] 315000 W at slave s=0 last=1 data=0x2eb45e44
[TRACE] 315000 AW pre-FIFO m=0 addr=0x00001000 len=3
[TRACE] 315000 AW at slave s=0 addr=0x00001000 len=3
[TRACE] 315000 W  at slave s=0
UVM_INFO ./uvm/axi_slave_agent.sv(88) @ 315000: uvm_test_top.env.slv_ag0 [TRACE] S[0] SLV B start id=15 beats=8
UVM_INFO ./uvm/axi_slave_agent.sv(47) @ 325000: uvm_test_top.env.slv_ag0 [TRACE] S[0] SLV AW handshake id=47 addr=0x00001000 len=3
[TRACE] 325000 AW pre-FIFO m=0 addr=0x00000ff0 len=3
[TRACE] 325000 AW at slave s=0 addr=0x00001000 len=3
[TRACE] 325000 B  from slave s=0
UVM_INFO ./uvm/axi_slave_agent.sv(47) @ 335000: uvm_test_top.env.slv_ag0 [TRACE] S[0] SLV AW handshake id=31 addr=0x00000ff0 len=3
[TRACE] 335000 B  to master m=0
[TRACE] 335000 AW at slave s=0 addr=0x00000ff0 len=3
UVM_INFO ./uvm/axi_slave_agent.sv(47) @ 345000: uvm_test_top.env.slv_ag0 [TRACE] S[0] SLV AW handshake id=47 addr=0x00001000 len=3
[TRACE] 345000 AW at slave s=0 addr=0x00001000 len=3
UVM_INFO ./uvm/axi_slave_agent.sv(47) @ 355000: uvm_test_top.env.slv_ag0 [TRACE] S[0] SLV AW handshake id=47 addr=0x00001000 len=3
[TRACE] 355000 AW at slave s=0 addr=0x00001000 len=3
UVM_INFO ./uvm/axi_slave_agent.sv(47) @ 365000: uvm_test_top.env.slv_ag0 [TRACE] S[0] SLV AW handshake id=47 addr=0x00001000 len=3
[TRACE] 365000 AW at slave s=0 addr=0x00001000 len=3
UVM_INFO ./uvm/axi_slave_agent.sv(47) @ 375000: uvm_test_top.env.slv_ag0 [TRACE] S[0] SLV AW handshake id=47 addr=0x00001000 len=3
[TRACE] 375000 AW at slave s=0 addr=0x00001000 len=3
UVM_INFO ./uvm/axi_slave_agent.sv(47) @ 385000: uvm_test_top.env.slv_ag0 [TRACE] S[0] SLV AW handshake id=47 addr=0x00001000 len=3
[TRACE] 385000 AW at slave s=0 addr=0x00001000 len=3
UVM_INFO ./uvm/axi_slave_agent.sv(47) @ 395000: uvm_test_top.env.slv_ag0 [TRACE] S[0] SLV AW handshake id=47 addr=0x00001000 len=3
[TRACE] 395000 AW at slave s=0 addr=0x00001000 len=3
UVM_INFO ./uvm/axi_slave_agent.sv(47) @ 405000: uvm_test_top.env.slv_ag0 [TRACE] S[0] SLV AW handshake id=47 addr=0x00001000 len=3
[TRACE] 405000 AW at slave s=0 addr=0x00001000 len=3
UVM_INFO ./uvm/axi_slave_agent.sv(47) @ 415000: uvm_test_top.env.slv_ag0 [TRACE] S[0] SLV AW handshake id=47 addr=0x00001000 len=3
[TRACE] 415000 AW at slave s=0 addr=0x00001000 len=3
UVM_INFO ./uvm/axi_slave_agent.sv(47) @ 425000: uvm_test_top.env.slv_ag0 [TRACE] S[0] SLV AW handshake id=47 addr=0x00001000 len=3
[TRACE] 425000 AW at slave s=0 addr=0x00001000 len=3
UVM_INFO ./uvm/axi_slave_agent.sv(47) @ 435000: uvm_test_top.env.slv_ag0 [TRACE] S[0] SLV AW handshake id=47 addr=0x00001000 len=3
[TRACE] 435000 AW at slave s=0 addr=0x00001000 len=3
UVM_INFO ./uvm/axi_slave_agent.sv(47) @ 445000: uvm_test_top.env.slv_ag0 [TRACE] S[0] SLV AW handshake id=47 addr=0x00001000 len=3
[TRACE] 445000 AW at slave s=0 addr=0x00001000 len=3
UVM_INFO ./uvm/axi_slave_agent.sv(47) @ 455000: uvm_test_top.env.slv_ag0 [TRACE] S[0] SLV AW handshake id=47 addr=0x00001000 len=3
[TRACE] 455000 AW at slave s=0 addr=0x00001000 len=3
UVM_INFO ./uvm/axi_slave_agent.sv(47) @ 465000: uvm_test_top.env.slv_ag0 [TRACE] S[0] SLV AW handshake id=47 addr=0x00001000 len=3
[TRACE] 465000 AW at slave s=0 addr=0x00001000 len=3
UVM_INFO ./uvm/axi_slave_agent.sv(47) @ 475000: uvm_test_top.env.slv_ag0 [TRACE] S[0] SLV AW handshake id=47 addr=0x00001000 len=3
[TRACE] 475000 AW at slave s=0 addr=0x00001000 len=3
UVM_INFO ./uvm/axi_slave_agent.sv(47) @ 485000: uvm_test_top.env.slv_ag0 [TRACE] S[0] SLV AW handshake id=47 addr=0x00001000 len=3
[TRACE] 485000 AW at slave s=0 addr=0x00001000 len=3
UVM_INFO ./uvm/axi_slave_agent.sv(47) @ 495000: uvm_test_top.env.slv_ag0 [TRACE] S[0] SLV AW handshake id=47 addr=0x00001000 len=3
[TRACE] 495000 AW at slave s=0 addr=0x00001000 len=3
UVM_INFO ./uvm/axi_slave_agent.sv(47) @ 505000: uvm_test_top.env.slv_ag0 [TRACE] S[0] SLV AW handshake id=47 addr=0x00001000 len=3
[TRACE] 505000 AW at slave s=0 addr=0x00001000 len=3
UVM_INFO ./uvm/axi_slave_agent.sv(47) @ 515000: uvm_test_top.env.slv_ag0 [TRACE] S[0] SLV AW handshake id=47 addr=0x00001000 len=3
[TRACE] 515000 AW at slave s=0 addr=0x00001000 len=3
UVM_INFO ./uvm/axi_slave_agent.sv(47) @ 525000: uvm_test_top.env.slv_ag0 [TRACE] S[0] SLV AW handshake id=47 addr=0x00001000 len=3
[TRACE] 525000 AW at slave s=0 addr=0x00001000 len=3
UVM_INFO ./uvm/axi_slave_agent.sv(47) @ 535000: uvm_test_top.env.slv_ag0 [TRACE] S[0] SLV AW handshake id=47 addr=0x00001000 len=3
[TRACE] 535000 AW at slave s=0 addr=0x00001000 len=3
UVM_INFO ./uvm/axi_slave_agent.sv(47) @ 545000: uvm_test_top.env.slv_ag0 [TRACE] S[0] SLV AW handshake id=47 addr=0x00001000 len=3
[TRACE] 545000 AW at slave s=0 addr=0x00001000 len=3
UVM_INFO ./uvm/axi_slave_agent.sv(47) @ 555000: uvm_test_top.env.slv_ag0 [TRACE] S[0] SLV AW handshake id=47 addr=0x00001000 len=3
[TRACE] 555000 AW at slave s=0 addr=0x00001000 len=3
UVM_INFO ./uvm/axi_slave_agent.sv(47) @ 565000: uvm_test_top.env.slv_ag0 [TRACE] S[0] SLV AW handshake id=47 addr=0x00001000 len=3
[TRACE] 565000 AW at slave s=0 addr=0x00001000 len=3
UVM_INFO ./uvm/axi_slave_agent.sv(47) @ 575000: uvm_test_top.env.slv_ag0 [TRACE] S[0] SLV AW handshake id=47 addr=0x00001000 len=3
[TRACE] 575000 AW at slave s=0 addr=0x00001000 len=3
UVM_INFO ./uvm/axi_slave_agent.sv(47) @ 585000: uvm_test_top.env.slv_ag0 [TRACE] S[0] SLV AW handshake id=47 addr=0x00001000 len=3
[TRACE] 585000 AW at slave s=0 addr=0x00001000 len=3
UVM_INFO ./uvm/axi_slave_agent.sv(47) @ 595000: uvm_test_top.env.slv_ag0 [TRACE] S[0] SLV AW handshake id=47 addr=0x00001000 len=3
[TRACE] 595000 AW at slave s=0 addr=0x00001000 len=3
UVM_INFO ./uvm/axi_slave_agent.sv(47) @ 605000: uvm_test_top.env.slv_ag0 [TRACE] S[0] SLV AW handshake id=47 addr=0x00001000 len=3
[TRACE] 605000 AW at slave s=0 addr=0x00001000 len=3
UVM_INFO ./uvm/axi_slave_agent.sv(47) @ 615000: uvm_test_top.env.slv_ag0 [TRACE] S[0] SLV AW handshake id=47 addr=0x00001000 len=3
[TRACE] 615000 AW at slave s=0 addr=0x00001000 len=3
UVM_INFO ./uvm/axi_slave_agent.sv(47) @ 625000: uvm_test_top.env.slv_ag0 [TRACE] S[0] SLV AW handshake id=47 addr=0x00001000 len=3
[TRACE] 625000 AW at slave s=0 addr=0x00001000 len=3
UVM_INFO ./uvm/axi_slave_agent.sv(47) @ 635000: uvm_test_top.env.slv_ag0 [TRACE] S[0] SLV AW handshake id=47 addr=0x00001000 len=3
[TRACE] 635000 AW at slave s=0 addr=0x00001000 len=3
UVM_INFO ./uvm/axi_slave_agent.sv(47) @ 645000: uvm_test_top.env.slv_ag0 [TRACE] S[0] SLV AW handshake id=47 addr=0x00001000 len=3
[TRACE] 645000 AW at slave s=0 addr=0x00001000 len=3
UVM_INFO ./uvm/axi_slave_agent.sv(47) @ 655000: uvm_test_top.env.slv_ag0 [TRACE] S[0] SLV AW handshake id=47 addr=0x00001000 len=3
[TRACE] 655000 AW at slave s=0 addr=0x00001000 len=3
UVM_INFO ./uvm/axi_slave_agent.sv(47) @ 665000: uvm_test_top.env.slv_ag0 [TRACE] S[0] SLV AW handshake id=47 addr=0x00001000 len=3
[TRACE] 665000 AW at slave s=0 addr=0x00001000 len=3
UVM_INFO ./uvm/axi_slave_agent.sv(47) @ 675000: uvm_test_top.env.slv_ag0 [TRACE] S[0] SLV AW handshake id=47 addr=0x00001000 len=3
[TRACE] 675000 AW at slave s=0 addr=0x00001000 len=3
UVM_INFO ./uvm/axi_slave_agent.sv(47) @ 685000: uvm_test_top.env.slv_ag0 [TRACE] S[0] SLV AW handshake id=47 addr=0x00001000 len=3
[TRACE] 685000 AW at slave s=0 addr=0x00001000 len=3
UVM_INFO ./uvm/axi_slave_agent.sv(47) @ 695000: uvm_test_top.env.slv_ag0 [TRACE] S[0] SLV AW handshake id=47 addr=0x00001000 len=3
[TRACE] 695000 AW at slave s=0 addr=0x00001000 len=3
UVM_INFO ./uvm/axi_slave_agent.sv(47) @ 705000: uvm_test_top.env.slv_ag0 [TRACE] S[0] SLV AW handshake id=47 addr=0x00001000 len=3
[TRACE] 705000 AW at slave s=0 addr=0x00001000 len=3
UVM_INFO ./uvm/axi_slave_agent.sv(47) @ 715000: uvm_test_top.env.slv_ag0 [TRACE] S[0] SLV AW handshake id=47 addr=0x00001000 len=3
[TRACE] 715000 AW at slave s=0 addr=0x00001000 len=3
UVM_INFO ./uvm/axi_slave_agent.sv(47) @ 725000: uvm_test_top.env.slv_ag0 [TRACE] S[0] SLV AW handshake id=47 addr=0x00001000 len=3
[TRACE] 725000 AW at slave s=0 addr=0x00001000 len=3
UVM_INFO ./uvm/axi_slave_agent.sv(47) @ 735000: uvm_test_top.env.slv_ag0 [TRACE] S[0] SLV AW handshake id=47 addr=0x00001000 len=3
[TRACE] 735000 AW at slave s=0 addr=0x00001000 len=3
UVM_INFO ./uvm/axi_slave_agent.sv(47) @ 745000: uvm_test_top.env.slv_ag0 [TRACE] S[0] SLV AW handshake id=47 addr=0x00001000 len=3
[TRACE] 745000 AW at slave s=0 addr=0x00001000 len=3
UVM_INFO ./uvm/axi_slave_agent.sv(47) @ 755000: uvm_test_top.env.slv_ag0 [TRACE] S[0] SLV AW handshake id=47 addr=0x00001000 len=3
[TRACE] 755000 AW at slave s=0 addr=0x00001000 len=3
UVM_INFO ./uvm/axi_slave_agent.sv(47) @ 765000: uvm_test_top.env.slv_ag0 [TRACE] S[0] SLV AW handshake id=47 addr=0x00001000 len=3
[TRACE] 765000 AW at slave s=0 addr=0x00001000 len=3
UVM_INFO ./uvm/axi_slave_agent.sv(47) @ 775000: uvm_test_top.env.slv_ag0 [TRACE] S[0] SLV AW handshake id=47 addr=0x00001000 len=3
[TRACE] 775000 AW at slave s=0 addr=0x00001000 len=3
UVM_INFO ./uvm/axi_slave_agent.sv(47) @ 785000: uvm_test_top.env.slv_ag0 [TRACE] S[0] SLV AW handshake id=47 addr=0x00001000 len=3
[TRACE] 785000 AW at slave s=0 addr=0x00001000 len=3
UVM_INFO ./uvm/axi_slave_agent.sv(47) @ 795000: uvm_test_top.env.slv_ag0 [TRACE] S[0] SLV AW handshake id=47 addr=0x00001000 len=3
[TRACE] 795000 AW at slave s=0 addr=0x00001000 len=3
UVM_INFO ./uvm/axi_slave_agent.sv(47) @ 805000: uvm_test_top.env.slv_ag0 [TRACE] S[0] SLV AW handshake id=47 addr=0x00001000 len=3
[TRACE] 805000 AW at slave s=0 addr=0x00001000 len=3
UVM_INFO ./uvm/axi_slave_agent.sv(47) @ 815000: uvm_test_top.env.slv_ag0 [TRACE] S[0] SLV AW handshake id=47 addr=0x00001000 len=3
[TRACE] 815000 AW at slave s=0 addr=0x00001000 len=3
UVM_INFO ./uvm/axi_slave_agent.sv(47) @ 825000: uvm_test_top.env.slv_ag0 [TRACE] S[0] SLV AW handshake id=47 addr=0x00001000 len=3
[TRACE] 825000 AW at slave s=0 addr=0x00001000 len=3
UVM_INFO ./uvm/axi_slave_agent.sv(47) @ 835000: uvm_test_top.env.slv_ag0 [TRACE] S[0] SLV AW handshake id=47 addr=0x00001000 len=3
[TRACE] 835000 AW at slave s=0 addr=0x00001000 len=3
UVM_INFO ./uvm/axi_slave_agent.sv(47) @ 845000: uvm_test_top.env.slv_ag0 [TRACE] S[0] SLV AW handshake id=47 addr=0x00001000 len=3
[TRACE] 845000 AW at slave s=0 addr=0x00001000 len=3
UVM_INFO ./uvm/axi_slave_agent.sv(47) @ 855000: uvm_test_top.env.slv_ag0 [TRACE] S[0] SLV AW handshake id=47 addr=0x00001000 len=3
[TRACE] 855000 AW at slave s=0 addr=0x00001000 len=3
UVM_INFO ./uvm/axi_slave_agent.sv(47) @ 865000: uvm_test_top.env.slv_ag0 [TRACE] S[0] SLV AW handshake id=47 addr=0x00001000 len=3
[TRACE] 865000 AW at slave s=0 addr=0x00001000 len=3
UVM_INFO ./uvm/axi_slave_agent.sv(47) @ 875000: uvm_test_top.env.slv_ag0 [TRACE] S[0] SLV AW handshake id=47 addr=0x00001000 len=3
[TRACE] 875000 AW at slave s=0 addr=0x00001000 len=3
UVM_INFO ./uvm/axi_slave_agent.sv(47) @ 885000: uvm_test_top.env.slv_ag0 [TRACE] S[0] SLV AW handshake id=47 addr=0x00001000 len=3
[TRACE] 885000 AW at slave s=0 addr=0x00001000 len=3
UVM_INFO ./uvm/axi_slave_agent.sv(47) @ 895000: uvm_test_top.env.slv_ag0 [TRACE] S[0] SLV AW handshake id=47 addr=0x00001000 len=3
[TRACE] 895000 AW at slave s=0 addr=0x00001000 len=3
UVM_INFO ./uvm/axi_slave_agent.sv(47) @ 905000: uvm_test_top.env.slv_ag0 [TRACE] S[0] SLV AW handshake id=47 addr=0x00001000 len=3
[TRACE] 905000 AW at slave s=0 addr=0x00001000 len=3
UVM_INFO ./uvm/axi_slave_agent.sv(47) @ 915000: uvm_test_top.env.slv_ag0 [TRACE] S[0] SLV AW handshake id=47 addr=0x00001000 len=3
[TRACE] 915000 AW at slave s=0 addr=0x00001000 len=3
UVM_INFO ./uvm/axi_slave_agent.sv(47) @ 925000: uvm_test_top.env.slv_ag0 [TRACE] S[0] SLV AW handshake id=47 addr=0x00001000 len=3
[TRACE] 925000 AW at slave s=0 addr=0x00001000 len=3
UVM_INFO ./uvm/axi_slave_agent.sv(47) @ 935000: uvm_test_top.env.slv_ag0 [TRACE] S[0] SLV AW handshake id=47 addr=0x00001000 len=3
[TRACE] 935000 AW at slave s=0 addr=0x00001000 len=3
UVM_INFO ./uvm/axi_slave_agent.sv(47) @ 945000: uvm_test_top.env.slv_ag0 [TRACE] S[0] SLV AW handshake id=47 addr=0x00001000 len=3
[TRACE] 945000 AW at slave s=0 addr=0x00001000 len=3
UVM_INFO ./uvm/axi_slave_agent.sv(47) @ 955000: uvm_test_top.env.slv_ag0 [TRACE] S[0] SLV AW handshake id=47 addr=0x00001000 len=3
[TRACE] 955000 AW at slave s=0 addr=0x00001000 len=3
UVM_INFO ./uvm/axi_slave_agent.sv(47) @ 965000: uvm_test_top.env.slv_ag0 [TRACE] S[0] SLV AW handshake id=47 addr=0x00001000 len=3
[TRACE] 965000 AW at slave s=0 addr=0x00001000 len=3
UVM_INFO ./uvm/axi_slave_agent.sv(47) @ 975000: uvm_test_top.env.slv_ag0 [TRACE] S[0] SLV AW handshake id=47 addr=0x00001000 len=3
[TRACE] 975000 AW at slave s=0 addr=0x00001000 len=3
UVM_INFO ./uvm/axi_slave_agent.sv(47) @ 985000: uvm_test_top.env.slv_ag0 [TRACE] S[0] SLV AW handshake id=47 addr=0x00001000 len=3
[TRACE] 985000 AW at slave s=0 addr=0x00001000 len=3
UVM_INFO ./uvm/axi_slave_agent.sv(47) @ 995000: uvm_test_top.env.slv_ag0 [TRACE] S[0] SLV AW handshake id=47 addr=0x00001000 len=3
[TRACE] 995000 AW at slave s=0 addr=0x00001000 len=3
UVM_INFO ./uvm/axi_slave_agent.sv(47) @ 1005000: uvm_test_top.env.slv_ag0 [TRACE] S[0] SLV AW handshake id=47 addr=0x00001000 len=3
[TRACE] 1005000 AW at slave s=0 addr=0x00001000 len=3
UVM_INFO ./uvm/axi_slave_agent.sv(47) @ 1015000: uvm_test_top.env.slv_ag0 [TRACE] S[0] SLV AW handshake id=47 addr=0x00001000 len=3
[TRACE] 1015000 AW at slave s=0 addr=0x00001000 len=3
UVM_INFO ./uvm/axi_slave_agent.sv(47) @ 1025000: uvm_test_top.env.slv_ag0 [TRACE] S[0] SLV AW handshake id=47 addr=0x00001000 len=3
[TRACE] 1025000 AW at slave s=0 addr=0x00001000 len=3
UVM_INFO ./uvm/axi_slave_agent.sv(47) @ 1035000: uvm_test_top.env.slv_ag0 [TRACE] S[0] SLV AW handshake id=47 addr=0x00001000 len=3
[TRACE] 1035000 AW at slave s=0 addr=0x00001000 len=3
UVM_INFO ./uvm/axi_slave_agent.sv(47) @ 1045000: uvm_test_top.env.slv_ag0 [TRACE] S[0] SLV AW handshake id=47 addr=0x00001000 len=3
[TRACE] 1045000 AW at slave s=0 addr=0x00001000 len=3
UVM_INFO ./uvm/axi_slave_agent.sv(47) @ 1055000: uvm_test_top.env.slv_ag0 [TRACE] S[0] SLV AW handshake id=47 addr=0x00001000 len=3
[TRACE] 1055000 AW at slave s=0 addr=0x00001000 len=3
UVM_INFO ./uvm/axi_slave_agent.sv(47) @ 1065000: uvm_test_top.env.slv_ag0 [TRACE] S[0] SLV AW handshake id=47 addr=0x00001000 len=3
[TRACE] 1065000 AW at slave s=0 addr=0x00001000 len=3
UVM_INFO ./uvm/axi_slave_agent.sv(47) @ 1075000: uvm_test_top.env.slv_ag0 [TRACE] S[0] SLV AW handshake id=47 addr=0x00001000 len=3
[TRACE] 1075000 AW at slave s=0 addr=0x00001000 len=3
UVM_INFO ./uvm/axi_slave_agent.sv(47) @ 1085000: uvm_test_top.env.slv_ag0 [TRACE] S[0] SLV AW handshake id=47 addr=0x00001000 len=3
[TRACE] 1085000 AW at slave s=0 addr=0x00001000 len=3
UVM_INFO ./uvm/axi_slave_agent.sv(47) @ 1095000: uvm_test_top.env.slv_ag0 [TRACE] S[0] SLV AW handshake id=47 addr=0x00001000 len=3
[TRACE] 1095000 AW at slave s=0 addr=0x00001000 len=3
UVM_INFO ./uvm/axi_slave_agent.sv(47) @ 1105000: uvm_test_top.env.slv_ag0 [TRACE] S[0] SLV AW handshake id=47 addr=0x00001000 len=3
[TRACE] 1105000 AW at slave s=0 addr=0x00001000 len=3
UVM_INFO ./uvm/axi_slave_agent.sv(47) @ 1115000: uvm_test_top.env.slv_ag0 [TRACE] S[0] SLV AW handshake id=47 addr=0x00001000 len=3
[TRACE] 1115000 AW at slave s=0 addr=0x00001000 len=3
UVM_INFO ./uvm/axi_slave_agent.sv(47) @ 1125000: uvm_test_top.env.slv_ag0 [TRACE] S[0] SLV AW handshake id=47 addr=0x00001000 len=3
[TRACE] 1125000 AW at slave s=0 addr=0x00001000 len=3
UVM_INFO ./uvm/axi_slave_agent.sv(47) @ 1135000: uvm_test_top.env.slv_ag0 [TRACE] S[0] SLV AW handshake id=47 addr=0x00001000 len=3
[TRACE] 1135000 AW at slave s=0 addr=0x00001000 len=3
UVM_INFO ./uvm/axi_slave_agent.sv(47) @ 1145000: uvm_test_top.env.slv_ag0 [TRACE] S[0] SLV AW handshake id=47 addr=0x00001000 len=3
[TRACE] 1145000 AW at slave s=0 addr=0x00001000 len=3
UVM_INFO ./uvm/axi_slave_agent.sv(47) @ 1155000: uvm_test_top.env.slv_ag0 [TRACE] S[0] SLV AW handshake id=47 addr=0x00001000 len=3
[TRACE] 1155000 AW at slave s=0 addr=0x00001000 len=3
UVM_INFO ./uvm/axi_slave_agent.sv(47) @ 1165000: uvm_test_top.env.slv_ag0 [TRACE] S[0] SLV AW handshake id=47 addr=0x00001000 len=3
[TRACE] 1165000 AW at slave s=0 addr=0x00001000 len=3
UVM_INFO ./uvm/axi_slave_agent.sv(47) @ 1175000: uvm_test_top.env.slv_ag0 [TRACE] S[0] SLV AW handshake id=47 addr=0x00001000 len=3
[TRACE] 1175000 AW at slave s=0 addr=0x00001000 len=3
UVM_INFO ./uvm/axi_slave_agent.sv(47) @ 1185000: uvm_test_top.env.slv_ag0 [TRACE] S[0] SLV AW handshake id=47 addr=0x00001000 len=3
[TRACE] 1185000 AW at slave s=0 addr=0x00001000 len=3
UVM_INFO ./uvm/axi_slave_agent.sv(47) @ 1195000: uvm_test_top.env.slv_ag0 [TRACE] S[0] SLV AW handshake id=47 addr=0x00001000 len=3
[TRACE] 1195000 AW at slave s=0 addr=0x00001000 len=3
UVM_INFO ./uvm/axi_slave_agent.sv(47) @ 1205000: uvm_test_top.env.slv_ag0 [TRACE] S[0] SLV AW handshake id=47 addr=0x00001000 len=3
[TRACE] 1205000 AW at slave s=0 addr=0x00001000 len=3
UVM_INFO ./uvm/axi_slave_agent.sv(47) @ 1215000: uvm_test_top.env.slv_ag0 [TRACE] S[0] SLV AW handshake id=47 addr=0x00001000 len=3
[TRACE] 1215000 AW at slave s=0 addr=0x00001000 len=3
UVM_INFO ./uvm/axi_slave_agent.sv(47) @ 1225000: uvm_test_top.env.slv_ag0 [TRACE] S[0] SLV AW handshake id=47 addr=0x00001000 len=3
[TRACE] 1225000 AW at slave s=0 addr=0x00001000 len=3
UVM_INFO ./uvm/axi_slave_agent.sv(47) @ 1235000: uvm_test_top.env.slv_ag0 [TRACE] S[0] SLV AW handshake id=47 addr=0x00001000 len=3
[TRACE] 1235000 AW at slave s=0 addr=0x00001000 len=3
UVM_INFO ./uvm/axi_slave_agent.sv(47) @ 1245000: uvm_test_top.env.slv_ag0 [TRACE] S[0] SLV AW handshake id=47 addr=0x00001000 len=3
[TRACE] 1245000 AW at slave s=0 addr=0x00001000 len=3
UVM_INFO ./uvm/axi_slave_agent.sv(47) @ 1255000: uvm_test_top.env.slv_ag0 [TRACE] S[0] SLV AW handshake id=47 addr=0x00001000 len=3
[TRACE] 1255000 AW at slave s=0 addr=0x00001000 len=3
UVM_INFO ./uvm/axi_slave_agent.sv(47) @ 1265000: uvm_test_top.env.slv_ag0 [TRACE] S[0] SLV AW handshake id=47 addr=0x00001000 len=3
[TRACE] 1265000 AW at slave s=0 addr=0x00001000 len=3
UVM_INFO ./uvm/axi_slave_agent.sv(47) @ 1275000: uvm_test_top.env.slv_ag0 [TRACE] S[0] SLV AW handshake id=47 addr=0x00001000 len=3
[TRACE] 1275000 AW at slave s=0 addr=0x00001000 len=3
UVM_INFO ./uvm/axi_slave_agent.sv(47) @ 1285000: uvm_test_top.env.slv_ag0 [TRACE] S[0] SLV AW handshake id=47 addr=0x00001000 len=3
[TRACE] 1285000 AW at slave s=0 addr=0x00001000 len=3
UVM_INFO ./uvm/axi_slave_agent.sv(47) @ 1295000: uvm_test_top.env.slv_ag0 [TRACE] S[0] SLV AW handshake id=47 addr=0x00001000 len=3
[TRACE] 1295000 AW at slave s=0 addr=0x00001000 len=3
UVM_INFO ./uvm/axi_slave_agent.sv(47) @ 1305000: uvm_test_top.env.slv_ag0 [TRACE] S[0] SLV AW handshake id=47 addr=0x00001000 len=3
[TRACE] 1305000 AW at slave s=0 addr=0x00001000 len=3
UVM_INFO ./uvm/axi_slave_agent.sv(47) @ 1315000: uvm_test_top.env.slv_ag0 [TRACE] S[0] SLV AW handshake id=47 addr=0x00001000 len=3
[TRACE] 1315000 AW at slave s=0 addr=0x00001000 len=3
UVM_INFO ./uvm/axi_slave_agent.sv(47) @ 1325000: uvm_test_top.env.slv_ag0 [TRACE] S[0] SLV AW handshake id=47 addr=0x00001000 len=3
[TRACE] 1325000 AW at slave s=0 addr=0x00001000 len=3
UVM_INFO ./uvm/axi_slave_agent.sv(47) @ 1335000: uvm_test_top.env.slv_ag0 [TRACE] S[0] SLV AW handshake id=47 addr=0x00001000 len=3
[TRACE] 1335000 AW at slave s=0 addr=0x00001000 len=3
UVM_INFO ./uvm/axi_slave_agent.sv(47) @ 1345000: uvm_test_top.env.slv_ag0 [TRACE] S[0] SLV AW handshake id=47 addr=0x00001000 len=3
[TRACE] 1345000 AW at slave s=0 addr=0x00001000 len=3
UVM_INFO ./uvm/axi_slave_agent.sv(47) @ 1355000: uvm_test_top.env.slv_ag0 [TRACE] S[0] SLV AW handshake id=47 addr=0x00001000 len=3
[TRACE] 1355000 AW at slave s=0 addr=0x00001000 len=3
UVM_INFO ./uvm/axi_slave_agent.sv(47) @ 1365000: uvm_test_top.env.slv_ag0 [TRACE] S[0] SLV AW handshake id=47 addr=0x00001000 len=3
[TRACE] 1365000 AW at slave s=0 addr=0x00001000 len=3
UVM_INFO ./uvm/axi_slave_agent.sv(47) @ 1375000: uvm_test_top.env.slv_ag0 [TRACE] S[0] SLV AW handshake id=47 addr=0x00001000 len=3
[TRACE] 1375000 AW at slave s=0 addr=0x00001000 len=3
UVM_INFO ./uvm/axi_slave_agent.sv(47) @ 1385000: uvm_test_top.env.slv_ag0 [TRACE] S[0] SLV AW handshake id=47 addr=0x00001000 len=3
[TRACE] 1385000 AW at slave s=0 addr=0x00001000 len=3
UVM_INFO ./uvm/axi_slave_agent.sv(47) @ 1395000: uvm_test_top.env.slv_ag0 [TRACE] S[0] SLV AW handshake id=47 addr=0x00001000 len=3
[TRACE] 1395000 AW at slave s=0 addr=0x00001000 len=3
UVM_INFO ./uvm/axi_slave_agent.sv(47) @ 1405000: uvm_test_top.env.slv_ag0 [TRACE] S[0] SLV AW handshake id=47 addr=0x00001000 len=3
[TRACE] 1405000 AW at slave s=0 addr=0x00001000 len=3
UVM_INFO ./uvm/axi_slave_agent.sv(47) @ 1415000: uvm_test_top.env.slv_ag0 [TRACE] S[0] SLV AW handshake id=47 addr=0x00001000 len=3
[TRACE] 1415000 AW at slave s=0 addr=0x00001000 len=3
UVM_INFO ./uvm/axi_slave_agent.sv(47) @ 1425000: uvm_test_top.env.slv_ag0 [TRACE] S[0] SLV AW handshake id=47 addr=0x00001000 len=3
[TRACE] 1425000 AW at slave s=0 addr=0x00001000 len=3
UVM_INFO ./uvm/axi_slave_agent.sv(47) @ 1435000: uvm_test_top.env.slv_ag0 [TRACE] S[0] SLV AW handshake id=47 addr=0x00001000 len=3
[TRACE] 1435000 AW at slave s=0 addr=0x00001000 len=3
UVM_INFO ./uvm/axi_slave_agent.sv(47) @ 1445000: uvm_test_top.env.slv_ag0 [TRACE] S[0] SLV AW handshake id=47 addr=0x00001000 len=3
[TRACE] 1445000 AW at slave s=0 addr=0x00001000 len=3
UVM_INFO ./uvm/axi_slave_agent.sv(47) @ 1455000: uvm_test_top.env.slv_ag0 [TRACE] S[0] SLV AW handshake id=47 addr=0x00001000 len=3
[TRACE] 1455000 AW at slave s=0 addr=0x00001000 len=3
UVM_INFO ./uvm/axi_slave_agent.sv(47) @ 1465000: uvm_test_top.env.slv_ag0 [TRACE] S[0] SLV AW handshake id=47 addr=0x00001000 len=3
[TRACE] 1465000 AW at slave s=0 addr=0x00001000 len=3
UVM_INFO ./uvm/axi_slave_agent.sv(47) @ 1475000: uvm_test_top.env.slv_ag0 [TRACE] S[0] SLV AW handshake id=47 addr=0x00001000 len=3
[TRACE] 1475000 AW at slave s=0 addr=0x00001000 len=3
UVM_INFO ./uvm/axi_slave_agent.sv(47) @ 1485000: uvm_test_top.env.slv_ag0 [TRACE] S[0] SLV AW handshake id=47 addr=0x00001000 len=3
[TRACE] 1485000 AW at slave s=0 addr=0x00001000 len=3
UVM_INFO ./uvm/axi_slave_agent.sv(47) @ 1495000: uvm_test_top.env.slv_ag0 [TRACE] S[0] SLV AW handshake id=47 addr=0x00001000 len=3
[TRACE] 1495000 AW at slave s=0 addr=0x00001000 len=3
UVM_INFO ./uvm/axi_slave_agent.sv(47) @ 1505000: uvm_test_top.env.slv_ag0 [TRACE] S[0] SLV AW handshake id=47 addr=0x00001000 len=3
[TRACE] 1505000 AW at slave s=0 addr=0x00001000 len=3
UVM_INFO ./uvm/axi_slave_agent.sv(47) @ 1515000: uvm_test_top.env.slv_ag0 [TRACE] S[0] SLV AW handshake id=47 addr=0x00001000 len=3
[TRACE] 1515000 AW at slave s=0 addr=0x00001000 len=3
UVM_INFO ./uvm/axi_slave_agent.sv(47) @ 1525000: uvm_test_top.env.slv_ag0 [TRACE] S[0] SLV AW handshake id=47 addr=0x00001000 len=3
[TRACE] 1525000 AW at slave s=0 addr=0x00001000 len=3
UVM_INFO ./uvm/axi_slave_agent.sv(47) @ 1535000: uvm_test_top.env.slv_ag0 [TRACE] S[0] SLV AW handshake id=47 addr=0x00001000 len=3
[TRACE] 1535000 AW at slave s=0 addr=0x00001000 len=3
UVM_INFO ./uvm/axi_slave_agent.sv(47) @ 1545000: uvm_test_top.env.slv_ag0 [TRACE] S[0] SLV AW handshake id=47 addr=0x00001000 len=3
[TRACE] 1545000 AW at slave s=0 addr=0x00001000 len=3
UVM_INFO ./uvm/axi_slave_agent.sv(47) @ 1555000: uvm_test_top.env.slv_ag0 [TRACE] S[0] SLV AW handshake id=47 addr=0x00001000 len=3
[TRACE] 1555000 AW at slave s=0 addr=0x00001000 len=3
UVM_INFO ./uvm/axi_slave_agent.sv(47) @ 1565000: uvm_test_top.env.slv_ag0 [TRACE] S[0] SLV AW handshake id=47 addr=0x00001000 len=3
[TRACE] 1565000 AW at slave s=0 addr=0x00001000 len=3
UVM_INFO ./uvm/axi_slave_agent.sv(47) @ 1575000: uvm_test_top.env.slv_ag0 [TRACE] S[0] SLV AW handshake id=47 addr=0x00001000 len=3
[TRACE] 1575000 AW at slave s=0 addr=0x00001000 len=3
UVM_INFO ./uvm/axi_slave_agent.sv(47) @ 1585000: uvm_test_top.env.slv_ag0 [TRACE] S[0] SLV AW handshake id=47 addr=0x00001000 len=3
[TRACE] 1585000 AW at slave s=0 addr=0x00001000 len=3
UVM_INFO ./uvm/axi_slave_agent.sv(47) @ 1595000: uvm_test_top.env.slv_ag0 [TRACE] S[0] SLV AW handshake id=47 addr=0x00001000 len=3
[TRACE] 1595000 AW at slave s=0 addr=0x00001000 len=3
UVM_INFO ./uvm/axi_slave_agent.sv(47) @ 1605000: uvm_test_top.env.slv_ag0 [TRACE] S[0] SLV AW handshake id=47 addr=0x00001000 len=3
[TRACE] 1605000 AW at slave s=0 addr=0x00001000 len=3
UVM_INFO ./uvm/axi_slave_agent.sv(47) @ 1615000: uvm_test_top.env.slv_ag0 [TRACE] S[0] SLV AW handshake id=47 addr=0x00001000 len=3
[TRACE] 1615000 AW at slave s=0 addr=0x00001000 len=3
UVM_INFO ./uvm/axi_slave_agent.sv(47) @ 1625000: uvm_test_top.env.slv_ag0 [TRACE] S[0] SLV AW handshake id=47 addr=0x00001000 len=3
[TRACE] 1625000 AW at slave s=0 addr=0x00001000 len=3
UVM_INFO ./uvm/axi_slave_agent.sv(47) @ 1635000: uvm_test_top.env.slv_ag0 [TRACE] S[0] SLV AW handshake id=47 addr=0x00001000 len=3
[TRACE] 1635000 AW at slave s=0 addr=0x00001000 len=3
UVM_INFO ./uvm/axi_slave_agent.sv(47) @ 1645000: uvm_test_top.env.slv_ag0 [TRACE] S[0] SLV AW handshake id=47 addr=0x00001000 len=3
[TRACE] 1645000 AW at slave s=0 addr=0x00001000 len=3
UVM_INFO ./uvm/axi_slave_agent.sv(47) @ 1655000: uvm_test_top.env.slv_ag0 [TRACE] S[0] SLV AW handshake id=47 addr=0x00001000 len=3
[TRACE] 1655000 AW at slave s=0 addr=0x00001000 len=3
UVM_INFO ./uvm/axi_slave_agent.sv(47) @ 1665000: uvm_test_top.env.slv_ag0 [TRACE] S[0] SLV AW handshake id=47 addr=0x00001000 len=3
[TRACE] 1665000 AW at slave s=0 addr=0x00001000 len=3
UVM_INFO ./uvm/axi_slave_agent.sv(47) @ 1675000: uvm_test_top.env.slv_ag0 [TRACE] S[0] SLV AW handshake id=47 addr=0x00001000 len=3
[TRACE] 1675000 AW at slave s=0 addr=0x00001000 len=3
UVM_INFO ./uvm/axi_slave_agent.sv(47) @ 1685000: uvm_test_top.env.slv_ag0 [TRACE] S[0] SLV AW handshake id=47 addr=0x00001000 len=3
[TRACE] 1685000 AW at slave s=0 addr=0x00001000 len=3
UVM_INFO ./uvm/axi_slave_agent.sv(47) @ 1695000: uvm_test_top.env.slv_ag0 [TRACE] S[0] SLV AW handshake id=47 addr=0x00001000 len=3
[TRACE] 1695000 AW at slave s=0 addr=0x00001000 len=3
UVM_INFO ./uvm/axi_slave_agent.sv(47) @ 1705000: uvm_test_top.env.slv_ag0 [TRACE] S[0] SLV AW handshake id=47 addr=0x00001000 len=3
[TRACE] 1705000 AW at slave s=0 addr=0x00001000 len=3
UVM_INFO ./uvm/axi_slave_agent.sv(47) @ 1715000: uvm_test_top.env.slv_ag0 [TRACE] S[0] SLV AW handshake id=47 addr=0x00001000 len=3
[TRACE] 1715000 AW at slave s=0 addr=0x00001000 len=3
UVM_INFO ./uvm/axi_slave_agent.sv(47) @ 1725000: uvm_test_top.env.slv_ag0 [TRACE] S[0] SLV AW handshake id=47 addr=0x00001000 len=3
[TRACE] 1725000 AW at slave s=0 addr=0x00001000 len=3
UVM_INFO ./uvm/axi_slave_agent.sv(47) @ 1735000: uvm_test_top.env.slv_ag0 [TRACE] S[0] SLV AW handshake id=47 addr=0x00001000 len=3
[TRACE] 1735000 AW at slave s=0 addr=0x00001000 len=3
UVM_INFO ./uvm/axi_slave_agent.sv(47) @ 1745000: uvm_test_top.env.slv_ag0 [TRACE] S[0] SLV AW handshake id=47 addr=0x00001000 len=3
[TRACE] 1745000 AW at slave s=0 addr=0x00001000 len=3
UVM_INFO ./uvm/axi_slave_agent.sv(47) @ 1755000: uvm_test_top.env.slv_ag0 [TRACE] S[0] SLV AW handshake id=47 addr=0x00001000 len=3
[TRACE] 1755000 AW at slave s=0 addr=0x00001000 len=3
UVM_INFO ./uvm/axi_slave_agent.sv(47) @ 1765000: uvm_test_top.env.slv_ag0 [TRACE] S[0] SLV AW handshake id=47 addr=0x00001000 len=3
[TRACE] 1765000 AW at slave s=0 addr=0x00001000 len=3
UVM_INFO ./uvm/axi_slave_agent.sv(47) @ 1775000: uvm_test_top.env.slv_ag0 [TRACE] S[0] SLV AW handshake id=47 addr=0x00001000 len=3
[TRACE] 1775000 AW at slave s=0 addr=0x00001000 len=3
UVM_INFO ./uvm/axi_slave_agent.sv(47) @ 1785000: uvm_test_top.env.slv_ag0 [TRACE] S[0] SLV AW handshake id=47 addr=0x00001000 len=3
[TRACE] 1785000 AW at slave s=0 addr=0x00001000 len=3
UVM_INFO ./uvm/axi_slave_agent.sv(47) @ 1795000: uvm_test_top.env.slv_ag0 [TRACE] S[0] SLV AW handshake id=47 addr=0x00001000 len=3
[TRACE] 1795000 AW at slave s=0 addr=0x00001000 len=3
UVM_INFO ./uvm/axi_slave_agent.sv(47) @ 1805000: uvm_test_top.env.slv_ag0 [TRACE] S[0] SLV AW handshake id=47 addr=0x00001000 len=3
[TRACE] 1805000 AW at slave s=0 addr=0x00001000 len=3
UVM_INFO ./uvm/axi_slave_agent.sv(47) @ 1815000: uvm_test_top.env.slv_ag0 [TRACE] S[0] SLV AW handshake id=47 addr=0x00001000 len=3
[TRACE] 1815000 AW at slave s=0 addr=0x00001000 len=3
UVM_INFO ./uvm/axi_slave_agent.sv(47) @ 1825000: uvm_test_top.env.slv_ag0 [TRACE] S[0] SLV AW handshake id=47 addr=0x00001000 len=3
[TRACE] 1825000 AW at slave s=0 addr=0x00001000 len=3
UVM_INFO ./uvm/axi_slave_agent.sv(47) @ 1835000: uvm_test_top.env.slv_ag0 [TRACE] S[0] SLV AW handshake id=47 addr=0x00001000 len=3
[TRACE] 1835000 AW at slave s=0 addr=0x00001000 len=3
UVM_INFO ./uvm/axi_slave_agent.sv(47) @ 1845000: uvm_test_top.env.slv_ag0 [TRACE] S[0] SLV AW handshake id=47 addr=0x00001000 len=3
[TRACE] 1845000 AW at slave s=0 addr=0x00001000 len=3
UVM_INFO ./uvm/axi_slave_agent.sv(47) @ 1855000: uvm_test_top.env.slv_ag0 [TRACE] S[0] SLV AW handshake id=47 addr=0x00001000 len=3
[TRACE] 1855000 AW at slave s=0 addr=0x00001000 len=3
UVM_INFO ./uvm/axi_slave_agent.sv(47) @ 1865000: uvm_test_top.env.slv_ag0 [TRACE] S[0] SLV AW handshake id=47 addr=0x00001000 len=3
[TRACE] 1865000 AW at slave s=0 addr=0x00001000 len=3
UVM_INFO ./uvm/axi_slave_agent.sv(47) @ 1875000: uvm_test_top.env.slv_ag0 [TRACE] S[0] SLV AW handshake id=47 addr=0x00001000 len=3
[TRACE] 1875000 AW at slave s=0 addr=0x00001000 len=3
UVM_INFO ./uvm/axi_slave_agent.sv(47) @ 1885000: uvm_test_top.env.slv_ag0 [TRACE] S[0] SLV AW handshake id=47 addr=0x00001000 len=3
[TRACE] 1885000 AW at slave s=0 addr=0x00001000 len=3
UVM_INFO ./uvm/axi_slave_agent.sv(47) @ 1895000: uvm_test_top.env.slv_ag0 [TRACE] S[0] SLV AW handshake id=47 addr=0x00001000 len=3
[TRACE] 1895000 AW at slave s=0 addr=0x00001000 len=3
UVM_INFO ./uvm/axi_slave_agent.sv(47) @ 1905000: uvm_test_top.env.slv_ag0 [TRACE] S[0] SLV AW handshake id=47 addr=0x00001000 len=3
[TRACE] 1905000 AW at slave s=0 addr=0x00001000 len=3
UVM_INFO ./uvm/axi_slave_agent.sv(47) @ 1915000: uvm_test_top.env.slv_ag0 [TRACE] S[0] SLV AW handshake id=47 addr=0x00001000 len=3
[TRACE] 1915000 AW at slave s=0 addr=0x00001000 len=3
UVM_INFO ./uvm/axi_slave_agent.sv(47) @ 1925000: uvm_test_top.env.slv_ag0 [TRACE] S[0] SLV AW handshake id=47 addr=0x00001000 len=3
[TRACE] 1925000 AW at slave s=0 addr=0x00001000 len=3
UVM_INFO ./uvm/axi_slave_agent.sv(47) @ 1935000: uvm_test_top.env.slv_ag0 [TRACE] S[0] SLV AW handshake id=47 addr=0x00001000 len=3
[TRACE] 1935000 AW at slave s=0 addr=0x00001000 len=3
UVM_INFO ./uvm/axi_slave_agent.sv(47) @ 1945000: uvm_test_top.env.slv_ag0 [TRACE] S[0] SLV AW handshake id=47 addr=0x00001000 len=3
[TRACE] 1945000 AW at slave s=0 addr=0x00001000 len=3
UVM_INFO ./uvm/axi_slave_agent.sv(47) @ 1955000: uvm_test_top.env.slv_ag0 [TRACE] S[0] SLV AW handshake id=47 addr=0x00001000 len=3
[TRACE] 1955000 AW at slave s=0 addr=0x00001000 len=3
UVM_INFO ./uvm/axi_slave_agent.sv(47) @ 1965000: uvm_test_top.env.slv_ag0 [TRACE] S[0] SLV AW handshake id=47 addr=0x00001000 len=3
[TRACE] 1965000 AW at slave s=0 addr=0x00001000 len=3
UVM_INFO ./uvm/axi_slave_agent.sv(47) @ 1975000: uvm_test_top.env.slv_ag0 [TRACE] S[0] SLV AW handshake id=47 addr=0x00001000 len=3
[TRACE] 1975000 AW at slave s=0 addr=0x00001000 len=3
UVM_INFO ./uvm/axi_slave_agent.sv(47) @ 1985000: uvm_test_top.env.slv_ag0 [TRACE] S[0] SLV AW handshake id=47 addr=0x00001000 len=3
[TRACE] 1985000 AW at slave s=0 addr=0x00001000 len=3
UVM_INFO ./uvm/axi_slave_agent.sv(47) @ 1995000: uvm_test_top.env.slv_ag0 [TRACE] S[0] SLV AW handshake id=47 addr=0x00001000 len=3
[TRACE] 1995000 AW at slave s=0 addr=0x00001000 len=3
UVM_INFO ./uvm/axi_slave_agent.sv(47) @ 2005000: uvm_test_top.env.slv_ag0 [TRACE] S[0] SLV AW handshake id=47 addr=0x00001000 len=3
[TRACE] 2005000 AW at slave s=0 addr=0x00001000 len=3
UVM_INFO ./uvm/axi_slave_agent.sv(47) @ 2015000: uvm_test_top.env.slv_ag0 [TRACE] S[0] SLV AW handshake id=47 addr=0x00001000 len=3
[TRACE] 2015000 AW at slave s=0 addr=0x00001000 len=3
UVM_INFO ./uvm/axi_slave_agent.sv(47) @ 2025000: uvm_test_top.env.slv_ag0 [TRACE] S[0] SLV AW handshake id=47 addr=0x00001000 len=3
[TRACE] 2025000 AW at slave s=0 addr=0x00001000 len=3
UVM_INFO ./uvm/axi_slave_agent.sv(47) @ 2035000: uvm_test_top.env.slv_ag0 [TRACE] S[0] SLV AW handshake id=47 addr=0x00001000 len=3
[TRACE] 2035000 AW at slave s=0 addr=0x00001000 len=3
UVM_INFO ./uvm/axi_slave_agent.sv(47) @ 2045000: uvm_test_top.env.slv_ag0 [TRACE] S[0] SLV AW handshake id=47 addr=0x00001000 len=3
[TRACE] 2045000 AW at slave s=0 addr=0x00001000 len=3
UVM_INFO ./uvm/axi_slave_agent.sv(47) @ 2055000: uvm_test_top.env.slv_ag0 [TRACE] S[0] SLV AW handshake id=47 addr=0x00001000 len=3
[TRACE] 2055000 AW at slave s=0 addr=0x00001000 len=3
UVM_INFO ./uvm/axi_slave_agent.sv(47) @ 2065000: uvm_test_top.env.slv_ag0 [TRACE] S[0] SLV AW handshake id=47 addr=0x00001000 len=3
[TRACE] 2065000 AW at slave s=0 addr=0x00001000 len=3
UVM_INFO ./uvm/axi_slave_agent.sv(47) @ 2075000: uvm_test_top.env.slv_ag0 [TRACE] S[0] SLV AW handshake id=47 addr=0x00001000 len=3
[TRACE] 2075000 AW at slave s=0 addr=0x00001000 len=3
UVM_INFO ./uvm/axi_slave_agent.sv(47) @ 2085000: uvm_test_top.env.slv_ag0 [TRACE] S[0] SLV AW handshake id=47 addr=0x00001000 len=3
[TRACE] 2085000 AW at slave s=0 addr=0x00001000 len=3
UVM_INFO ./uvm/axi_slave_agent.sv(47) @ 2095000: uvm_test_top.env.slv_ag0 [TRACE] S[0] SLV AW handshake id=47 addr=0x00001000 len=3
[TRACE] 2095000 AW at slave s=0 addr=0x00001000 len=3
UVM_INFO ./uvm/axi_slave_agent.sv(47) @ 2105000: uvm_test_top.env.slv_ag0 [TRACE] S[0] SLV AW handshake id=47 addr=0x00001000 len=3
[TRACE] 2105000 AW at slave s=0 addr=0x00001000 len=3
UVM_INFO ./uvm/axi_slave_agent.sv(47) @ 2115000: uvm_test_top.env.slv_ag0 [TRACE] S[0] SLV AW handshake id=47 addr=0x00001000 len=3
[TRACE] 2115000 AW at slave s=0 addr=0x00001000 len=3
UVM_INFO ./uvm/axi_slave_agent.sv(47) @ 2125000: uvm_test_top.env.slv_ag0 [TRACE] S[0] SLV AW handshake id=47 addr=0x00001000 len=3
[TRACE] 2125000 AW at slave s=0 addr=0x00001000 len=3
UVM_INFO ./uvm/axi_slave_agent.sv(47) @ 2135000: uvm_test_top.env.slv_ag0 [TRACE] S[0] SLV AW handshake id=47 addr=0x00001000 len=3
[TRACE] 2135000 AW at slave s=0 addr=0x00001000 len=3
UVM_INFO ./uvm/axi_slave_agent.sv(47) @ 2145000: uvm_test_top.env.slv_ag0 [TRACE] S[0] SLV AW handshake id=47 addr=0x00001000 len=3
[TRACE] 2145000 AW at slave s=0 addr=0x00001000 len=3
UVM_INFO ./uvm/axi_slave_agent.sv(47) @ 2155000: uvm_test_top.env.slv_ag0 [TRACE] S[0] SLV AW handshake id=47 addr=0x00001000 len=3
[TRACE] 2155000 AW at slave s=0 addr=0x00001000 len=3
UVM_INFO ./uvm/axi_slave_agent.sv(47) @ 2165000: uvm_test_top.env.slv_ag0 [TRACE] S[0] SLV AW handshake id=47 addr=0x00001000 len=3
[TRACE] 2165000 AW at slave s=0 addr=0x00001000 len=3
UVM_INFO ./uvm/axi_slave_agent.sv(47) @ 2175000: uvm_test_top.env.slv_ag0 [TRACE] S[0] SLV AW handshake id=47 addr=0x00001000 len=3
[TRACE] 2175000 AW at slave s=0 addr=0x00001000 len=3
UVM_INFO ./uvm/axi_slave_agent.sv(47) @ 2185000: uvm_test_top.env.slv_ag0 [TRACE] S[0] SLV AW handshake id=47 addr=0x00001000 len=3
[TRACE] 2185000 AW at slave s=0 addr=0x00001000 len=3
UVM_INFO ./uvm/axi_slave_agent.sv(47) @ 2195000: uvm_test_top.env.slv_ag0 [TRACE] S[0] SLV AW handshake id=47 addr=0x00001000 len=3
[TRACE] 2195000 AW at slave s=0 addr=0x00001000 len=3
UVM_INFO ./uvm/axi_slave_agent.sv(47) @ 2205000: uvm_test_top.env.slv_ag0 [TRACE] S[0] SLV AW handshake id=47 addr=0x00001000 len=3
[TRACE] 2205000 AW at slave s=0 addr=0x00001000 len=3
UVM_INFO ./uvm/axi_slave_agent.sv(47) @ 2215000: uvm_test_top.env.slv_ag0 [TRACE] S[0] SLV AW handshake id=47 addr=0x00001000 len=3
[TRACE] 2215000 AW at slave s=0 addr=0x00001000 len=3
UVM_INFO ./uvm/axi_slave_agent.sv(47) @ 2225000: uvm_test_top.env.slv_ag0 [TRACE] S[0] SLV AW handshake id=47 addr=0x00001000 len=3
[TRACE] 2225000 AW at slave s=0 addr=0x00001000 len=3
UVM_INFO ./uvm/axi_slave_agent.sv(47) @ 2235000: uvm_test_top.env.slv_ag0 [TRACE] S[0] SLV AW handshake id=47 addr=0x00001000 len=3
[TRACE] 2235000 AW at slave s=0 addr=0x00001000 len=3
UVM_INFO ./uvm/axi_slave_agent.sv(47) @ 2245000: uvm_test_top.env.slv_ag0 [TRACE] S[0] SLV AW handshake id=47 addr=0x00001000 len=3
[TRACE] 2245000 AW at slave s=0 addr=0x00001000 len=3
UVM_INFO ./uvm/axi_slave_agent.sv(47) @ 2255000: uvm_test_top.env.slv_ag0 [TRACE] S[0] SLV AW handshake id=47 addr=0x00001000 len=3
[TRACE] 2255000 AW at slave s=0 addr=0x00001000 len=3
UVM_INFO ./uvm/axi_slave_agent.sv(47) @ 2265000: uvm_test_top.env.slv_ag0 [TRACE] S[0] SLV AW handshake id=47 addr=0x00001000 len=3
[TRACE] 2265000 AW at slave s=0 addr=0x00001000 len=3
UVM_INFO ./uvm/axi_slave_agent.sv(47) @ 2275000: uvm_test_top.env.slv_ag0 [TRACE] S[0] SLV AW handshake id=47 addr=0x00001000 len=3
[TRACE] 2275000 AW at slave s=0 addr=0x00001000 len=3
UVM_INFO ./uvm/axi_slave_agent.sv(47) @ 2285000: uvm_test_top.env.slv_ag0 [TRACE] S[0] SLV AW handshake id=47 addr=0x00001000 len=3
[TRACE] 2285000 AW at slave s=0 addr=0x00001000 len=3
UVM_INFO ./uvm/axi_slave_agent.sv(47) @ 2295000: uvm_test_top.env.slv_ag0 [TRACE] S[0] SLV AW handshake id=47 addr=0x00001000 len=3
[TRACE] 2295000 AW at slave s=0 addr=0x00001000 len=3
UVM_INFO ./uvm/axi_slave_agent.sv(47) @ 2305000: uvm_test_top.env.slv_ag0 [TRACE] S[0] SLV AW handshake id=47 addr=0x00001000 len=3
[TRACE] 2305000 AW at slave s=0 addr=0x00001000 len=3
UVM_INFO ./uvm/axi_slave_agent.sv(47) @ 2315000: uvm_test_top.env.slv_ag0 [TRACE] S[0] SLV AW handshake id=47 addr=0x00001000 len=3
[TRACE] 2315000 AW at slave s=0 addr=0x00001000 len=3
UVM_INFO ./uvm/axi_slave_agent.sv(47) @ 2325000: uvm_test_top.env.slv_ag0 [TRACE] S[0] SLV AW handshake id=47 addr=0x00001000 len=3
[TRACE] 2325000 AW at slave s=0 addr=0x00001000 len=3
UVM_INFO ./uvm/axi_slave_agent.sv(47) @ 2335000: uvm_test_top.env.slv_ag0 [TRACE] S[0] SLV AW handshake id=47 addr=0x00001000 len=3
[TRACE] 2335000 AW at slave s=0 addr=0x00001000 len=3
UVM_INFO ./uvm/axi_slave_agent.sv(47) @ 2345000: uvm_test_top.env.slv_ag0 [TRACE] S[0] SLV AW handshake id=47 addr=0x00001000 len=3
[TRACE] 2345000 AW at slave s=0 addr=0x00001000 len=3
UVM_INFO ./uvm/axi_slave_agent.sv(47) @ 2355000: uvm_test_top.env.slv_ag0 [TRACE] S[0] SLV AW handshake id=47 addr=0x00001000 len=3
[TRACE] 2355000 AW at slave s=0 addr=0x00001000 len=3
UVM_INFO ./uvm/axi_slave_agent.sv(47) @ 2365000: uvm_test_top.env.slv_ag0 [TRACE] S[0] SLV AW handshake id=47 addr=0x00001000 len=3
[TRACE] 2365000 AW at slave s=0 addr=0x00001000 len=3
UVM_INFO ./uvm/axi_slave_agent.sv(47) @ 2375000: uvm_test_top.env.slv_ag0 [TRACE] S[0] SLV AW handshake id=47 addr=0x00001000 len=3
[TRACE] 2375000 AW at slave s=0 addr=0x00001000 len=3
UVM_INFO ./uvm/axi_slave_agent.sv(47) @ 2385000: uvm_test_top.env.slv_ag0 [TRACE] S[0] SLV AW handshake id=47 addr=0x00001000 len=3
[TRACE] 2385000 AW at slave s=0 addr=0x00001000 len=3
UVM_INFO ./uvm/axi_slave_agent.sv(47) @ 2395000: uvm_test_top.env.slv_ag0 [TRACE] S[0] SLV AW handshake id=47 addr=0x00001000 len=3
[TRACE] 2395000 AW at slave s=0 addr=0x00001000 len=3
UVM_INFO ./uvm/axi_slave_agent.sv(47) @ 2405000: uvm_test_top.env.slv_ag0 [TRACE] S[0] SLV AW handshake id=47 addr=0x00001000 len=3
[TRACE] 2405000 AW at slave s=0 addr=0x00001000 len=3
UVM_INFO ./uvm/axi_slave_agent.sv(47) @ 2415000: uvm_test_top.env.slv_ag0 [TRACE] S[0] SLV AW handshake id=47 addr=0x00001000 len=3
[TRACE] 2415000 AW at slave s=0 addr=0x00001000 len=3
UVM_INFO ./uvm/axi_slave_agent.sv(47) @ 2425000: uvm_test_top.env.slv_ag0 [TRACE] S[0] SLV AW handshake id=47 addr=0x00001000 len=3
[TRACE] 2425000 AW at slave s=0 addr=0x00001000 len=3
UVM_INFO ./uvm/axi_slave_agent.sv(47) @ 2435000: uvm_test_top.env.slv_ag0 [TRACE] S[0] SLV AW handshake id=47 addr=0x00001000 len=3
[TRACE] 2435000 AW at slave s=0 addr=0x00001000 len=3
UVM_INFO ./uvm/axi_slave_agent.sv(47) @ 2445000: uvm_test_top.env.slv_ag0 [TRACE] S[0] SLV AW handshake id=47 addr=0x00001000 len=3
[TRACE] 2445000 AW at slave s=0 addr=0x00001000 len=3
UVM_INFO ./uvm/axi_slave_agent.sv(47) @ 2455000: uvm_test_top.env.slv_ag0 [TRACE] S[0] SLV AW handshake id=47 addr=0x00001000 len=3
[TRACE] 2455000 AW at slave s=0 addr=0x00001000 len=3
UVM_INFO ./uvm/axi_slave_agent.sv(47) @ 2465000: uvm_test_top.env.slv_ag0 [TRACE] S[0] SLV AW handshake id=47 addr=0x00001000 len=3
[TRACE] 2465000 AW at slave s=0 addr=0x00001000 len=3
UVM_INFO ./uvm/axi_slave_agent.sv(47) @ 2475000: uvm_test_top.env.slv_ag0 [TRACE] S[0] SLV AW handshake id=47 addr=0x00001000 len=3
[TRACE] 2475000 AW at slave s=0 addr=0x00001000 len=3
UVM_INFO ./uvm/axi_slave_agent.sv(47) @ 2485000: uvm_test_top.env.slv_ag0 [TRACE] S[0] SLV AW handshake id=47 addr=0x00001000 len=3
[TRACE] 2485000 AW at slave s=0 addr=0x00001000 len=3
UVM_INFO ./uvm/axi_slave_agent.sv(47) @ 2495000: uvm_test_top.env.slv_ag0 [TRACE] S[0] SLV AW handshake id=47 addr=0x00001000 len=3
[TRACE] 2495000 AW at slave s=0 addr=0x00001000 len=3
UVM_INFO ./uvm/axi_slave_agent.sv(47) @ 2505000: uvm_test_top.env.slv_ag0 [TRACE] S[0] SLV AW handshake id=47 addr=0x00001000 len=3
[TRACE] 2505000 AW at slave s=0 addr=0x00001000 len=3
UVM_INFO ./uvm/axi_slave_agent.sv(47) @ 2515000: uvm_test_top.env.slv_ag0 [TRACE] S[0] SLV AW handshake id=47 addr=0x00001000 len=3
[TRACE] 2515000 AW at slave s=0 addr=0x00001000 len=3
UVM_INFO ./uvm/axi_slave_agent.sv(47) @ 2525000: uvm_test_top.env.slv_ag0 [TRACE] S[0] SLV AW handshake id=47 addr=0x00001000 len=3
[TRACE] 2525000 AW at slave s=0 addr=0x00001000 len=3
UVM_INFO ./uvm/axi_slave_agent.sv(47) @ 2535000: uvm_test_top.env.slv_ag0 [TRACE] S[0] SLV AW handshake id=47 addr=0x00001000 len=3
[TRACE] 2535000 AW at slave s=0 addr=0x00001000 len=3
UVM_INFO ./uvm/axi_slave_agent.sv(47) @ 2545000: uvm_test_top.env.slv_ag0 [TRACE] S[0] SLV AW handshake id=47 addr=0x00001000 len=3
[TRACE] 2545000 AW at slave s=0 addr=0x00001000 len=3
UVM_INFO ./uvm/axi_slave_agent.sv(47) @ 2555000: uvm_test_top.env.slv_ag0 [TRACE] S[0] SLV AW handshake id=47 addr=0x00001000 len=3
[TRACE] 2555000 AW at slave s=0 addr=0x00001000 len=3
UVM_INFO ./uvm/axi_slave_agent.sv(47) @ 2565000: uvm_test_top.env.slv_ag0 [TRACE] S[0] SLV AW handshake id=47 addr=0x00001000 len=3
[TRACE] 2565000 AW at slave s=0 addr=0x00001000 len=3
UVM_INFO ./uvm/axi_slave_agent.sv(47) @ 2575000: uvm_test_top.env.slv_ag0 [TRACE] S[0] SLV AW handshake id=47 addr=0x00001000 len=3
[TRACE] 2575000 AW at slave s=0 addr=0x00001000 len=3
UVM_INFO ./uvm/axi_slave_agent.sv(47) @ 2585000: uvm_test_top.env.slv_ag0 [TRACE] S[0] SLV AW handshake id=47 addr=0x00001000 len=3
[TRACE] 2585000 AW at slave s=0 addr=0x00001000 len=3
UVM_INFO ./uvm/axi_slave_agent.sv(47) @ 2595000: uvm_test_top.env.slv_ag0 [TRACE] S[0] SLV AW handshake id=47 addr=0x00001000 len=3
[TRACE] 2595000 AW at slave s=0 addr=0x00001000 len=3
UVM_INFO ./uvm/axi_slave_agent.sv(47) @ 2605000: uvm_test_top.env.slv_ag0 [TRACE] S[0] SLV AW handshake id=47 addr=0x00001000 len=3
[TRACE] 2605000 AW at slave s=0 addr=0x00001000 len=3
UVM_INFO ./uvm/axi_slave_agent.sv(47) @ 2615000: uvm_test_top.env.slv_ag0 [TRACE] S[0] SLV AW handshake id=47 addr=0x00001000 len=3
[TRACE] 2615000 AW at slave s=0 addr=0x00001000 len=3
UVM_INFO ./uvm/axi_slave_agent.sv(47) @ 2625000: uvm_test_top.env.slv_ag0 [TRACE] S[0] SLV AW handshake id=47 addr=0x00001000 len=3
[TRACE] 2625000 AW at slave s=0 addr=0x00001000 len=3
UVM_INFO ./uvm/axi_slave_agent.sv(47) @ 2635000: uvm_test_top.env.slv_ag0 [TRACE] S[0] SLV AW handshake id=47 addr=0x00001000 len=3
[TRACE] 2635000 AW at slave s=0 addr=0x00001000 len=3
UVM_INFO ./uvm/axi_slave_agent.sv(47) @ 2645000: uvm_test_top.env.slv_ag0 [TRACE] S[0] SLV AW handshake id=47 addr=0x00001000 len=3
[TRACE] 2645000 AW at slave s=0 addr=0x00001000 len=3
UVM_INFO ./uvm/axi_slave_agent.sv(47) @ 2655000: uvm_test_top.env.slv_ag0 [TRACE] S[0] SLV AW handshake id=47 addr=0x00001000 len=3
[TRACE] 2655000 AW at slave s=0 addr=0x00001000 len=3
UVM_INFO ./uvm/axi_slave_agent.sv(47) @ 2665000: uvm_test_top.env.slv_ag0 [TRACE] S[0] SLV AW handshake id=47 addr=0x00001000 len=3
[TRACE] 2665000 AW at slave s=0 addr=0x00001000 len=3
UVM_INFO ./uvm/axi_slave_agent.sv(47) @ 2675000: uvm_test_top.env.slv_ag0 [TRACE] S[0] SLV AW handshake id=47 addr=0x00001000 len=3
[TRACE] 2675000 AW at slave s=0 addr=0x00001000 len=3
UVM_INFO ./uvm/axi_slave_agent.sv(47) @ 2685000: uvm_test_top.env.slv_ag0 [TRACE] S[0] SLV AW handshake id=47 addr=0x00001000 len=3
[TRACE] 2685000 AW at slave s=0 addr=0x00001000 len=3
UVM_INFO ./uvm/axi_slave_agent.sv(47) @ 2695000: uvm_test_top.env.slv_ag0 [TRACE] S[0] SLV AW handshake id=47 addr=0x00001000 len=3
[TRACE] 2695000 AW at slave s=0 addr=0x00001000 len=3
UVM_INFO ./uvm/axi_slave_agent.sv(47) @ 2705000: uvm_test_top.env.slv_ag0 [TRACE] S[0] SLV AW handshake id=47 addr=0x00001000 len=3
[TRACE] 2705000 AW at slave s=0 addr=0x00001000 len=3
UVM_INFO ./uvm/axi_slave_agent.sv(47) @ 2715000: uvm_test_top.env.slv_ag0 [TRACE] S[0] SLV AW handshake id=47 addr=0x00001000 len=3
[TRACE] 2715000 AW at slave s=0 addr=0x00001000 len=3
UVM_INFO ./uvm/axi_slave_agent.sv(47) @ 2725000: uvm_test_top.env.slv_ag0 [TRACE] S[0] SLV AW handshake id=47 addr=0x00001000 len=3
[TRACE] 2725000 AW at slave s=0 addr=0x00001000 len=3
UVM_INFO ./uvm/axi_slave_agent.sv(47) @ 2735000: uvm_test_top.env.slv_ag0 [TRACE] S[0] SLV AW handshake id=47 addr=0x00001000 len=3
[TRACE] 2735000 AW at slave s=0 addr=0x00001000 len=3
UVM_INFO ./uvm/axi_slave_agent.sv(47) @ 2745000: uvm_test_top.env.slv_ag0 [TRACE] S[0] SLV AW handshake id=47 addr=0x00001000 len=3
[TRACE] 2745000 AW at slave s=0 addr=0x00001000 len=3
UVM_INFO ./uvm/axi_slave_agent.sv(47) @ 2755000: uvm_test_top.env.slv_ag0 [TRACE] S[0] SLV AW handshake id=47 addr=0x00001000 len=3
[TRACE] 2755000 AW at slave s=0 addr=0x00001000 len=3
UVM_INFO ./uvm/axi_slave_agent.sv(47) @ 2765000: uvm_test_top.env.slv_ag0 [TRACE] S[0] SLV AW handshake id=47 addr=0x00001000 len=3
[TRACE] 2765000 AW at slave s=0 addr=0x00001000 len=3
UVM_INFO ./uvm/axi_slave_agent.sv(47) @ 2775000: uvm_test_top.env.slv_ag0 [TRACE] S[0] SLV AW handshake id=47 addr=0x00001000 len=3
[TRACE] 2775000 AW at slave s=0 addr=0x00001000 len=3
UVM_INFO ./uvm/axi_slave_agent.sv(47) @ 2785000: uvm_test_top.env.slv_ag0 [TRACE] S[0] SLV AW handshake id=47 addr=0x00001000 len=3
[TRACE] 2785000 AW at slave s=0 addr=0x00001000 len=3
UVM_INFO ./uvm/axi_slave_agent.sv(47) @ 2795000: uvm_test_top.env.slv_ag0 [TRACE] S[0] SLV AW handshake id=47 addr=0x00001000 len=3
[TRACE] 2795000 AW at slave s=0 addr=0x00001000 len=3
UVM_INFO ./uvm/axi_slave_agent.sv(47) @ 2805000: uvm_test_top.env.slv_ag0 [TRACE] S[0] SLV AW handshake id=47 addr=0x00001000 len=3
[TRACE] 2805000 AW at slave s=0 addr=0x00001000 len=3
UVM_INFO ./uvm/axi_slave_agent.sv(47) @ 2815000: uvm_test_top.env.slv_ag0 [TRACE] S[0] SLV AW handshake id=47 addr=0x00001000 len=3
[TRACE] 2815000 AW at slave s=0 addr=0x00001000 len=3
UVM_INFO ./uvm/axi_slave_agent.sv(47) @ 2825000: uvm_test_top.env.slv_ag0 [TRACE] S[0] SLV AW handshake id=47 addr=0x00001000 len=3
[TRACE] 2825000 AW at slave s=0 addr=0x00001000 len=3
UVM_INFO ./uvm/axi_slave_agent.sv(47) @ 2835000: uvm_test_top.env.slv_ag0 [TRACE] S[0] SLV AW handshake id=47 addr=0x00001000 len=3
[TRACE] 2835000 AW at slave s=0 addr=0x00001000 len=3
UVM_INFO ./uvm/axi_slave_agent.sv(47) @ 2845000: uvm_test_top.env.slv_ag0 [TRACE] S[0] SLV AW handshake id=47 addr=0x00001000 len=3
[TRACE] 2845000 AW at slave s=0 addr=0x00001000 len=3
UVM_INFO ./uvm/axi_slave_agent.sv(47) @ 2855000: uvm_test_top.env.slv_ag0 [TRACE] S[0] SLV AW handshake id=47 addr=0x00001000 len=3
[TRACE] 2855000 AW at slave s=0 addr=0x00001000 len=3
UVM_INFO ./uvm/axi_slave_agent.sv(47) @ 2865000: uvm_test_top.env.slv_ag0 [TRACE] S[0] SLV AW handshake id=47 addr=0x00001000 len=3
[TRACE] 2865000 AW at slave s=0 addr=0x00001000 len=3
UVM_INFO ./uvm/axi_slave_agent.sv(47) @ 2875000: uvm_test_top.env.slv_ag0 [TRACE] S[0] SLV AW handshake id=47 addr=0x00001000 len=3
[TRACE] 2875000 AW at slave s=0 addr=0x00001000 len=3
UVM_INFO ./uvm/axi_slave_agent.sv(47) @ 2885000: uvm_test_top.env.slv_ag0 [TRACE] S[0] SLV AW handshake id=47 addr=0x00001000 len=3
[TRACE] 2885000 AW at slave s=0 addr=0x00001000 len=3
UVM_INFO ./uvm/axi_slave_agent.sv(47) @ 2895000: uvm_test_top.env.slv_ag0 [TRACE] S[0] SLV AW handshake id=47 addr=0x00001000 len=3
[TRACE] 2895000 AW at slave s=0 addr=0x00001000 len=3
UVM_INFO ./uvm/axi_slave_agent.sv(47) @ 2905000: uvm_test_top.env.slv_ag0 [TRACE] S[0] SLV AW handshake id=47 addr=0x00001000 len=3
[TRACE] 2905000 AW at slave s=0 addr=0x00001000 len=3
UVM_INFO ./uvm/axi_slave_agent.sv(47) @ 2915000: uvm_test_top.env.slv_ag0 [TRACE] S[0] SLV AW handshake id=47 addr=0x00001000 len=3
[TRACE] 2915000 AW at slave s=0 addr=0x00001000 len=3
UVM_INFO ./uvm/axi_slave_agent.sv(47) @ 2925000: uvm_test_top.env.slv_ag0 [TRACE] S[0] SLV AW handshake id=47 addr=0x00001000 len=3
[TRACE] 2925000 AW at slave s=0 addr=0x00001000 len=3
UVM_INFO ./uvm/axi_slave_agent.sv(47) @ 2935000: uvm_test_top.env.slv_ag0 [TRACE] S[0] SLV AW handshake id=47 addr=0x00001000 len=3
[TRACE] 2935000 AW at slave s=0 addr=0x00001000 len=3
UVM_INFO ./uvm/axi_slave_agent.sv(47) @ 2945000: uvm_test_top.env.slv_ag0 [TRACE] S[0] SLV AW handshake id=47 addr=0x00001000 len=3
[TRACE] 2945000 AW at slave s=0 addr=0x00001000 len=3
UVM_INFO ./uvm/axi_slave_agent.sv(47) @ 2955000: uvm_test_top.env.slv_ag0 [TRACE] S[0] SLV AW handshake id=47 addr=0x00001000 len=3
[TRACE] 2955000 AW at slave s=0 addr=0x00001000 len=3
UVM_INFO ./uvm/axi_slave_agent.sv(47) @ 2965000: uvm_test_top.env.slv_ag0 [TRACE] S[0] SLV AW handshake id=47 addr=0x00001000 len=3
[TRACE] 2965000 AW at slave s=0 addr=0x00001000 len=3
UVM_INFO ./uvm/axi_slave_agent.sv(47) @ 2975000: uvm_test_top.env.slv_ag0 [TRACE] S[0] SLV AW handshake id=47 addr=0x00001000 len=3
[TRACE] 2975000 AW at slave s=0 addr=0x00001000 len=3
UVM_INFO ./uvm/axi_slave_agent.sv(47) @ 2985000: uvm_test_top.env.slv_ag0 [TRACE] S[0] SLV AW handshake id=47 addr=0x00001000 len=3
[TRACE] 2985000 AW at slave s=0 addr=0x00001000 len=3
UVM_INFO ./uvm/axi_slave_agent.sv(47) @ 2995000: uvm_test_top.env.slv_ag0 [TRACE] S[0] SLV AW handshake id=47 addr=0x00001000 len=3
[TRACE] 2995000 AW at slave s=0 addr=0x00001000 len=3
UVM_INFO ./uvm/axi_slave_agent.sv(47) @ 3005000: uvm_test_top.env.slv_ag0 [TRACE] S[0] SLV AW handshake id=47 addr=0x00001000 len=3
[TRACE] 3005000 AW at slave s=0 addr=0x00001000 len=3
UVM_INFO ./uvm/axi_slave_agent.sv(47) @ 3015000: uvm_test_top.env.slv_ag0 [TRACE] S[0] SLV AW handshake id=47 addr=0x00001000 len=3
[TRACE] 3015000 AW at slave s=0 addr=0x00001000 len=3
UVM_INFO ./uvm/axi_slave_agent.sv(47) @ 3025000: uvm_test_top.env.slv_ag0 [TRACE] S[0] SLV AW handshake id=47 addr=0x00001000 len=3
[TRACE] 3025000 AW at slave s=0 addr=0x00001000 len=3
UVM_INFO ./uvm/axi_slave_agent.sv(47) @ 3035000: uvm_test_top.env.slv_ag0 [TRACE] S[0] SLV AW handshake id=47 addr=0x00001000 len=3
[TRACE] 3035000 AW at slave s=0 addr=0x00001000 len=3
UVM_INFO ./uvm/axi_slave_agent.sv(47) @ 3045000: uvm_test_top.env.slv_ag0 [TRACE] S[0] SLV AW handshake id=47 addr=0x00001000 len=3
[TRACE] 3045000 AW at slave s=0 addr=0x00001000 len=3
UVM_INFO ./uvm/axi_slave_agent.sv(47) @ 3055000: uvm_test_top.env.slv_ag0 [TRACE] S[0] SLV AW handshake id=47 addr=0x00001000 len=3
[TRACE] 3055000 AW at slave s=0 addr=0x00001000 len=3
UVM_INFO ./uvm/axi_slave_agent.sv(47) @ 3065000: uvm_test_top.env.slv_ag0 [TRACE] S[0] SLV AW handshake id=47 addr=0x00001000 len=3
[TRACE] 3065000 AW at slave s=0 addr=0x00001000 len=3
UVM_INFO ./uvm/axi_slave_agent.sv(47) @ 3075000: uvm_test_top.env.slv_ag0 [TRACE] S[0] SLV AW handshake id=47 addr=0x00001000 len=3
[TRACE] 3075000 AW at slave s=0 addr=0x00001000 len=3
UVM_INFO ./uvm/axi_slave_agent.sv(47) @ 3085000: uvm_test_top.env.slv_ag0 [TRACE] S[0] SLV AW handshake id=47 addr=0x00001000 len=3
[TRACE] 3085000 AW at slave s=0 addr=0x00001000 len=3
UVM_INFO ./uvm/axi_slave_agent.sv(47) @ 3095000: uvm_test_top.env.slv_ag0 [TRACE] S[0] SLV AW handshake id=47 addr=0x00001000 len=3
[TRACE] 3095000 AW at slave s=0 addr=0x00001000 len=3
UVM_INFO ./uvm/axi_slave_agent.sv(47) @ 3105000: uvm_test_top.env.slv_ag0 [TRACE] S[0] SLV AW handshake id=47 addr=0x00001000 len=3
[TRACE] 3105000 AW at slave s=0 addr=0x00001000 len=3
UVM_INFO ./uvm/axi_slave_agent.sv(47) @ 3115000: uvm_test_top.env.slv_ag0 [TRACE] S[0] SLV AW handshake id=47 addr=0x00001000 len=3
[TRACE] 3115000 AW at slave s=0 addr=0x00001000 len=3
UVM_INFO ./uvm/axi_slave_agent.sv(47) @ 3125000: uvm_test_top.env.slv_ag0 [TRACE] S[0] SLV AW handshake id=47 addr=0x00001000 len=3
[TRACE] 3125000 AW at slave s=0 addr=0x00001000 len=3
UVM_INFO ./uvm/axi_slave_agent.sv(47) @ 3135000: uvm_test_top.env.slv_ag0 [TRACE] S[0] SLV AW handshake id=47 addr=0x00001000 len=3
[TRACE] 3135000 AW at slave s=0 addr=0x00001000 len=3
UVM_INFO ./uvm/axi_slave_agent.sv(47) @ 3145000: uvm_test_top.env.slv_ag0 [TRACE] S[0] SLV AW handshake id=47 addr=0x00001000 len=3
[TRACE] 3145000 AW at slave s=0 addr=0x00001000 len=3
UVM_INFO ./uvm/axi_slave_agent.sv(47) @ 3155000: uvm_test_top.env.slv_ag0 [TRACE] S[0] SLV AW handshake id=47 addr=0x00001000 len=3
[TRACE] 3155000 AW at slave s=0 addr=0x00001000 len=3
UVM_INFO ./uvm/axi_slave_agent.sv(47) @ 3165000: uvm_test_top.env.slv_ag0 [TRACE] S[0] SLV AW handshake id=47 addr=0x00001000 len=3
[TRACE] 3165000 AW at slave s=0 addr=0x00001000 len=3
UVM_INFO ./uvm/axi_slave_agent.sv(47) @ 3175000: uvm_test_top.env.slv_ag0 [TRACE] S[0] SLV AW handshake id=47 addr=0x00001000 len=3
[TRACE] 3175000 AW at slave s=0 addr=0x00001000 len=3
UVM_INFO ./uvm/axi_slave_agent.sv(47) @ 3185000: uvm_test_top.env.slv_ag0 [TRACE] S[0] SLV AW handshake id=47 addr=0x00001000 len=3
[TRACE] 3185000 AW at slave s=0 addr=0x00001000 len=3
UVM_INFO ./uvm/axi_slave_agent.sv(47) @ 3195000: uvm_test_top.env.slv_ag0 [TRACE] S[0] SLV AW handshake id=47 addr=0x00001000 len=3
[TRACE] 3195000 AW at slave s=0 addr=0x00001000 len=3
UVM_INFO ./uvm/axi_slave_agent.sv(47) @ 3205000: uvm_test_top.env.slv_ag0 [TRACE] S[0] SLV AW handshake id=47 addr=0x00001000 len=3
[TRACE] 3205000 AW at slave s=0 addr=0x00001000 len=3
UVM_INFO ./uvm/axi_slave_agent.sv(47) @ 3215000: uvm_test_top.env.slv_ag0 [TRACE] S[0] SLV AW handshake id=47 addr=0x00001000 len=3
[TRACE] 3215000 AW at slave s=0 addr=0x00001000 len=3
UVM_INFO ./uvm/axi_slave_agent.sv(47) @ 3225000: uvm_test_top.env.slv_ag0 [TRACE] S[0] SLV AW handshake id=47 addr=0x00001000 len=3
[TRACE] 3225000 AW at slave s=0 addr=0x00001000 len=3
UVM_INFO ./uvm/axi_slave_agent.sv(47) @ 3235000: uvm_test_top.env.slv_ag0 [TRACE] S[0] SLV AW handshake id=47 addr=0x00001000 len=3
[TRACE] 3235000 AW at slave s=0 addr=0x00001000 len=3
UVM_INFO ./uvm/axi_slave_agent.sv(47) @ 3245000: uvm_test_top.env.slv_ag0 [TRACE] S[0] SLV AW handshake id=47 addr=0x00001000 len=3
[TRACE] 3245000 AW at slave s=0 addr=0x00001000 len=3
UVM_INFO ./uvm/axi_slave_agent.sv(47) @ 3255000: uvm_test_top.env.slv_ag0 [TRACE] S[0] SLV AW handshake id=47 addr=0x00001000 len=3
[TRACE] 3255000 AW at slave s=0 addr=0x00001000 len=3
UVM_INFO ./uvm/axi_slave_agent.sv(47) @ 3265000: uvm_test_top.env.slv_ag0 [TRACE] S[0] SLV AW handshake id=47 addr=0x00001000 len=3
[TRACE] 3265000 AW at slave s=0 addr=0x00001000 len=3
UVM_INFO ./uvm/axi_slave_agent.sv(47) @ 3275000: uvm_test_top.env.slv_ag0 [TRACE] S[0] SLV AW handshake id=47 addr=0x00001000 len=3
[TRACE] 3275000 AW at slave s=0 addr=0x00001000 len=3
UVM_INFO ./uvm/axi_slave_agent.sv(47) @ 3285000: uvm_test_top.env.slv_ag0 [TRACE] S[0] SLV AW handshake id=47 addr=0x00001000 len=3
[TRACE] 3285000 AW at slave s=0 addr=0x00001000 len=3
UVM_INFO ./uvm/axi_slave_agent.sv(47) @ 3295000: uvm_test_top.env.slv_ag0 [TRACE] S[0] SLV AW handshake id=47 addr=0x00001000 len=3
[TRACE] 3295000 AW at slave s=0 addr=0x00001000 len=3
UVM_INFO ./uvm/axi_slave_agent.sv(47) @ 3305000: uvm_test_top.env.slv_ag0 [TRACE] S[0] SLV AW handshake id=47 addr=0x00001000 len=3
[TRACE] 3305000 AW at slave s=0 addr=0x00001000 len=3
UVM_INFO ./uvm/axi_slave_agent.sv(47) @ 3315000: uvm_test_top.env.slv_ag0 [TRACE] S[0] SLV AW handshake id=47 addr=0x00001000 len=3
[TRACE] 3315000 AW at slave s=0 addr=0x00001000 len=3
UVM_INFO ./uvm/axi_slave_agent.sv(47) @ 3325000: uvm_test_top.env.slv_ag0 [TRACE] S[0] SLV AW handshake id=47 addr=0x00001000 len=3
[TRACE] 3325000 AW at slave s=0 addr=0x00001000 len=3
UVM_INFO ./uvm/axi_slave_agent.sv(47) @ 3335000: uvm_test_top.env.slv_ag0 [TRACE] S[0] SLV AW handshake id=47 addr=0x00001000 len=3
[TRACE] 3335000 AW at slave s=0 addr=0x00001000 len=3
UVM_INFO ./uvm/axi_slave_agent.sv(47) @ 3345000: uvm_test_top.env.slv_ag0 [TRACE] S[0] SLV AW handshake id=47 addr=0x00001000 len=3
[TRACE] 3345000 AW at slave s=0 addr=0x00001000 len=3
UVM_INFO ./uvm/axi_slave_agent.sv(47) @ 3355000: uvm_test_top.env.slv_ag0 [TRACE] S[0] SLV AW handshake id=47 addr=0x00001000 len=3
[TRACE] 3355000 AW at slave s=0 addr=0x00001000 len=3
UVM_INFO ./uvm/axi_slave_agent.sv(47) @ 3365000: uvm_test_top.env.slv_ag0 [TRACE] S[0] SLV AW handshake id=47 addr=0x00001000 len=3
[TRACE] 3365000 AW at slave s=0 addr=0x00001000 len=3
UVM_INFO ./uvm/axi_slave_agent.sv(47) @ 3375000: uvm_test_top.env.slv_ag0 [TRACE] S[0] SLV AW handshake id=47 addr=0x00001000 len=3
[TRACE] 3375000 AW at slave s=0 addr=0x00001000 len=3
UVM_INFO ./uvm/axi_slave_agent.sv(47) @ 3385000: uvm_test_top.env.slv_ag0 [TRACE] S[0] SLV AW handshake id=47 addr=0x00001000 len=3
[TRACE] 3385000 AW at slave s=0 addr=0x00001000 len=3
UVM_INFO ./uvm/axi_slave_agent.sv(47) @ 3395000: uvm_test_top.env.slv_ag0 [TRACE] S[0] SLV AW handshake id=47 addr=0x00001000 len=3
[TRACE] 3395000 AW at slave s=0 addr=0x00001000 len=3
UVM_INFO ./uvm/axi_slave_agent.sv(47) @ 3405000: uvm_test_top.env.slv_ag0 [TRACE] S[0] SLV AW handshake id=47 addr=0x00001000 len=3
[TRACE] 3405000 AW at slave s=0 addr=0x00001000 len=3
UVM_INFO ./uvm/axi_slave_agent.sv(47) @ 3415000: uvm_test_top.env.slv_ag0 [TRACE] S[0] SLV AW handshake id=47 addr=0x00001000 len=3
[TRACE] 3415000 AW at slave s=0 addr=0x00001000 len=3
UVM_INFO ./uvm/axi_slave_agent.sv(47) @ 3425000: uvm_test_top.env.slv_ag0 [TRACE] S[0] SLV AW handshake id=47 addr=0x00001000 len=3
[TRACE] 3425000 AW at slave s=0 addr=0x00001000 len=3
UVM_INFO ./uvm/axi_slave_agent.sv(47) @ 3435000: uvm_test_top.env.slv_ag0 [TRACE] S[0] SLV AW handshake id=47 addr=0x00001000 len=3
[TRACE] 3435000 AW at slave s=0 addr=0x00001000 len=3
UVM_INFO ./uvm/axi_slave_agent.sv(47) @ 3445000: uvm_test_top.env.slv_ag0 [TRACE] S[0] SLV AW handshake id=47 addr=0x00001000 len=3
[TRACE] 3445000 AW at slave s=0 addr=0x00001000 len=3
UVM_INFO ./uvm/axi_slave_agent.sv(47) @ 3455000: uvm_test_top.env.slv_ag0 [TRACE] S[0] SLV AW handshake id=47 addr=0x00001000 len=3
[TRACE] 3455000 AW at slave s=0 addr=0x00001000 len=3
UVM_INFO ./uvm/axi_slave_agent.sv(47) @ 3465000: uvm_test_top.env.slv_ag0 [TRACE] S[0] SLV AW handshake id=47 addr=0x00001000 len=3
[TRACE] 3465000 AW at slave s=0 addr=0x00001000 len=3
UVM_INFO ./uvm/axi_slave_agent.sv(47) @ 3475000: uvm_test_top.env.slv_ag0 [TRACE] S[0] SLV AW handshake id=47 addr=0x00001000 len=3
[TRACE] 3475000 AW at slave s=0 addr=0x00001000 len=3
UVM_INFO ./uvm/axi_slave_agent.sv(47) @ 3485000: uvm_test_top.env.slv_ag0 [TRACE] S[0] SLV AW handshake id=47 addr=0x00001000 len=3
[TRACE] 3485000 AW at slave s=0 addr=0x00001000 len=3
UVM_INFO ./uvm/axi_slave_agent.sv(47) @ 3495000: uvm_test_top.env.slv_ag0 [TRACE] S[0] SLV AW handshake id=47 addr=0x00001000 len=3
[TRACE] 3495000 AW at slave s=0 addr=0x00001000 len=3
UVM_INFO ./uvm/axi_slave_agent.sv(47) @ 3505000: uvm_test_top.env.slv_ag0 [TRACE] S[0] SLV AW handshake id=47 addr=0x00001000 len=3
[TRACE] 3505000 AW at slave s=0 addr=0x00001000 len=3
UVM_INFO ./uvm/axi_slave_agent.sv(47) @ 3515000: uvm_test_top.env.slv_ag0 [TRACE] S[0] SLV AW handshake id=47 addr=0x00001000 len=3
[TRACE] 3515000 AW at slave s=0 addr=0x00001000 len=3
UVM_INFO ./uvm/axi_slave_agent.sv(47) @ 3525000: uvm_test_top.env.slv_ag0 [TRACE] S[0] SLV AW handshake id=47 addr=0x00001000 len=3
[TRACE] 3525000 AW at slave s=0 addr=0x00001000 len=3
UVM_INFO ./uvm/axi_slave_agent.sv(47) @ 3535000: uvm_test_top.env.slv_ag0 [TRACE] S[0] SLV AW handshake id=47 addr=0x00001000 len=3
[TRACE] 3535000 AW at slave s=0 addr=0x00001000 len=3
UVM_INFO ./uvm/axi_slave_agent.sv(47) @ 3545000: uvm_test_top.env.slv_ag0 [TRACE] S[0] SLV AW handshake id=47 addr=0x00001000 len=3
[TRACE] 3545000 AW at slave s=0 addr=0x00001000 len=3
UVM_INFO ./uvm/axi_slave_agent.sv(47) @ 3555000: uvm_test_top.env.slv_ag0 [TRACE] S[0] SLV AW handshake id=47 addr=0x00001000 len=3
[TRACE] 3555000 AW at slave s=0 addr=0x00001000 len=3
UVM_INFO ./uvm/axi_slave_agent.sv(47) @ 3565000: uvm_test_top.env.slv_ag0 [TRACE] S[0] SLV AW handshake id=47 addr=0x00001000 len=3
[TRACE] 3565000 AW at slave s=0 addr=0x00001000 len=3
UVM_INFO ./uvm/axi_slave_agent.sv(47) @ 3575000: uvm_test_top.env.slv_ag0 [TRACE] S[0] SLV AW handshake id=47 addr=0x00001000 len=3
[TRACE] 3575000 AW at slave s=0 addr=0x00001000 len=3
UVM_INFO ./uvm/axi_slave_agent.sv(47) @ 3585000: uvm_test_top.env.slv_ag0 [TRACE] S[0] SLV AW handshake id=47 addr=0x00001000 len=3
[TRACE] 3585000 AW at slave s=0 addr=0x00001000 len=3
UVM_INFO ./uvm/axi_slave_agent.sv(47) @ 3595000: uvm_test_top.env.slv_ag0 [TRACE] S[0] SLV AW handshake id=47 addr=0x00001000 len=3
[TRACE] 3595000 AW at slave s=0 addr=0x00001000 len=3
UVM_INFO ./uvm/axi_slave_agent.sv(47) @ 3605000: uvm_test_top.env.slv_ag0 [TRACE] S[0] SLV AW handshake id=47 addr=0x00001000 len=3
[TRACE] 3605000 AW at slave s=0 addr=0x00001000 len=3
UVM_INFO ./uvm/axi_slave_agent.sv(47) @ 3615000: uvm_test_top.env.slv_ag0 [TRACE] S[0] SLV AW handshake id=47 addr=0x00001000 len=3
[TRACE] 3615000 AW at slave s=0 addr=0x00001000 len=3
UVM_INFO ./uvm/axi_slave_agent.sv(47) @ 3625000: uvm_test_top.env.slv_ag0 [TRACE] S[0] SLV AW handshake id=47 addr=0x00001000 len=3
[TRACE] 3625000 AW at slave s=0 addr=0x00001000 len=3
UVM_INFO ./uvm/axi_slave_agent.sv(47) @ 3635000: uvm_test_top.env.slv_ag0 [TRACE] S[0] SLV AW handshake id=47 addr=0x00001000 len=3
[TRACE] 3635000 AW at slave s=0 addr=0x00001000 len=3
UVM_INFO ./uvm/axi_slave_agent.sv(47) @ 3645000: uvm_test_top.env.slv_ag0 [TRACE] S[0] SLV AW handshake id=47 addr=0x00001000 len=3
[TRACE] 3645000 AW at slave s=0 addr=0x00001000 len=3
UVM_INFO ./uvm/axi_slave_agent.sv(47) @ 3655000: uvm_test_top.env.slv_ag0 [TRACE] S[0] SLV AW handshake id=47 addr=0x00001000 len=3
[TRACE] 3655000 AW at slave s=0 addr=0x00001000 len=3
UVM_INFO ./uvm/axi_slave_agent.sv(47) @ 3665000: uvm_test_top.env.slv_ag0 [TRACE] S[0] SLV AW handshake id=47 addr=0x00001000 len=3
[TRACE] 3665000 AW at slave s=0 addr=0x00001000 len=3
UVM_INFO ./uvm/axi_slave_agent.sv(47) @ 3675000: uvm_test_top.env.slv_ag0 [TRACE] S[0] SLV AW handshake id=47 addr=0x00001000 len=3
[TRACE] 3675000 AW at slave s=0 addr=0x00001000 len=3
UVM_INFO ./uvm/axi_slave_agent.sv(47) @ 3685000: uvm_test_top.env.slv_ag0 [TRACE] S[0] SLV AW handshake id=47 addr=0x00001000 len=3
[TRACE] 3685000 AW at slave s=0 addr=0x00001000 len=3
UVM_INFO ./uvm/axi_slave_agent.sv(47) @ 3695000: uvm_test_top.env.slv_ag0 [TRACE] S[0] SLV AW handshake id=47 addr=0x00001000 len=3
[TRACE] 3695000 AW at slave s=0 addr=0x00001000 len=3
UVM_INFO ./uvm/axi_slave_agent.sv(47) @ 3705000: uvm_test_top.env.slv_ag0 [TRACE] S[0] SLV AW handshake id=47 addr=0x00001000 len=3
[TRACE] 3705000 AW at slave s=0 addr=0x00001000 len=3
UVM_INFO ./uvm/axi_slave_agent.sv(47) @ 3715000: uvm_test_top.env.slv_ag0 [TRACE] S[0] SLV AW handshake id=47 addr=0x00001000 len=3
[TRACE] 3715000 AW at slave s=0 addr=0x00001000 len=3
UVM_INFO ./uvm/axi_slave_agent.sv(47) @ 3725000: uvm_test_top.env.slv_ag0 [TRACE] S[0] SLV AW handshake id=47 addr=0x00001000 len=3
[TRACE] 3725000 AW at slave s=0 addr=0x00001000 len=3
UVM_INFO ./uvm/axi_slave_agent.sv(47) @ 3735000: uvm_test_top.env.slv_ag0 [TRACE] S[0] SLV AW handshake id=47 addr=0x00001000 len=3
[TRACE] 3735000 AW at slave s=0 addr=0x00001000 len=3
UVM_INFO ./uvm/axi_slave_agent.sv(47) @ 3745000: uvm_test_top.env.slv_ag0 [TRACE] S[0] SLV AW handshake id=47 addr=0x00001000 len=3
[TRACE] 3745000 AW at slave s=0 addr=0x00001000 len=3
UVM_INFO ./uvm/axi_slave_agent.sv(47) @ 3755000: uvm_test_top.env.slv_ag0 [TRACE] S[0] SLV AW handshake id=47 addr=0x00001000 len=3
[TRACE] 3755000 AW at slave s=0 addr=0x00001000 len=3
UVM_INFO ./uvm/axi_slave_agent.sv(47) @ 3765000: uvm_test_top.env.slv_ag0 [TRACE] S[0] SLV AW handshake id=47 addr=0x00001000 len=3
[TRACE] 3765000 AW at slave s=0 addr=0x00001000 len=3
UVM_INFO ./uvm/axi_slave_agent.sv(47) @ 3775000: uvm_test_top.env.slv_ag0 [TRACE] S[0] SLV AW handshake id=47 addr=0x00001000 len=3
[TRACE] 3775000 AW at slave s=0 addr=0x00001000 len=3
UVM_INFO ./uvm/axi_slave_agent.sv(47) @ 3785000: uvm_test_top.env.slv_ag0 [TRACE] S[0] SLV AW handshake id=47 addr=0x00001000 len=3
[TRACE] 3785000 AW at slave s=0 addr=0x00001000 len=3
UVM_INFO ./uvm/axi_slave_agent.sv(47) @ 3795000: uvm_test_top.env.slv_ag0 [TRACE] S[0] SLV AW handshake id=47 addr=0x00001000 len=3
[TRACE] 3795000 AW at slave s=0 addr=0x00001000 len=3
UVM_INFO ./uvm/axi_slave_agent.sv(47) @ 3805000: uvm_test_top.env.slv_ag0 [TRACE] S[0] SLV AW handshake id=47 addr=0x00001000 len=3
[TRACE] 3805000 AW at slave s=0 addr=0x00001000 len=3
UVM_INFO ./uvm/axi_slave_agent.sv(47) @ 3815000: uvm_test_top.env.slv_ag0 [TRACE] S[0] SLV AW handshake id=47 addr=0x00001000 len=3
[TRACE] 3815000 AW at slave s=0 addr=0x00001000 len=3
UVM_INFO ./uvm/axi_slave_agent.sv(47) @ 3825000: uvm_test_top.env.slv_ag0 [TRACE] S[0] SLV AW handshake id=47 addr=0x00001000 len=3
[TRACE] 3825000 AW at slave s=0 addr=0x00001000 len=3
UVM_INFO ./uvm/axi_slave_agent.sv(47) @ 3835000: uvm_test_top.env.slv_ag0 [TRACE] S[0] SLV AW handshake id=47 addr=0x00001000 len=3
[TRACE] 3835000 AW at slave s=0 addr=0x00001000 len=3
UVM_INFO ./uvm/axi_slave_agent.sv(47) @ 3845000: uvm_test_top.env.slv_ag0 [TRACE] S[0] SLV AW handshake id=47 addr=0x00001000 len=3
[TRACE] 3845000 AW at slave s=0 addr=0x00001000 len=3
UVM_INFO ./uvm/axi_slave_agent.sv(47) @ 3855000: uvm_test_top.env.slv_ag0 [TRACE] S[0] SLV AW handshake id=47 addr=0x00001000 len=3
[TRACE] 3855000 AW at slave s=0 addr=0x00001000 len=3
UVM_INFO ./uvm/axi_slave_agent.sv(47) @ 3865000: uvm_test_top.env.slv_ag0 [TRACE] S[0] SLV AW handshake id=47 addr=0x00001000 len=3
[TRACE] 3865000 AW at slave s=0 addr=0x00001000 len=3
UVM_INFO ./uvm/axi_slave_agent.sv(47) @ 3875000: uvm_test_top.env.slv_ag0 [TRACE] S[0] SLV AW handshake id=47 addr=0x00001000 len=3
[TRACE] 3875000 AW at slave s=0 addr=0x00001000 len=3
UVM_INFO ./uvm/axi_slave_agent.sv(47) @ 3885000: uvm_test_top.env.slv_ag0 [TRACE] S[0] SLV AW handshake id=47 addr=0x00001000 len=3
[TRACE] 3885000 AW at slave s=0 addr=0x00001000 len=3
UVM_INFO ./uvm/axi_slave_agent.sv(47) @ 3895000: uvm_test_top.env.slv_ag0 [TRACE] S[0] SLV AW handshake id=47 addr=0x00001000 len=3
[TRACE] 3895000 AW at slave s=0 addr=0x00001000 len=3
UVM_INFO ./uvm/axi_slave_agent.sv(47) @ 3905000: uvm_test_top.env.slv_ag0 [TRACE] S[0] SLV AW handshake id=47 addr=0x00001000 len=3
[TRACE] 3905000 AW at slave s=0 addr=0x00001000 len=3
UVM_INFO ./uvm/axi_slave_agent.sv(47) @ 3915000: uvm_test_top.env.slv_ag0 [TRACE] S[0] SLV AW handshake id=47 addr=0x00001000 len=3
[TRACE] 3915000 AW at slave s=0 addr=0x00001000 len=3
UVM_INFO ./uvm/axi_slave_agent.sv(47) @ 3925000: uvm_test_top.env.slv_ag0 [TRACE] S[0] SLV AW handshake id=47 addr=0x00001000 len=3
[TRACE] 3925000 AW at slave s=0 addr=0x00001000 len=3
UVM_INFO ./uvm/axi_slave_agent.sv(47) @ 3935000: uvm_test_top.env.slv_ag0 [TRACE] S[0] SLV AW handshake id=47 addr=0x00001000 len=3
[TRACE] 3935000 AW at slave s=0 addr=0x00001000 len=3
UVM_INFO ./uvm/axi_slave_agent.sv(47) @ 3945000: uvm_test_top.env.slv_ag0 [TRACE] S[0] SLV AW handshake id=47 addr=0x00001000 len=3
[TRACE] 3945000 AW at slave s=0 addr=0x00001000 len=3
UVM_INFO ./uvm/axi_slave_agent.sv(47) @ 3955000: uvm_test_top.env.slv_ag0 [TRACE] S[0] SLV AW handshake id=47 addr=0x00001000 len=3
[TRACE] 3955000 AW at slave s=0 addr=0x00001000 len=3
UVM_INFO ./uvm/axi_slave_agent.sv(47) @ 3965000: uvm_test_top.env.slv_ag0 [TRACE] S[0] SLV AW handshake id=47 addr=0x00001000 len=3
[TRACE] 3965000 AW at slave s=0 addr=0x00001000 len=3
UVM_INFO ./uvm/axi_slave_agent.sv(47) @ 3975000: uvm_test_top.env.slv_ag0 [TRACE] S[0] SLV AW handshake id=47 addr=0x00001000 len=3
[TRACE] 3975000 AW at slave s=0 addr=0x00001000 len=3
UVM_INFO ./uvm/axi_slave_agent.sv(47) @ 3985000: uvm_test_top.env.slv_ag0 [TRACE] S[0] SLV AW handshake id=47 addr=0x00001000 len=3
[TRACE] 3985000 AW at slave s=0 addr=0x00001000 len=3
UVM_INFO ./uvm/axi_slave_agent.sv(47) @ 3995000: uvm_test_top.env.slv_ag0 [TRACE] S[0] SLV AW handshake id=47 addr=0x00001000 len=3
[TRACE] 3995000 AW at slave s=0 addr=0x00001000 len=3
UVM_INFO ./uvm/axi_slave_agent.sv(47) @ 4005000: uvm_test_top.env.slv_ag0 [TRACE] S[0] SLV AW handshake id=47 addr=0x00001000 len=3
[TRACE] 4005000 AW at slave s=0 addr=0x00001000 len=3
UVM_INFO ./uvm/axi_slave_agent.sv(47) @ 4015000: uvm_test_top.env.slv_ag0 [TRACE] S[0] SLV AW handshake id=47 addr=0x00001000 len=3
[TRACE] 4015000 AW at slave s=0 addr=0x00001000 len=3
UVM_INFO ./uvm/axi_slave_agent.sv(47) @ 4025000: uvm_test_top.env.slv_ag0 [TRACE] S[0] SLV AW handshake id=47 addr=0x00001000 len=3
[TRACE] 4025000 AW at slave s=0 addr=0x00001000 len=3
UVM_INFO ./uvm/axi_slave_agent.sv(47) @ 4035000: uvm_test_top.env.slv_ag0 [TRACE] S[0] SLV AW handshake id=47 addr=0x00001000 len=3
[TRACE] 4035000 AW at slave s=0 addr=0x00001000 len=3
UVM_INFO ./uvm/axi_slave_agent.sv(47) @ 4045000: uvm_test_top.env.slv_ag0 [TRACE] S[0] SLV AW handshake id=47 addr=0x00001000 len=3
[TRACE] 4045000 AW at slave s=0 addr=0x00001000 len=3
UVM_INFO ./uvm/axi_slave_agent.sv(47) @ 4055000: uvm_test_top.env.slv_ag0 [TRACE] S[0] SLV AW handshake id=47 addr=0x00001000 len=3
[TRACE] 4055000 AW at slave s=0 addr=0x00001000 len=3
UVM_INFO ./uvm/axi_slave_agent.sv(47) @ 4065000: uvm_test_top.env.slv_ag0 [TRACE] S[0] SLV AW handshake id=47 addr=0x00001000 len=3
[TRACE] 4065000 AW at slave s=0 addr=0x00001000 len=3
UVM_INFO ./uvm/axi_slave_agent.sv(47) @ 4075000: uvm_test_top.env.slv_ag0 [TRACE] S[0] SLV AW handshake id=47 addr=0x00001000 len=3
[TRACE] 4075000 AW at slave s=0 addr=0x00001000 len=3
UVM_INFO ./uvm/axi_slave_agent.sv(47) @ 4085000: uvm_test_top.env.slv_ag0 [TRACE] S[0] SLV AW handshake id=47 addr=0x00001000 len=3
[TRACE] 4085000 AW at slave s=0 addr=0x00001000 len=3
UVM_INFO ./uvm/axi_slave_agent.sv(47) @ 4095000: uvm_test_top.env.slv_ag0 [TRACE] S[0] SLV AW handshake id=47 addr=0x00001000 len=3
[TRACE] 4095000 AW at slave s=0 addr=0x00001000 len=3
UVM_INFO ./uvm/axi_slave_agent.sv(47) @ 4105000: uvm_test_top.env.slv_ag0 [TRACE] S[0] SLV AW handshake id=47 addr=0x00001000 len=3
[TRACE] 4105000 AW at slave s=0 addr=0x00001000 len=3
