Command: vcs -q -full64 -sverilog -f ./list/flist.f -R +v2k -debug_access+all -timescale=1ns/1ps \
-fsdb +define+FSDB -l com.log +lint=TFIPC-L +lint=PCWM -ntb_opts uvm-1.2 +UVM_TESTNAME=arb_test \


Warning-[IPDW] Identifier previously declared
./rtl/axi_interconnect.v, 762
  Second declaration for identifier 'clr_last_packed' ignored
  Identifier 'clr_last_packed' previously declared as wire. 
  [./rtl/axi_interconnect.v, 669]


Warning-[IPDW] Identifier previously declared
./rtl/axi_interconnect.v, 763
  Second declaration for identifier 'clr_sid_packed' ignored
  Identifier 'clr_sid_packed' previously declared as wire. 
  [./rtl/axi_interconnect.v, 670]


Warning-[IPDW] Identifier previously declared
./rtl/axi_interconnect.v, 764
  Second declaration for identifier 'clr_sid_vld_packed' ignored
  Identifier 'clr_sid_vld_packed' previously declared as wire. 
  [./rtl/axi_interconnect.v, 671]


Warning-[IPDW] Identifier previously declared
./rtl/axi_interconnect.v, 765
  Second declaration for identifier 'sid_buf_s_clr_rdy' ignored
  Identifier 'sid_buf_s_clr_rdy' previously declared as wire. 
  [./rtl/axi_interconnect.v, 672]


Warning-[AOUP] Attempt to override undefined parameter
./uvm/tb_top.sv, 27
  Attempting to override undefined parameter "DEFAULT_SLV_EN", will ignore it.

Notice: Ports coerced to inout, use -notice for details
20 modules and 0 UDP read.
make[1]: Entering directory '/home/ICer/project/axi4/csrc'
g++ -w  -pipe -DVCS -DUVM_DPI_DO_TYPE_CHECK -fPIC -O -I/home/synopsys/vcs/O-2018.09-SP2/include \
-c /home/synopsys/vcs/O-2018.09-SP2/etc/uvm-1.2/dpi/uvm_dpi.cc
g++ -w  -pipe -DVCS -DUVM_DPI_DO_TYPE_CHECK -fPIC -O -I/home/synopsys/vcs/O-2018.09-SP2/include \
-c /home/synopsys/vcs/O-2018.09-SP2/etc/uvm-1.2/verdi/dpi/uvm_verdi_dpi.cpp
../simv up to date
make[1]: Leaving directory '/home/ICer/project/axi4/csrc'
Command: /home/ICer/project/axi4/./simv -q +v2k +define+FSDB -a com.log +lint=TFIPC-L +lint=PCWM +UVM_TESTNAME=arb_test
UVM_INFO /home/synopsys/vcs/O-2018.09-SP2/etc/uvm-1.2/base/uvm_root.svh(402) @ 0: reporter [UVM/RELNOTES] 
----------------------------------------------------------------
UVM-1.2.Synopsys
(C) 2007-2014 Mentor Graphics Corporation
(C) 2007-2014 Cadence Design Systems, Inc.
(C) 2006-2014 Synopsys, Inc.
(C) 2011-2013 Cypress Semiconductor Corp.
(C) 2013-2014 NVIDIA Corporation
----------------------------------------------------------------

  ***********       IMPORTANT RELEASE NOTES         ************

  You are using a version of the UVM library that has been compiled
  with `UVM_NO_DEPRECATED undefined.
  See http://www.eda.org/svdb/view.php?id=3313 for more details.

  You are using a version of the UVM library that has been compiled
  with `UVM_OBJECT_DO_NOT_NEED_CONSTRUCTOR undefined.
  See http://www.eda.org/svdb/view.php?id=3770 for more details.

      (Specify +UVM_NO_RELNOTES to turn off this notice)

*Verdi* Loading libsscore_vcs201809.so
FSDB Dumper for VCS, Release Verdi_O-2018.09-SP2, Linux x86_64/64bit, 02/21/2019
(C) 1996 - 2019 by Synopsys, Inc.
*Verdi* : Create FSDB file 'tb_top.fsdb'
*Verdi* : Begin traversing the scope (tb_top), layer (0).
*Verdi* : End of traversing.
*Verdi* : Begin traversing the MDAs, layer (0).
*Verdi* : Enable +mda and +packedmda dumping.
*Verdi* : End of traversing the MDAs.
UVM_INFO /home/synopsys/vcs/O-2018.09-SP2/etc/uvm-1.2/base/uvm_root.svh(463) @ 0: reporter [NO_DPI_TSTNAME] UVM_NO_DPI defined--getting UVM_TESTNAME directly, without DPI
UVM_INFO @ 0: reporter [RNTST] Running test arb_test...
UVM_INFO /home/synopsys/vcs/O-2018.09-SP2/etc/uvm-1.2/base/uvm_root.svh(589) @ 0: reporter [UVMTOP] UVM testbench topology:
------------------------------------------------------------------
Name                       Type                        Size  Value
------------------------------------------------------------------
uvm_test_top               arb_test                    -     @343 
  env                      axi_env                     -     @356 
    cov                    axi_cov                     -     @456 
      ar_ap                uvm_analysis_export         -     @484 
      ar_fifo              uvm_tlm_analysis_fifo #(T)  -     @573 
        analysis_export    uvm_analysis_imp            -     @622 
        get_ap             uvm_analysis_port           -     @612 
        get_peek_export    uvm_get_peek_imp            -     @592 
        put_ap             uvm_analysis_port           -     @602 
        put_export         uvm_put_imp                 -     @582 
      aw_ap                uvm_analysis_export         -     @474 
      aw_fifo              uvm_tlm_analysis_fifo #(T)  -     @514 
        analysis_export    uvm_analysis_imp            -     @563 
        get_ap             uvm_analysis_port           -     @553 
        get_peek_export    uvm_get_peek_imp            -     @533 
        put_ap             uvm_analysis_port           -     @543 
        put_export         uvm_put_imp                 -     @523 
      b_ap                 uvm_analysis_export         -     @494 
      b_fifo               uvm_tlm_analysis_fifo #(T)  -     @632 
        analysis_export    uvm_analysis_imp            -     @681 
        get_ap             uvm_analysis_port           -     @671 
        get_peek_export    uvm_get_peek_imp            -     @651 
        put_ap             uvm_analysis_port           -     @661 
        put_export         uvm_put_imp                 -     @641 
      r_ap                 uvm_analysis_export         -     @504 
      r_fifo               uvm_tlm_analysis_fifo #(T)  -     @691 
        analysis_export    uvm_analysis_imp            -     @740 
        get_ap             uvm_analysis_port           -     @730 
        get_peek_export    uvm_get_peek_imp            -     @710 
        put_ap             uvm_analysis_port           -     @720 
        put_export         uvm_put_imp                 -     @700 
    mst_ag0                axi_master_agent            -     @366 
      drv_m0               axi_driver                  -     @888 
        rsp_port           uvm_analysis_port           -     @907 
        seq_item_port      uvm_seq_item_pull_port      -     @897 
      mon_m0               axi_monitor                 -     @917 
        ap_ar              uvm_analysis_port           -     @956 
        ap_aw              uvm_analysis_port           -     @926 
        ap_b               uvm_analysis_port           -     @946 
        ap_r               uvm_analysis_port           -     @966 
        ap_w               uvm_analysis_port           -     @936 
      sqr_m0               axi_sequencer               -     @751 
        rsp_export         uvm_analysis_export         -     @760 
        seq_item_export    uvm_seq_item_pull_imp       -     @878 
        arbitration_queue  array                       0     -    
        lock_queue         array                       0     -    
        num_last_reqs      integral                    32    'd1  
        num_last_rsps      integral                    32    'd1  
    mst_ag1                axi_master_agent            -     @384 
      drv_m1               axi_driver                  -     @1119
        rsp_port           uvm_analysis_port           -     @1138
        seq_item_port      uvm_seq_item_pull_port      -     @1128
      mon_m1               axi_monitor                 -     @1148
        ap_ar              uvm_analysis_port           -     @1187
        ap_aw              uvm_analysis_port           -     @1157
        ap_b               uvm_analysis_port           -     @1177
        ap_r               uvm_analysis_port           -     @1197
        ap_w               uvm_analysis_port           -     @1167
      sqr_m1               axi_sequencer               -     @982 
        rsp_export         uvm_analysis_export         -     @991 
        seq_item_export    uvm_seq_item_pull_imp       -     @1109
        arbitration_queue  array                       0     -    
        lock_queue         array                       0     -    
        num_last_reqs      integral                    32    'd1  
        num_last_rsps      integral                    32    'd1  
    mst_ag2                axi_master_agent            -     @402 
      drv_m2               axi_driver                  -     @1350
        rsp_port           uvm_analysis_port           -     @1369
        seq_item_port      uvm_seq_item_pull_port      -     @1359
      mon_m2               axi_monitor                 -     @1379
        ap_ar              uvm_analysis_port           -     @1418
        ap_aw              uvm_analysis_port           -     @1388
        ap_b               uvm_analysis_port           -     @1408
        ap_r               uvm_analysis_port           -     @1428
        ap_w               uvm_analysis_port           -     @1398
      sqr_m2               axi_sequencer               -     @1213
        rsp_export         uvm_analysis_export         -     @1222
        seq_item_export    uvm_seq_item_pull_imp       -     @1340
        arbitration_queue  array                       0     -    
        lock_queue         array                       0     -    
        num_last_reqs      integral                    32    'd1  
        num_last_rsps      integral                    32    'd1  
    mst_ag3                axi_master_agent            -     @420 
      drv_m3               axi_driver                  -     @1581
        rsp_port           uvm_analysis_port           -     @1600
        seq_item_port      uvm_seq_item_pull_port      -     @1590
      mon_m3               axi_monitor                 -     @1610
        ap_ar              uvm_analysis_port           -     @1649
        ap_aw              uvm_analysis_port           -     @1619
        ap_b               uvm_analysis_port           -     @1639
        ap_r               uvm_analysis_port           -     @1659
        ap_w               uvm_analysis_port           -     @1629
      sqr_m3               axi_sequencer               -     @1444
        rsp_export         uvm_analysis_export         -     @1453
        seq_item_export    uvm_seq_item_pull_imp       -     @1571
        arbitration_queue  array                       0     -    
        lock_queue         array                       0     -    
        num_last_reqs      integral                    32    'd1  
        num_last_rsps      integral                    32    'd1  
    proto_chk              axi_protocol_checker        -     @465 
      ar_ap                uvm_analysis_export         -     @1704
      ar_fifo              uvm_tlm_analysis_fifo #(T)  -     @1901
        analysis_export    uvm_analysis_imp            -     @1950
        get_ap             uvm_analysis_port           -     @1940
        get_peek_export    uvm_get_peek_imp            -     @1920
        put_ap             uvm_analysis_port           -     @1930
        put_export         uvm_put_imp                 -     @1910
      aw_ap                uvm_analysis_export         -     @1674
      aw_fifo              uvm_tlm_analysis_fifo #(T)  -     @1724
        analysis_export    uvm_analysis_imp            -     @1773
        get_ap             uvm_analysis_port           -     @1763
        get_peek_export    uvm_get_peek_imp            -     @1743
        put_ap             uvm_analysis_port           -     @1753
        put_export         uvm_put_imp                 -     @1733
      b_ap                 uvm_analysis_export         -     @1694
      b_fifo               uvm_tlm_analysis_fifo #(T)  -     @1842
        analysis_export    uvm_analysis_imp            -     @1891
        get_ap             uvm_analysis_port           -     @1881
        get_peek_export    uvm_get_peek_imp            -     @1861
        put_ap             uvm_analysis_port           -     @1871
        put_export         uvm_put_imp                 -     @1851
      r_ap                 uvm_analysis_export         -     @1714
      r_fifo               uvm_tlm_analysis_fifo #(T)  -     @1960
        analysis_export    uvm_analysis_imp            -     @2009
        get_ap             uvm_analysis_port           -     @1999
        get_peek_export    uvm_get_peek_imp            -     @1979
        put_ap             uvm_analysis_port           -     @1989
        put_export         uvm_put_imp                 -     @1969
      w_ap                 uvm_analysis_export         -     @1684
      w_fifo               uvm_tlm_analysis_fifo #(T)  -     @1783
        analysis_export    uvm_analysis_imp            -     @1832
        get_ap             uvm_analysis_port           -     @1822
        get_peek_export    uvm_get_peek_imp            -     @1802
        put_ap             uvm_analysis_port           -     @1812
        put_export         uvm_put_imp                 -     @1792
    refm                   reference_model             -     @447 
      ar_ap                uvm_analysis_export         -     @2029
      ar_fifo              uvm_tlm_analysis_fifo #(T)  -     @2098
        analysis_export    uvm_analysis_imp            -     @2147
        get_ap             uvm_analysis_port           -     @2137
        get_peek_export    uvm_get_peek_imp            -     @2117
        put_ap             uvm_analysis_port           -     @2127
        put_export         uvm_put_imp                 -     @2107
      aw_ap                uvm_analysis_export         -     @2019
      aw_fifo              uvm_tlm_analysis_fifo #(T)  -     @2039
        analysis_export    uvm_analysis_imp            -     @2088
        get_ap             uvm_analysis_port           -     @2078
        get_peek_export    uvm_get_peek_imp            -     @2058
        put_ap             uvm_analysis_port           -     @2068
        put_export         uvm_put_imp                 -     @2048
      pred_ar_ap           uvm_analysis_port           -     @2167
      pred_aw_ap           uvm_analysis_port           -     @2157
    sb                     axi_scoreboard              -     @438 
      ar_d_fifo            uvm_tlm_analysis_fifo #(T)  -     @2660
        analysis_export    uvm_analysis_imp            -     @2709
        get_ap             uvm_analysis_port           -     @2699
        get_peek_export    uvm_get_peek_imp            -     @2679
        put_ap             uvm_analysis_port           -     @2689
        put_export         uvm_put_imp                 -     @2669
      ar_imp               uvm_analysis_imp_ar         -     @2207
      ar_p_fifo            uvm_tlm_analysis_fifo #(T)  -     @2719
        analysis_export    uvm_analysis_imp            -     @2768
        get_ap             uvm_analysis_port           -     @2758
        get_peek_export    uvm_get_peek_imp            -     @2738
        put_ap             uvm_analysis_port           -     @2748
        put_export         uvm_put_imp                 -     @2728
      ar_r_fifo            uvm_tlm_analysis_fifo #(T)  -     @2601
        analysis_export    uvm_analysis_imp            -     @2650
        get_ap             uvm_analysis_port           -     @2640
        get_peek_export    uvm_get_peek_imp            -     @2620
        put_ap             uvm_analysis_port           -     @2630
        put_export         uvm_put_imp                 -     @2610
      aw_d_fifo            uvm_tlm_analysis_fifo #(T)  -     @2306
        analysis_export    uvm_analysis_imp            -     @2355
        get_ap             uvm_analysis_port           -     @2345
        get_peek_export    uvm_get_peek_imp            -     @2325
        put_ap             uvm_analysis_port           -     @2335
        put_export         uvm_put_imp                 -     @2315
      aw_imp               uvm_analysis_imp_aw         -     @2177
      aw_p_fifo            uvm_tlm_analysis_fifo #(T)  -     @2365
        analysis_export    uvm_analysis_imp            -     @2414
        get_ap             uvm_analysis_port           -     @2404
        get_peek_export    uvm_get_peek_imp            -     @2384
        put_ap             uvm_analysis_port           -     @2394
        put_export         uvm_put_imp                 -     @2374
      aw_r_fifo            uvm_tlm_analysis_fifo #(T)  -     @2247
        analysis_export    uvm_analysis_imp            -     @2296
        get_ap             uvm_analysis_port           -     @2286
        get_peek_export    uvm_get_peek_imp            -     @2266
        put_ap             uvm_analysis_port           -     @2276
        put_export         uvm_put_imp                 -     @2256
      b_imp                uvm_analysis_imp_b          -     @2197
      b_p_fifo             uvm_tlm_analysis_fifo #(T)  -     @2542
        analysis_export    uvm_analysis_imp            -     @2591
        get_ap             uvm_analysis_port           -     @2581
        get_peek_export    uvm_get_peek_imp            -     @2561
        put_ap             uvm_analysis_port           -     @2571
        put_export         uvm_put_imp                 -     @2551
      r_d_fifo             uvm_tlm_analysis_fifo #(T)  -     @2778
        analysis_export    uvm_analysis_imp            -     @2827
        get_ap             uvm_analysis_port           -     @2817
        get_peek_export    uvm_get_peek_imp            -     @2797
        put_ap             uvm_analysis_port           -     @2807
        put_export         uvm_put_imp                 -     @2787
      r_imp                uvm_analysis_imp_r          -     @2217
      r_p_fifo             uvm_tlm_analysis_fifo #(T)  -     @2837
        analysis_export    uvm_analysis_imp            -     @2886
        get_ap             uvm_analysis_port           -     @2876
        get_peek_export    uvm_get_peek_imp            -     @2856
        put_ap             uvm_analysis_port           -     @2866
        put_export         uvm_put_imp                 -     @2846
      slv_ar_fifo          uvm_tlm_analysis_fifo #(T)  -     @2955
        analysis_export    uvm_analysis_imp            -     @3004
        get_ap             uvm_analysis_port           -     @2994
        get_peek_export    uvm_get_peek_imp            -     @2974
        put_ap             uvm_analysis_port           -     @2984
        put_export         uvm_put_imp                 -     @2964
      slv_ar_imp           uvm_analysis_imp_slv_ar     -     @2237
      slv_aw_fifo          uvm_tlm_analysis_fifo #(T)  -     @2896
        analysis_export    uvm_analysis_imp            -     @2945
        get_ap             uvm_analysis_port           -     @2935
        get_peek_export    uvm_get_peek_imp            -     @2915
        put_ap             uvm_analysis_port           -     @2925
        put_export         uvm_put_imp                 -     @2905
      slv_aw_imp           uvm_analysis_imp_slv_aw     -     @2227
      w_d_fifo             uvm_tlm_analysis_fifo #(T)  -     @2424
        analysis_export    uvm_analysis_imp            -     @2473
        get_ap             uvm_analysis_port           -     @2463
        get_peek_export    uvm_get_peek_imp            -     @2443
        put_ap             uvm_analysis_port           -     @2453
        put_export         uvm_put_imp                 -     @2433
      w_imp                uvm_analysis_imp_w          -     @2187
      w_p_fifo             uvm_tlm_analysis_fifo #(T)  -     @2483
        analysis_export    uvm_analysis_imp            -     @2532
        get_ap             uvm_analysis_port           -     @2522
        get_peek_export    uvm_get_peek_imp            -     @2502
        put_ap             uvm_analysis_port           -     @2512
        put_export         uvm_put_imp                 -     @2492
    slv_ag0                axi_slave_agent             -     @375 
      mon_s0               axi_monitor                 -     @3015
        ap_ar              uvm_analysis_port           -     @3054
        ap_aw              uvm_analysis_port           -     @3024
        ap_b               uvm_analysis_port           -     @3044
        ap_r               uvm_analysis_port           -     @3064
        ap_w               uvm_analysis_port           -     @3034
    slv_ag1                axi_slave_agent             -     @393 
      mon_s1               axi_monitor                 -     @3075
        ap_ar              uvm_analysis_port           -     @3114
        ap_aw              uvm_analysis_port           -     @3084
        ap_b               uvm_analysis_port           -     @3104
        ap_r               uvm_analysis_port           -     @3124
        ap_w               uvm_analysis_port           -     @3094
    slv_ag2                axi_slave_agent             -     @411 
      mon_s2               axi_monitor                 -     @3135
        ap_ar              uvm_analysis_port           -     @3174
        ap_aw              uvm_analysis_port           -     @3144
        ap_b               uvm_analysis_port           -     @3164
        ap_r               uvm_analysis_port           -     @3184
        ap_w               uvm_analysis_port           -     @3154
    slv_ag3                axi_slave_agent             -     @429 
      mon_s3               axi_monitor                 -     @3195
        ap_ar              uvm_analysis_port           -     @3234
        ap_aw              uvm_analysis_port           -     @3204
        ap_b               uvm_analysis_port           -     @3224
        ap_r               uvm_analysis_port           -     @3244
        ap_w               uvm_analysis_port           -     @3214
------------------------------------------------------------------

UVM_INFO /home/synopsys/vcs/O-2018.09-SP2/etc/uvm-1.2/base/uvm_traversal.svh(279) @ 0: reporter [UVM/COMP/NAMECHECK] This implementation of the component name checks requires DPI to be enabled
UVM_INFO ./uvm/axi_driver.sv(22) @ 195000: uvm_test_top.env.mst_ag0.drv_m0 [DRIVER] M[0] driving: WR id=0 addr=0x00000100 len=0 size=2 burst=1 mst=0 slv=0
UVM_INFO ./uvm/axi_driver.sv(43) @ 200000: uvm_test_top.env.mst_ag0.drv_m0 [TRACE] M[0] DRV AW start addr=0x00000100 len=0
UVM_INFO ./uvm/axi_driver.sv(46) @ 205000: uvm_test_top.env.mst_ag0.drv_m0 [TRACE] M[0] DRV AW handshake done
UVM_INFO ./uvm/axi_driver.sv(57) @ 220000: uvm_test_top.env.mst_ag0.drv_m0 [TRACE] M[0] DRV W beat 0/0 last=1
UVM_INFO ./uvm/axi_slave_agent.sv(49) @ 225000: uvm_test_top.env.slv_ag0 [TRACE] S[0] SLV AW handshake id=0 addr=0x00000100 len=0
[TRACE_C4K] 225000 W m_vld=1 m_rdy=1 s_vld=1 s_rdy=1 slast=1
UVM_INFO ./uvm/axi_driver.sv(65) @ 230000: uvm_test_top.env.mst_ag0.drv_m0 [TRACE] M[0] DRV B wait
UVM_INFO ./uvm/axi_slave_agent.sv(69) @ 255000: uvm_test_top.env.slv_ag0 [TRACE] S[0] SLV W beat data=0x50b9dbbd last=1
UVM_INFO ./uvm/axi_slave_agent.sv(94) @ 255000: uvm_test_top.env.slv_ag0 [TRACE] S[0] SLV B start id=0 exp=1 act=1
UVM_INFO ./uvm/axi_driver.sv(72) @ 290000: uvm_test_top.env.mst_ag0.drv_m0 [TRACE] M[0] DRV B resp=0
UVM_INFO ./uvm/axi_driver.sv(22) @ 290000: uvm_test_top.env.mst_ag1.drv_m1 [DRIVER] M[1] driving: WR id=0 addr=0x00000100 len=7 size=2 burst=0 mst=1 slv=0
UVM_INFO ./uvm/axi_driver.sv(43) @ 300000: uvm_test_top.env.mst_ag1.drv_m1 [TRACE] M[1] DRV AW start addr=0x00000100 len=7
UVM_INFO ./uvm/axi_driver.sv(46) @ 305000: uvm_test_top.env.mst_ag1.drv_m1 [TRACE] M[1] DRV AW handshake done
UVM_INFO ./uvm/axi_driver.sv(57) @ 320000: uvm_test_top.env.mst_ag1.drv_m1 [TRACE] M[1] DRV W beat 0/7 last=0
UVM_INFO ./uvm/axi_slave_agent.sv(49) @ 325000: uvm_test_top.env.slv_ag0 [TRACE] S[0] SLV AW handshake id=64 addr=0x00000100 len=7
[TRACE_C4K] 325000 W m_vld=1 m_rdy=1 s_vld=1 s_rdy=1 slast=0
UVM_INFO ./uvm/axi_driver.sv(57) @ 340000: uvm_test_top.env.mst_ag1.drv_m1 [TRACE] M[1] DRV W beat 1/7 last=0
[TRACE_C4K] 345000 W m_vld=1 m_rdy=1 s_vld=1 s_rdy=1 slast=0
UVM_INFO ./uvm/axi_slave_agent.sv(69) @ 355000: uvm_test_top.env.slv_ag0 [TRACE] S[0] SLV W beat data=0xb9c65bf3 last=0
UVM_INFO ./uvm/axi_driver.sv(57) @ 360000: uvm_test_top.env.mst_ag1.drv_m1 [TRACE] M[1] DRV W beat 2/7 last=0
[TRACE_C4K] 365000 W m_vld=1 m_rdy=1 s_vld=1 s_rdy=1 slast=0
UVM_INFO ./uvm/axi_slave_agent.sv(69) @ 375000: uvm_test_top.env.slv_ag0 [TRACE] S[0] SLV W beat data=0x825e0199 last=0
UVM_INFO ./uvm/axi_driver.sv(57) @ 380000: uvm_test_top.env.mst_ag1.drv_m1 [TRACE] M[1] DRV W beat 3/7 last=0
[TRACE_C4K] 385000 W m_vld=1 m_rdy=1 s_vld=1 s_rdy=1 slast=0
UVM_INFO ./uvm/axi_slave_agent.sv(69) @ 395000: uvm_test_top.env.slv_ag0 [TRACE] S[0] SLV W beat data=0xaf7682b4 last=0
UVM_INFO ./uvm/axi_driver.sv(57) @ 400000: uvm_test_top.env.mst_ag1.drv_m1 [TRACE] M[1] DRV W beat 4/7 last=0
[TRACE_C4K] 405000 W m_vld=1 m_rdy=1 s_vld=1 s_rdy=1 slast=0
UVM_INFO ./uvm/axi_slave_agent.sv(69) @ 415000: uvm_test_top.env.slv_ag0 [TRACE] S[0] SLV W beat data=0x706def0d last=0
UVM_INFO ./uvm/axi_driver.sv(57) @ 420000: uvm_test_top.env.mst_ag1.drv_m1 [TRACE] M[1] DRV W beat 5/7 last=0
[TRACE_C4K] 425000 W m_vld=1 m_rdy=1 s_vld=1 s_rdy=1 slast=0
UVM_INFO ./uvm/axi_slave_agent.sv(69) @ 435000: uvm_test_top.env.slv_ag0 [TRACE] S[0] SLV W beat data=0xfd697b69 last=0
UVM_INFO ./uvm/axi_driver.sv(57) @ 440000: uvm_test_top.env.mst_ag1.drv_m1 [TRACE] M[1] DRV W beat 6/7 last=0
[TRACE_C4K] 445000 W m_vld=1 m_rdy=1 s_vld=1 s_rdy=1 slast=0
UVM_INFO ./uvm/axi_slave_agent.sv(69) @ 455000: uvm_test_top.env.slv_ag0 [TRACE] S[0] SLV W beat data=0x6d5f8a5c last=0
UVM_INFO ./uvm/axi_driver.sv(57) @ 460000: uvm_test_top.env.mst_ag1.drv_m1 [TRACE] M[1] DRV W beat 7/7 last=1
[TRACE_C4K] 465000 W m_vld=1 m_rdy=1 s_vld=1 s_rdy=1 slast=1
UVM_INFO ./uvm/axi_driver.sv(65) @ 470000: uvm_test_top.env.mst_ag1.drv_m1 [TRACE] M[1] DRV B wait
UVM_INFO ./uvm/axi_slave_agent.sv(69) @ 475000: uvm_test_top.env.slv_ag0 [TRACE] S[0] SLV W beat data=0x4c2fa7d4 last=0
UVM_INFO ./uvm/axi_slave_agent.sv(69) @ 495000: uvm_test_top.env.slv_ag0 [TRACE] S[0] SLV W beat data=0x8802279b last=1
UVM_INFO ./uvm/axi_slave_agent.sv(94) @ 495000: uvm_test_top.env.slv_ag0 [TRACE] S[0] SLV B start id=0 exp=8 act=8
UVM_INFO ./uvm/axi_driver.sv(72) @ 530000: uvm_test_top.env.mst_ag1.drv_m1 [TRACE] M[1] DRV B resp=0
UVM_INFO ./uvm/axi_driver.sv(22) @ 530000: uvm_test_top.env.mst_ag2.drv_m2 [DRIVER] M[2] driving: WR id=0 addr=0x00000100 len=13 size=2 burst=0 mst=2 slv=0
UVM_INFO ./uvm/axi_driver.sv(43) @ 540000: uvm_test_top.env.mst_ag2.drv_m2 [TRACE] M[2] DRV AW start addr=0x00000100 len=13
UVM_INFO ./uvm/axi_driver.sv(46) @ 545000: uvm_test_top.env.mst_ag2.drv_m2 [TRACE] M[2] DRV AW handshake done
UVM_INFO ./uvm/axi_driver.sv(57) @ 560000: uvm_test_top.env.mst_ag2.drv_m2 [TRACE] M[2] DRV W beat 0/13 last=0
UVM_INFO ./uvm/axi_slave_agent.sv(49) @ 565000: uvm_test_top.env.slv_ag0 [TRACE] S[0] SLV AW handshake id=128 addr=0x00000100 len=13
[TRACE_C4K] 565000 W m_vld=1 m_rdy=1 s_vld=1 s_rdy=1 slast=0
UVM_INFO ./uvm/axi_driver.sv(57) @ 580000: uvm_test_top.env.mst_ag2.drv_m2 [TRACE] M[2] DRV W beat 1/13 last=0
[TRACE_C4K] 585000 W m_vld=1 m_rdy=1 s_vld=1 s_rdy=1 slast=0
UVM_INFO ./uvm/axi_slave_agent.sv(69) @ 595000: uvm_test_top.env.slv_ag0 [TRACE] S[0] SLV W beat data=0x83806598 last=0
UVM_INFO ./uvm/axi_driver.sv(57) @ 600000: uvm_test_top.env.mst_ag2.drv_m2 [TRACE] M[2] DRV W beat 2/13 last=0
[TRACE_C4K] 605000 W m_vld=1 m_rdy=1 s_vld=1 s_rdy=1 slast=0
UVM_INFO ./uvm/axi_slave_agent.sv(69) @ 615000: uvm_test_top.env.slv_ag0 [TRACE] S[0] SLV W beat data=0x6d870e5d last=0
UVM_INFO ./uvm/axi_driver.sv(57) @ 620000: uvm_test_top.env.mst_ag2.drv_m2 [TRACE] M[2] DRV W beat 3/13 last=0
[TRACE_C4K] 625000 W m_vld=1 m_rdy=1 s_vld=1 s_rdy=1 slast=0
UVM_INFO ./uvm/axi_slave_agent.sv(69) @ 635000: uvm_test_top.env.slv_ag0 [TRACE] S[0] SLV W beat data=0x299d6e9a last=0
UVM_INFO ./uvm/axi_driver.sv(57) @ 640000: uvm_test_top.env.mst_ag2.drv_m2 [TRACE] M[2] DRV W beat 4/13 last=0
[TRACE_C4K] 645000 W m_vld=1 m_rdy=1 s_vld=1 s_rdy=1 slast=0
UVM_INFO ./uvm/axi_slave_agent.sv(69) @ 655000: uvm_test_top.env.slv_ag0 [TRACE] S[0] SLV W beat data=0x959abba2 last=0
UVM_INFO ./uvm/axi_driver.sv(57) @ 660000: uvm_test_top.env.mst_ag2.drv_m2 [TRACE] M[2] DRV W beat 5/13 last=0
[TRACE_C4K] 665000 W m_vld=1 m_rdy=1 s_vld=1 s_rdy=1 slast=0
UVM_INFO ./uvm/axi_slave_agent.sv(69) @ 675000: uvm_test_top.env.slv_ag0 [TRACE] S[0] SLV W beat data=0x99651487 last=0
UVM_INFO ./uvm/axi_driver.sv(57) @ 680000: uvm_test_top.env.mst_ag2.drv_m2 [TRACE] M[2] DRV W beat 6/13 last=0
[TRACE_C4K] 685000 W m_vld=1 m_rdy=1 s_vld=1 s_rdy=1 slast=0
UVM_INFO ./uvm/axi_slave_agent.sv(69) @ 695000: uvm_test_top.env.slv_ag0 [TRACE] S[0] SLV W beat data=0xb2be55a2 last=0
UVM_INFO ./uvm/axi_driver.sv(57) @ 700000: uvm_test_top.env.mst_ag2.drv_m2 [TRACE] M[2] DRV W beat 7/13 last=0
[TRACE_C4K] 705000 W m_vld=1 m_rdy=1 s_vld=1 s_rdy=1 slast=0
UVM_INFO ./uvm/axi_slave_agent.sv(69) @ 715000: uvm_test_top.env.slv_ag0 [TRACE] S[0] SLV W beat data=0x7d6fb122 last=0
UVM_INFO ./uvm/axi_driver.sv(57) @ 720000: uvm_test_top.env.mst_ag2.drv_m2 [TRACE] M[2] DRV W beat 8/13 last=0
[TRACE_C4K] 725000 W m_vld=1 m_rdy=1 s_vld=1 s_rdy=1 slast=0
UVM_INFO ./uvm/axi_slave_agent.sv(69) @ 735000: uvm_test_top.env.slv_ag0 [TRACE] S[0] SLV W beat data=0xf3b88c68 last=0
UVM_INFO ./uvm/axi_driver.sv(57) @ 740000: uvm_test_top.env.mst_ag2.drv_m2 [TRACE] M[2] DRV W beat 9/13 last=0
[TRACE_C4K] 745000 W m_vld=1 m_rdy=1 s_vld=1 s_rdy=1 slast=0
UVM_INFO ./uvm/axi_slave_agent.sv(69) @ 755000: uvm_test_top.env.slv_ag0 [TRACE] S[0] SLV W beat data=0x78160743 last=0
UVM_INFO ./uvm/axi_driver.sv(57) @ 760000: uvm_test_top.env.mst_ag2.drv_m2 [TRACE] M[2] DRV W beat 10/13 last=0
[TRACE_C4K] 765000 W m_vld=1 m_rdy=1 s_vld=1 s_rdy=1 slast=0
UVM_INFO ./uvm/axi_slave_agent.sv(69) @ 775000: uvm_test_top.env.slv_ag0 [TRACE] S[0] SLV W beat data=0x76e9da08 last=0
UVM_INFO ./uvm/axi_driver.sv(57) @ 780000: uvm_test_top.env.mst_ag2.drv_m2 [TRACE] M[2] DRV W beat 11/13 last=0
[TRACE_C4K] 785000 W m_vld=1 m_rdy=1 s_vld=1 s_rdy=1 slast=0
UVM_INFO ./uvm/axi_slave_agent.sv(69) @ 795000: uvm_test_top.env.slv_ag0 [TRACE] S[0] SLV W beat data=0x9fc6ef46 last=0
UVM_INFO ./uvm/axi_driver.sv(57) @ 800000: uvm_test_top.env.mst_ag2.drv_m2 [TRACE] M[2] DRV W beat 12/13 last=0
[TRACE_C4K] 805000 W m_vld=1 m_rdy=1 s_vld=1 s_rdy=1 slast=0
UVM_INFO ./uvm/axi_slave_agent.sv(69) @ 815000: uvm_test_top.env.slv_ag0 [TRACE] S[0] SLV W beat data=0x87b4081e last=0
UVM_INFO ./uvm/axi_driver.sv(57) @ 820000: uvm_test_top.env.mst_ag2.drv_m2 [TRACE] M[2] DRV W beat 13/13 last=1
[TRACE_C4K] 825000 W m_vld=1 m_rdy=1 s_vld=1 s_rdy=1 slast=1
UVM_INFO ./uvm/axi_driver.sv(65) @ 830000: uvm_test_top.env.mst_ag2.drv_m2 [TRACE] M[2] DRV B wait
UVM_INFO ./uvm/axi_slave_agent.sv(69) @ 835000: uvm_test_top.env.slv_ag0 [TRACE] S[0] SLV W beat data=0x4b719215 last=0
UVM_INFO ./uvm/axi_slave_agent.sv(69) @ 855000: uvm_test_top.env.slv_ag0 [TRACE] S[0] SLV W beat data=0x220aebbb last=1
UVM_INFO ./uvm/axi_slave_agent.sv(94) @ 855000: uvm_test_top.env.slv_ag0 [TRACE] S[0] SLV B start id=0 exp=14 act=14
UVM_INFO ./uvm/axi_driver.sv(72) @ 890000: uvm_test_top.env.mst_ag2.drv_m2 [TRACE] M[2] DRV B resp=0
UVM_INFO ./uvm/axi_driver.sv(22) @ 890000: uvm_test_top.env.mst_ag3.drv_m3 [DRIVER] M[3] driving: WR id=0 addr=0x00000100 len=9 size=2 burst=1 mst=3 slv=0
UVM_INFO ./uvm/axi_driver.sv(43) @ 900000: uvm_test_top.env.mst_ag3.drv_m3 [TRACE] M[3] DRV AW start addr=0x00000100 len=9
UVM_INFO ./uvm/axi_driver.sv(46) @ 905000: uvm_test_top.env.mst_ag3.drv_m3 [TRACE] M[3] DRV AW handshake done
UVM_INFO ./uvm/axi_driver.sv(57) @ 920000: uvm_test_top.env.mst_ag3.drv_m3 [TRACE] M[3] DRV W beat 0/9 last=0
UVM_INFO ./uvm/axi_slave_agent.sv(49) @ 925000: uvm_test_top.env.slv_ag0 [TRACE] S[0] SLV AW handshake id=192 addr=0x00000100 len=9
[TRACE_C4K] 925000 W m_vld=1 m_rdy=1 s_vld=1 s_rdy=1 slast=0
UVM_INFO ./uvm/axi_driver.sv(57) @ 940000: uvm_test_top.env.mst_ag3.drv_m3 [TRACE] M[3] DRV W beat 1/9 last=0
[TRACE_C4K] 945000 W m_vld=1 m_rdy=1 s_vld=1 s_rdy=1 slast=0
UVM_INFO ./uvm/axi_slave_agent.sv(69) @ 955000: uvm_test_top.env.slv_ag0 [TRACE] S[0] SLV W beat data=0x73fde311 last=0
UVM_INFO ./uvm/axi_driver.sv(57) @ 960000: uvm_test_top.env.mst_ag3.drv_m3 [TRACE] M[3] DRV W beat 2/9 last=0
[TRACE_C4K] 965000 W m_vld=1 m_rdy=1 s_vld=1 s_rdy=1 slast=0
UVM_INFO ./uvm/axi_slave_agent.sv(69) @ 975000: uvm_test_top.env.slv_ag0 [TRACE] S[0] SLV W beat data=0xa2e392e8 last=0
UVM_INFO ./uvm/axi_driver.sv(57) @ 980000: uvm_test_top.env.mst_ag3.drv_m3 [TRACE] M[3] DRV W beat 3/9 last=0
[TRACE_C4K] 985000 W m_vld=1 m_rdy=1 s_vld=1 s_rdy=1 slast=0
UVM_INFO ./uvm/axi_slave_agent.sv(69) @ 995000: uvm_test_top.env.slv_ag0 [TRACE] S[0] SLV W beat data=0xf1a96d89 last=0
UVM_INFO ./uvm/axi_driver.sv(57) @ 1000000: uvm_test_top.env.mst_ag3.drv_m3 [TRACE] M[3] DRV W beat 4/9 last=0
[TRACE_C4K] 1005000 W m_vld=1 m_rdy=1 s_vld=1 s_rdy=1 slast=0
UVM_INFO ./uvm/axi_slave_agent.sv(69) @ 1015000: uvm_test_top.env.slv_ag0 [TRACE] S[0] SLV W beat data=0xa4e30ac2 last=0
UVM_INFO ./uvm/axi_driver.sv(57) @ 1020000: uvm_test_top.env.mst_ag3.drv_m3 [TRACE] M[3] DRV W beat 5/9 last=0
[TRACE_C4K] 1025000 W m_vld=1 m_rdy=1 s_vld=1 s_rdy=1 slast=0
UVM_INFO ./uvm/axi_slave_agent.sv(69) @ 1035000: uvm_test_top.env.slv_ag0 [TRACE] S[0] SLV W beat data=0x27586c3c last=0
UVM_INFO ./uvm/axi_driver.sv(57) @ 1040000: uvm_test_top.env.mst_ag3.drv_m3 [TRACE] M[3] DRV W beat 6/9 last=0
[TRACE_C4K] 1045000 W m_vld=1 m_rdy=1 s_vld=1 s_rdy=1 slast=0
UVM_INFO ./uvm/axi_slave_agent.sv(69) @ 1055000: uvm_test_top.env.slv_ag0 [TRACE] S[0] SLV W beat data=0xe2f5a09c last=0
UVM_INFO ./uvm/axi_driver.sv(57) @ 1060000: uvm_test_top.env.mst_ag3.drv_m3 [TRACE] M[3] DRV W beat 7/9 last=0
[TRACE_C4K] 1065000 W m_vld=1 m_rdy=1 s_vld=1 s_rdy=1 slast=0
UVM_INFO ./uvm/axi_slave_agent.sv(69) @ 1075000: uvm_test_top.env.slv_ag0 [TRACE] S[0] SLV W beat data=0x90374aac last=0
UVM_INFO ./uvm/axi_driver.sv(57) @ 1080000: uvm_test_top.env.mst_ag3.drv_m3 [TRACE] M[3] DRV W beat 8/9 last=0
[TRACE_C4K] 1085000 W m_vld=1 m_rdy=1 s_vld=1 s_rdy=1 slast=0
UVM_INFO ./uvm/axi_slave_agent.sv(69) @ 1095000: uvm_test_top.env.slv_ag0 [TRACE] S[0] SLV W beat data=0xee7ae712 last=0
UVM_INFO ./uvm/axi_driver.sv(57) @ 1100000: uvm_test_top.env.mst_ag3.drv_m3 [TRACE] M[3] DRV W beat 9/9 last=1
[TRACE_C4K] 1105000 W m_vld=1 m_rdy=1 s_vld=1 s_rdy=1 slast=1
UVM_INFO ./uvm/axi_driver.sv(65) @ 1110000: uvm_test_top.env.mst_ag3.drv_m3 [TRACE] M[3] DRV B wait
UVM_INFO ./uvm/axi_slave_agent.sv(69) @ 1115000: uvm_test_top.env.slv_ag0 [TRACE] S[0] SLV W beat data=0xe54d9423 last=0
UVM_INFO ./uvm/axi_slave_agent.sv(69) @ 1135000: uvm_test_top.env.slv_ag0 [TRACE] S[0] SLV W beat data=0x54737d1f last=1
UVM_INFO ./uvm/axi_slave_agent.sv(94) @ 1135000: uvm_test_top.env.slv_ag0 [TRACE] S[0] SLV B start id=0 exp=10 act=10
UVM_INFO ./uvm/axi_driver.sv(72) @ 1170000: uvm_test_top.env.mst_ag3.drv_m3 [TRACE] M[3] DRV B resp=0
UVM_INFO ./uvm/axi_driver.sv(22) @ 1170000: uvm_test_top.env.mst_ag0.drv_m0 [DRIVER] M[0] driving: RD id=0 addr=0x00000100 len=7 size=2 burst=0 mst=0 slv=0
UVM_INFO ./uvm/axi_driver.sv(88) @ 1180000: uvm_test_top.env.mst_ag0.drv_m0 [TRACE] M[0] DRV AR start addr=0x00000100 len=7
UVM_INFO ./uvm/axi_driver.sv(91) @ 1185000: uvm_test_top.env.mst_ag0.drv_m0 [TRACE] M[0] DRV AR handshake done
UVM_INFO ./uvm/axi_driver.sv(97) @ 1190000: uvm_test_top.env.mst_ag0.drv_m0 [TRACE] M[0] DRV R wait beat 0/7
[TRACE] 1195000 AR pre-FIFO vld m=0 vld=1 rdy=1
[TRACE] 1195000 AR pre-FIFO out m=0 addr=0x00000100
[TRACE] 1195000 XBAR M_ARREADY m=0
[TRACE] 1195000 XBAR S_ARVALID s=0 addr=0x00000100
[TRACE] 1195000 XBAR m_arready[0]=1 ar_rdy_vec=0001
[TRACE] 1195000 XBAR m_arready[0]=1 ar_rdy_vec=0001
[TRACE] 1195000 XBAR m_arready[0]=1 ar_rdy_vec=0001
[TRACE] 1195000 XBAR m_arready[0]=1 ar_rdy_vec=0001
[TRACE] 1195000 XBAR m_arready[0]=1 ar_rdy_vec=0000
[TRACE] 1195000 XBAR m_arready[0]=1 ar_rdy_vec=0000
[TRACE] 1195000 XBAR m_arready[0]=1 ar_rdy_vec=0000
[TRACE] 1195000 XBAR m_arready[0]=1 ar_rdy_vec=0000
[TRACE] 1195000 XBAR m_arready[0]=1 ar_rdy_vec=0000
[TRACE] 1195000 XBAR m_arready[0]=1 ar_rdy_vec=0000
[TRACE] 1195000 XBAR m_arready[0]=1 ar_rdy_vec=0000
[TRACE] 1195000 XBAR m_arready[0]=1 ar_rdy_vec=0000
[TRACE] 1195000 XBAR m_arready[0]=1 ar_rdy_vec=0000
[TRACE] 1195000 XBAR m_arready[0]=1 ar_rdy_vec=0000
[TRACE] 1195000 XBAR m_arready[0]=1 ar_rdy_vec=0000
[TRACE] 1195000 XBAR m_arready[0]=1 ar_rdy_vec=0000
UVM_INFO ./uvm/axi_slave_agent.sv(115) @ 1205000: uvm_test_top.env.slv_ag0 [TRACE] S[0] SLV AR handshake id=0 addr=0x00000100 len=7
[TRACE] 1205000 AR at slave s=0 addr=0x00000100
[TRACE] 1205000 AR pre-FIFO vld m=0 vld=0 rdy=0
UVM_INFO ./uvm/axi_slave_agent.sv(132) @ 1205000: uvm_test_top.env.slv_ag0 [TRACE] S[0] SLV R start id=0 len=7
UVM_INFO ./uvm/axi_driver.sv(97) @ 1240000: uvm_test_top.env.mst_ag0.drv_m0 [TRACE] M[0] DRV R wait beat 1/7
UVM_INFO ./uvm/axi_driver.sv(97) @ 1260000: uvm_test_top.env.mst_ag0.drv_m0 [TRACE] M[0] DRV R wait beat 2/7
UVM_INFO ./uvm/axi_driver.sv(97) @ 1280000: uvm_test_top.env.mst_ag0.drv_m0 [TRACE] M[0] DRV R wait beat 3/7
UVM_INFO ./uvm/axi_driver.sv(97) @ 1300000: uvm_test_top.env.mst_ag0.drv_m0 [TRACE] M[0] DRV R wait beat 4/7
UVM_INFO ./uvm/axi_driver.sv(97) @ 1320000: uvm_test_top.env.mst_ag0.drv_m0 [TRACE] M[0] DRV R wait beat 5/7
UVM_INFO ./uvm/axi_driver.sv(97) @ 1340000: uvm_test_top.env.mst_ag0.drv_m0 [TRACE] M[0] DRV R wait beat 6/7
UVM_INFO ./uvm/axi_driver.sv(97) @ 1360000: uvm_test_top.env.mst_ag0.drv_m0 [TRACE] M[0] DRV R wait beat 7/7
[TRACE] 1375000 S_ARREADY s=0 fifo=1 sid=0 final=0
[TRACE] 1375000 S_ARREADY s=1 fifo=1 sid=0 final=0
[TRACE] 1375000 S_ARREADY s=2 fifo=1 sid=0 final=0
[TRACE] 1375000 S_ARREADY s=3 fifo=1 sid=0 final=0
UVM_INFO ./uvm/axi_driver.sv(22) @ 1380000: uvm_test_top.env.mst_ag1.drv_m1 [DRIVER] M[1] driving: RD id=0 addr=0x00000100 len=14 size=2 burst=0 mst=1 slv=0
UVM_INFO ./uvm/axi_driver.sv(88) @ 1390000: uvm_test_top.env.mst_ag1.drv_m1 [TRACE] M[1] DRV AR start addr=0x00000100 len=14
UVM_INFO ./uvm/axi_driver.sv(91) @ 1395000: uvm_test_top.env.mst_ag1.drv_m1 [TRACE] M[1] DRV AR handshake done
UVM_INFO ./uvm/axi_driver.sv(97) @ 1400000: uvm_test_top.env.mst_ag1.drv_m1 [TRACE] M[1] DRV R wait beat 0/14
[TRACE] 1405000 AR pre-FIFO vld m=1 vld=1 rdy=1
[TRACE] 1405000 AR pre-FIFO out m=1 addr=0x00000100
[TRACE] 1405000 XBAR S_ARVALID s=0 addr=0x00000100
UVM_INFO ./uvm/axi_slave_agent.sv(115) @ 1415000: uvm_test_top.env.slv_ag0 [TRACE] S[0] SLV AR handshake id=64 addr=0x00000100 len=14
[TRACE] 1415000 AR at slave s=0 addr=0x00000100
[TRACE] 1415000 AR pre-FIFO vld m=1 vld=0 rdy=0
UVM_INFO ./uvm/axi_slave_agent.sv(132) @ 1415000: uvm_test_top.env.slv_ag0 [TRACE] S[0] SLV R start id=0 len=14
UVM_INFO ./uvm/axi_driver.sv(97) @ 1450000: uvm_test_top.env.mst_ag1.drv_m1 [TRACE] M[1] DRV R wait beat 1/14
UVM_INFO ./uvm/axi_driver.sv(97) @ 1470000: uvm_test_top.env.mst_ag1.drv_m1 [TRACE] M[1] DRV R wait beat 2/14
UVM_INFO ./uvm/axi_driver.sv(97) @ 1490000: uvm_test_top.env.mst_ag1.drv_m1 [TRACE] M[1] DRV R wait beat 3/14
UVM_INFO ./uvm/axi_driver.sv(97) @ 1510000: uvm_test_top.env.mst_ag1.drv_m1 [TRACE] M[1] DRV R wait beat 4/14
UVM_INFO ./uvm/axi_driver.sv(97) @ 1530000: uvm_test_top.env.mst_ag1.drv_m1 [TRACE] M[1] DRV R wait beat 5/14
UVM_INFO ./uvm/axi_driver.sv(97) @ 1550000: uvm_test_top.env.mst_ag1.drv_m1 [TRACE] M[1] DRV R wait beat 6/14
UVM_INFO ./uvm/axi_driver.sv(97) @ 1570000: uvm_test_top.env.mst_ag1.drv_m1 [TRACE] M[1] DRV R wait beat 7/14
UVM_INFO ./uvm/axi_driver.sv(97) @ 1590000: uvm_test_top.env.mst_ag1.drv_m1 [TRACE] M[1] DRV R wait beat 8/14
UVM_INFO ./uvm/axi_driver.sv(97) @ 1610000: uvm_test_top.env.mst_ag1.drv_m1 [TRACE] M[1] DRV R wait beat 9/14
UVM_INFO ./uvm/axi_driver.sv(97) @ 1630000: uvm_test_top.env.mst_ag1.drv_m1 [TRACE] M[1] DRV R wait beat 10/14
UVM_INFO ./uvm/axi_driver.sv(97) @ 1650000: uvm_test_top.env.mst_ag1.drv_m1 [TRACE] M[1] DRV R wait beat 11/14
UVM_INFO ./uvm/axi_driver.sv(97) @ 1670000: uvm_test_top.env.mst_ag1.drv_m1 [TRACE] M[1] DRV R wait beat 12/14
UVM_INFO ./uvm/axi_driver.sv(97) @ 1690000: uvm_test_top.env.mst_ag1.drv_m1 [TRACE] M[1] DRV R wait beat 13/14
UVM_INFO ./uvm/axi_driver.sv(97) @ 1710000: uvm_test_top.env.mst_ag1.drv_m1 [TRACE] M[1] DRV R wait beat 14/14
[TRACE] 1725000 S_ARREADY s=0 fifo=1 sid=0 final=0
[TRACE] 1725000 S_ARREADY s=1 fifo=1 sid=0 final=0
[TRACE] 1725000 S_ARREADY s=2 fifo=1 sid=0 final=0
[TRACE] 1725000 S_ARREADY s=3 fifo=1 sid=0 final=0
UVM_INFO ./uvm/axi_driver.sv(22) @ 1730000: uvm_test_top.env.mst_ag2.drv_m2 [DRIVER] M[2] driving: RD id=0 addr=0x00000100 len=1 size=2 burst=0 mst=2 slv=0
UVM_INFO ./uvm/axi_driver.sv(88) @ 1740000: uvm_test_top.env.mst_ag2.drv_m2 [TRACE] M[2] DRV AR start addr=0x00000100 len=1
UVM_INFO ./uvm/axi_driver.sv(91) @ 1745000: uvm_test_top.env.mst_ag2.drv_m2 [TRACE] M[2] DRV AR handshake done
UVM_INFO ./uvm/axi_driver.sv(97) @ 1750000: uvm_test_top.env.mst_ag2.drv_m2 [TRACE] M[2] DRV R wait beat 0/1
[TRACE] 1755000 AR pre-FIFO vld m=2 vld=1 rdy=1
[TRACE] 1755000 AR pre-FIFO out m=2 addr=0x00000100
[TRACE] 1755000 XBAR S_ARVALID s=0 addr=0x00000100
UVM_INFO ./uvm/axi_slave_agent.sv(115) @ 1765000: uvm_test_top.env.slv_ag0 [TRACE] S[0] SLV AR handshake id=128 addr=0x00000100 len=1
[TRACE] 1765000 AR at slave s=0 addr=0x00000100
[TRACE] 1765000 AR pre-FIFO vld m=2 vld=0 rdy=0
UVM_INFO ./uvm/axi_slave_agent.sv(132) @ 1765000: uvm_test_top.env.slv_ag0 [TRACE] S[0] SLV R start id=0 len=1
UVM_INFO ./uvm/axi_driver.sv(97) @ 1800000: uvm_test_top.env.mst_ag2.drv_m2 [TRACE] M[2] DRV R wait beat 1/1
[TRACE] 1815000 S_ARREADY s=0 fifo=1 sid=0 final=0
[TRACE] 1815000 S_ARREADY s=1 fifo=1 sid=0 final=0
[TRACE] 1815000 S_ARREADY s=2 fifo=1 sid=0 final=0
[TRACE] 1815000 S_ARREADY s=3 fifo=1 sid=0 final=0
UVM_INFO ./uvm/axi_driver.sv(22) @ 1820000: uvm_test_top.env.mst_ag3.drv_m3 [DRIVER] M[3] driving: RD id=0 addr=0x00000100 len=13 size=2 burst=1 mst=3 slv=0
UVM_INFO ./uvm/axi_driver.sv(88) @ 1830000: uvm_test_top.env.mst_ag3.drv_m3 [TRACE] M[3] DRV AR start addr=0x00000100 len=13
UVM_INFO ./uvm/axi_driver.sv(91) @ 1835000: uvm_test_top.env.mst_ag3.drv_m3 [TRACE] M[3] DRV AR handshake done
UVM_INFO ./uvm/axi_driver.sv(97) @ 1840000: uvm_test_top.env.mst_ag3.drv_m3 [TRACE] M[3] DRV R wait beat 0/13
[TRACE] 1845000 AR pre-FIFO vld m=3 vld=1 rdy=1
[TRACE] 1845000 AR pre-FIFO out m=3 addr=0x00000100
[TRACE] 1845000 XBAR S_ARVALID s=0 addr=0x00000100
UVM_INFO ./uvm/axi_slave_agent.sv(115) @ 1855000: uvm_test_top.env.slv_ag0 [TRACE] S[0] SLV AR handshake id=192 addr=0x00000100 len=13
[TRACE] 1855000 AR at slave s=0 addr=0x00000100
[TRACE] 1855000 AR pre-FIFO vld m=3 vld=0 rdy=0
UVM_INFO ./uvm/axi_slave_agent.sv(132) @ 1855000: uvm_test_top.env.slv_ag0 [TRACE] S[0] SLV R start id=0 len=13
UVM_INFO ./uvm/axi_driver.sv(97) @ 1890000: uvm_test_top.env.mst_ag3.drv_m3 [TRACE] M[3] DRV R wait beat 1/13
UVM_INFO ./uvm/axi_driver.sv(97) @ 1910000: uvm_test_top.env.mst_ag3.drv_m3 [TRACE] M[3] DRV R wait beat 2/13
UVM_INFO ./uvm/axi_driver.sv(97) @ 1930000: uvm_test_top.env.mst_ag3.drv_m3 [TRACE] M[3] DRV R wait beat 3/13
UVM_INFO ./uvm/axi_driver.sv(97) @ 1950000: uvm_test_top.env.mst_ag3.drv_m3 [TRACE] M[3] DRV R wait beat 4/13
UVM_INFO ./uvm/axi_driver.sv(97) @ 1970000: uvm_test_top.env.mst_ag3.drv_m3 [TRACE] M[3] DRV R wait beat 5/13
UVM_INFO ./uvm/axi_driver.sv(97) @ 1990000: uvm_test_top.env.mst_ag3.drv_m3 [TRACE] M[3] DRV R wait beat 6/13
UVM_INFO ./uvm/axi_driver.sv(97) @ 2010000: uvm_test_top.env.mst_ag3.drv_m3 [TRACE] M[3] DRV R wait beat 7/13
UVM_INFO ./uvm/axi_driver.sv(97) @ 2030000: uvm_test_top.env.mst_ag3.drv_m3 [TRACE] M[3] DRV R wait beat 8/13
UVM_INFO ./uvm/axi_driver.sv(97) @ 2050000: uvm_test_top.env.mst_ag3.drv_m3 [TRACE] M[3] DRV R wait beat 9/13
UVM_INFO ./uvm/axi_driver.sv(97) @ 2070000: uvm_test_top.env.mst_ag3.drv_m3 [TRACE] M[3] DRV R wait beat 10/13
UVM_INFO ./uvm/axi_driver.sv(97) @ 2090000: uvm_test_top.env.mst_ag3.drv_m3 [TRACE] M[3] DRV R wait beat 11/13
UVM_INFO ./uvm/axi_driver.sv(97) @ 2110000: uvm_test_top.env.mst_ag3.drv_m3 [TRACE] M[3] DRV R wait beat 12/13
UVM_INFO ./uvm/axi_driver.sv(97) @ 2130000: uvm_test_top.env.mst_ag3.drv_m3 [TRACE] M[3] DRV R wait beat 13/13
[TRACE] 2145000 S_ARREADY s=0 fifo=1 sid=0 final=0
[TRACE] 2145000 S_ARREADY s=1 fifo=1 sid=0 final=0
[TRACE] 2145000 S_ARREADY s=2 fifo=1 sid=0 final=0
[TRACE] 2145000 S_ARREADY s=3 fifo=1 sid=0 final=0
UVM_INFO /home/synopsys/vcs/O-2018.09-SP2/etc/uvm-1.2/base/uvm_objection.svh(1276) @ 3150000: reporter [TEST_DONE] 'run' phase is ready to proceed to the 'extract' phase
COVERAGE REPORT:
  Outstanding: AW peak=1 AR peak=1
  Arbitration: 8 total grants
  4KB Splits: 0 total
    by_len: 1-3=0 4-7=0 8-15=0
    by_slv: S0=0 S1=0 S2=0 S3=0
    by_pos: early=0 mid=0 late=0
  Reorder: 0 events, max depth=0
  Default Slave: 0 hits
PROTOCOL CHECKER: 4 writes, 4 reads, 0 protocol errors
REF MODEL: 4 writes, 4 reads, 0 4KB splits predicted
AXI SCOREBOARD:
  Routing : 8 checks, 0 errors
  Data    : 39 checks, 0 errors
  Response: 4 writes, 4 reads, 0 errors, 0 reorder events
UVM_INFO /home/synopsys/vcs/O-2018.09-SP2/etc/uvm-1.2/base/uvm_report_catcher.svh(705) @ 3150000: reporter [UVM/REPORT/CATCHER] 
--- UVM Report catcher Summary ---


Number of demoted UVM_FATAL reports  :    0
Number of demoted UVM_ERROR reports  :    0
Number of demoted UVM_WARNING reports:    0
Number of caught UVM_FATAL reports   :    0
Number of caught UVM_ERROR reports   :    0
Number of caught UVM_WARNING reports :    0

UVM_INFO /home/synopsys/vcs/O-2018.09-SP2/etc/uvm-1.2/base/uvm_report_server.svh(894) @ 3150000: reporter [UVM/REPORT/SERVER] 
--- UVM Report Summary ---

** Report counts by severity
UVM_INFO :  160
UVM_WARNING :    0
UVM_ERROR :    0
UVM_FATAL :    0
** Report counts by id
[DRIVER]     8
[NO_DPI_TSTNAME]     1
[RNTST]     1
[TEST_DONE]     1
[TRACE]   145
[UVM/COMP/NAMECHECK]     1
[UVM/RELNOTES]     1
[UVM/REPORT/CATCHER]     1
[UVMTOP]     1

$finish called from file "/home/synopsys/vcs/O-2018.09-SP2/etc/uvm-1.2/base/uvm_root.svh", line 527.
$finish at simulation time              3150000
