Command: /home/ICer/project/axi4/./simv +UVM_TESTNAME=stress_test +ntb_random_seed_automatic -l sim.log
Chronologic VCS simulator copyright 1991-2018
Contains Synopsys proprietary information.
Compiler version O-2018.09-SP2_Full64; Runtime version O-2018.09-SP2_Full64;  Jun 17 21:24 2026
NOTE: automatic random seed used: 2525451460
UVM_INFO /home/synopsys/vcs/O-2018.09-SP2/etc/uvm-1.2/base/uvm_root.svh(402) @ 0: reporter [UVM/RELNOTES] 
----------------------------------------------------------------
UVM-1.2.Synopsys
(C) 2007-2014 Mentor Graphics Corporation
(C) 2007-2014 Cadence Design Systems, Inc.
(C) 2006-2014 Synopsys, Inc.
(C) 2011-2013 Cypress Semiconductor Corp.
(C) 2013-2014 NVIDIA Corporation
----------------------------------------------------------------

  ***********       IMPORTANT RELEASE NOTES         ************

  You are using a version of the UVM library that has been compiled
  with `UVM_NO_DEPRECATED undefined.
  See http://www.eda.org/svdb/view.php?id=3313 for more details.

  You are using a version of the UVM library that has been compiled
  with `UVM_OBJECT_DO_NOT_NEED_CONSTRUCTOR undefined.
  See http://www.eda.org/svdb/view.php?id=3770 for more details.

      (Specify +UVM_NO_RELNOTES to turn off this notice)

*Verdi* Loading libsscore_vcs201809.so
FSDB Dumper for VCS, Release Verdi_O-2018.09-SP2, Linux x86_64/64bit, 02/21/2019
(C) 1996 - 2019 by Synopsys, Inc.
*Verdi* : Create FSDB file 'tb_top.fsdb'
*Verdi* : Begin traversing the scope (tb_top), layer (0).
*Verdi* : End of traversing.
*Verdi* : Begin traversing the MDAs, layer (0).
*Verdi* : Enable +mda and +packedmda dumping.
*Verdi* : End of traversing the MDAs.
UVM_INFO /home/synopsys/vcs/O-2018.09-SP2/etc/uvm-1.2/base/uvm_root.svh(463) @ 0: reporter [NO_DPI_TSTNAME] UVM_NO_DPI defined--getting UVM_TESTNAME directly, without DPI
UVM_INFO @ 0: reporter [RNTST] Running test stress_test...
UVM_INFO /home/synopsys/vcs/O-2018.09-SP2/etc/uvm-1.2/base/uvm_root.svh(589) @ 0: reporter [UVMTOP] UVM testbench topology:
------------------------------------------------------------------
Name                       Type                        Size  Value
------------------------------------------------------------------
uvm_test_top               stress_test                 -     @343 
  env                      axi_env                     -     @356 
    cov                    axi_cov                     -     @593 
      ar_ap                uvm_analysis_export         -     @671 
      ar_fifo              uvm_tlm_analysis_fifo #(T)  -     @760 
        analysis_export    uvm_analysis_imp            -     @809 
        get_ap             uvm_analysis_port           -     @799 
        get_peek_export    uvm_get_peek_imp            -     @779 
        put_ap             uvm_analysis_port           -     @789 
        put_export         uvm_put_imp                 -     @769 
      aw_ap                uvm_analysis_export         -     @661 
      aw_fifo              uvm_tlm_analysis_fifo #(T)  -     @701 
        analysis_export    uvm_analysis_imp            -     @750 
        get_ap             uvm_analysis_port           -     @740 
        get_peek_export    uvm_get_peek_imp            -     @720 
        put_ap             uvm_analysis_port           -     @730 
        put_export         uvm_put_imp                 -     @710 
      b_ap                 uvm_analysis_export         -     @681 
      b_fifo               uvm_tlm_analysis_fifo #(T)  -     @819 
        analysis_export    uvm_analysis_imp            -     @868 
        get_ap             uvm_analysis_port           -     @858 
        get_peek_export    uvm_get_peek_imp            -     @838 
        put_ap             uvm_analysis_port           -     @848 
        put_export         uvm_put_imp                 -     @828 
      r_ap                 uvm_analysis_export         -     @691 
      r_fifo               uvm_tlm_analysis_fifo #(T)  -     @878 
        analysis_export    uvm_analysis_imp            -     @927 
        get_ap             uvm_analysis_port           -     @917 
        get_peek_export    uvm_get_peek_imp            -     @897 
        put_ap             uvm_analysis_port           -     @907 
        put_export         uvm_put_imp                 -     @887 
    mst_ag0                axi_master_agent            -     @366 
      drv_m0               axi_driver                  -     @1075
        ar_fifo            uvm_tlm_fifo #(T)           -     @1261
          get_ap           uvm_analysis_port           -     @1300
          get_peek_export  uvm_get_peek_imp            -     @1280
          put_ap           uvm_analysis_port           -     @1290
          put_export       uvm_put_imp                 -     @1270
        aw_fifo            uvm_tlm_fifo #(T)           -     @1163
          get_ap           uvm_analysis_port           -     @1202
          get_peek_export  uvm_get_peek_imp            -     @1182
          put_ap           uvm_analysis_port           -     @1192
          put_export       uvm_put_imp                 -     @1172
        rsp_port           uvm_analysis_port           -     @1094
        seq_item_port      uvm_seq_item_pull_port      -     @1084
        w_fifo             uvm_tlm_fifo #(T)           -     @1212
          get_ap           uvm_analysis_port           -     @1251
          get_peek_export  uvm_get_peek_imp            -     @1231
          put_ap           uvm_analysis_port           -     @1241
          put_export       uvm_put_imp                 -     @1221
      mon_m0               axi_monitor                 -     @1104
        ap_ar              uvm_analysis_port           -     @1143
        ap_aw              uvm_analysis_port           -     @1113
        ap_b               uvm_analysis_port           -     @1133
        ap_r               uvm_analysis_port           -     @1153
        ap_w               uvm_analysis_port           -     @1123
      sqr_m0               axi_sequencer               -     @938 
        rsp_export         uvm_analysis_export         -     @947 
        seq_item_export    uvm_seq_item_pull_imp       -     @1065
        arbitration_queue  array                       0     -    
        lock_queue         array                       0     -    
        num_last_reqs      integral                    32    'd1  
        num_last_rsps      integral                    32    'd1  
    mst_ag1                axi_master_agent            -     @384 
      drv_m1               axi_driver                  -     @1453
        ar_fifo            uvm_tlm_fifo #(T)           -     @1639
          get_ap           uvm_analysis_port           -     @1678
          get_peek_export  uvm_get_peek_imp            -     @1658
          put_ap           uvm_analysis_port           -     @1668
          put_export       uvm_put_imp                 -     @1648
        aw_fifo            uvm_tlm_fifo #(T)           -     @1541
          get_ap           uvm_analysis_port           -     @1580
          get_peek_export  uvm_get_peek_imp            -     @1560
          put_ap           uvm_analysis_port           -     @1570
          put_export       uvm_put_imp                 -     @1550
        rsp_port           uvm_analysis_port           -     @1472
        seq_item_port      uvm_seq_item_pull_port      -     @1462
        w_fifo             uvm_tlm_fifo #(T)           -     @1590
          get_ap           uvm_analysis_port           -     @1629
          get_peek_export  uvm_get_peek_imp            -     @1609
          put_ap           uvm_analysis_port           -     @1619
          put_export       uvm_put_imp                 -     @1599
      mon_m1               axi_monitor                 -     @1482
        ap_ar              uvm_analysis_port           -     @1521
        ap_aw              uvm_analysis_port           -     @1491
        ap_b               uvm_analysis_port           -     @1511
        ap_r               uvm_analysis_port           -     @1531
        ap_w               uvm_analysis_port           -     @1501
      sqr_m1               axi_sequencer               -     @1316
        rsp_export         uvm_analysis_export         -     @1325
        seq_item_export    uvm_seq_item_pull_imp       -     @1443
        arbitration_queue  array                       0     -    
        lock_queue         array                       0     -    
        num_last_reqs      integral                    32    'd1  
        num_last_rsps      integral                    32    'd1  
    mst_ag2                axi_master_agent            -     @402 
      drv_m2               axi_driver                  -     @1831
        ar_fifo            uvm_tlm_fifo #(T)           -     @2017
          get_ap           uvm_analysis_port           -     @2056
          get_peek_export  uvm_get_peek_imp            -     @2036
          put_ap           uvm_analysis_port           -     @2046
          put_export       uvm_put_imp                 -     @2026
        aw_fifo            uvm_tlm_fifo #(T)           -     @1919
          get_ap           uvm_analysis_port           -     @1958
          get_peek_export  uvm_get_peek_imp            -     @1938
          put_ap           uvm_analysis_port           -     @1948
          put_export       uvm_put_imp                 -     @1928
        rsp_port           uvm_analysis_port           -     @1850
        seq_item_port      uvm_seq_item_pull_port      -     @1840
        w_fifo             uvm_tlm_fifo #(T)           -     @1968
          get_ap           uvm_analysis_port           -     @2007
          get_peek_export  uvm_get_peek_imp            -     @1987
          put_ap           uvm_analysis_port           -     @1997
          put_export       uvm_put_imp                 -     @1977
      mon_m2               axi_monitor                 -     @1860
        ap_ar              uvm_analysis_port           -     @1899
        ap_aw              uvm_analysis_port           -     @1869
        ap_b               uvm_analysis_port           -     @1889
        ap_r               uvm_analysis_port           -     @1909
        ap_w               uvm_analysis_port           -     @1879
      sqr_m2               axi_sequencer               -     @1694
        rsp_export         uvm_analysis_export         -     @1703
        seq_item_export    uvm_seq_item_pull_imp       -     @1821
        arbitration_queue  array                       0     -    
        lock_queue         array                       0     -    
        num_last_reqs      integral                    32    'd1  
        num_last_rsps      integral                    32    'd1  
    mst_ag3                axi_master_agent            -     @420 
      drv_m3               axi_driver                  -     @2209
        ar_fifo            uvm_tlm_fifo #(T)           -     @2395
          get_ap           uvm_analysis_port           -     @2434
          get_peek_export  uvm_get_peek_imp            -     @2414
          put_ap           uvm_analysis_port           -     @2424
          put_export       uvm_put_imp                 -     @2404
        aw_fifo            uvm_tlm_fifo #(T)           -     @2297
          get_ap           uvm_analysis_port           -     @2336
          get_peek_export  uvm_get_peek_imp            -     @2316
          put_ap           uvm_analysis_port           -     @2326
          put_export       uvm_put_imp                 -     @2306
        rsp_port           uvm_analysis_port           -     @2228
        seq_item_port      uvm_seq_item_pull_port      -     @2218
        w_fifo             uvm_tlm_fifo #(T)           -     @2346
          get_ap           uvm_analysis_port           -     @2385
          get_peek_export  uvm_get_peek_imp            -     @2365
          put_ap           uvm_analysis_port           -     @2375
          put_export       uvm_put_imp                 -     @2355
      mon_m3               axi_monitor                 -     @2238
        ap_ar              uvm_analysis_port           -     @2277
        ap_aw              uvm_analysis_port           -     @2247
        ap_b               uvm_analysis_port           -     @2267
        ap_r               uvm_analysis_port           -     @2287
        ap_w               uvm_analysis_port           -     @2257
      sqr_m3               axi_sequencer               -     @2072
        rsp_export         uvm_analysis_export         -     @2081
        seq_item_export    uvm_seq_item_pull_imp       -     @2199
        arbitration_queue  array                       0     -    
        lock_queue         array                       0     -    
        num_last_reqs      integral                    32    'd1  
        num_last_rsps      integral                    32    'd1  
    proto_chk              axi_protocol_checker        -     @602 
      ar_imp               uvm_analysis_imp_ar         -     @641 
      aw_imp               uvm_analysis_imp_aw         -     @611 
      b_imp                uvm_analysis_imp_b          -     @631 
      r_imp                uvm_analysis_imp_r          -     @651 
      w_imp                uvm_analysis_imp_w          -     @621 
    refm                   reference_model             -     @584 
      ar_ap                uvm_analysis_export         -     @2459
      ar_fifo              uvm_tlm_analysis_fifo #(T)  -     @2538
        analysis_export    uvm_analysis_imp            -     @2587
        get_ap             uvm_analysis_port           -     @2577
        get_peek_export    uvm_get_peek_imp            -     @2557
        put_ap             uvm_analysis_port           -     @2567
        put_export         uvm_put_imp                 -     @2547
      aw_ap                uvm_analysis_export         -     @2449
      aw_fifo              uvm_tlm_analysis_fifo #(T)  -     @2479
        analysis_export    uvm_analysis_imp            -     @2528
        get_ap             uvm_analysis_port           -     @2518
        get_peek_export    uvm_get_peek_imp            -     @2498
        put_ap             uvm_analysis_port           -     @2508
        put_export         uvm_put_imp                 -     @2488
      w_ap                 uvm_analysis_export         -     @2469
      w_fifo               uvm_tlm_analysis_fifo #(T)  -     @2597
        analysis_export    uvm_analysis_imp            -     @2646
        get_ap             uvm_analysis_port           -     @2636
        get_peek_export    uvm_get_peek_imp            -     @2616
        put_ap             uvm_analysis_port           -     @2626
        put_export         uvm_put_imp                 -     @2606
    sb                     axi_scoreboard              -     @575 
      ar_d_fifo            uvm_tlm_analysis_fifo #(T)  -     @3051
        analysis_export    uvm_analysis_imp            -     @3100
        get_ap             uvm_analysis_port           -     @3090
        get_peek_export    uvm_get_peek_imp            -     @3070
        put_ap             uvm_analysis_port           -     @3080
        put_export         uvm_put_imp                 -     @3060
      ar_imp               uvm_analysis_imp_ar         -     @2686
      ar_p_fifo            uvm_tlm_analysis_fifo #(T)  -     @3110
        analysis_export    uvm_analysis_imp            -     @3159
        get_ap             uvm_analysis_port           -     @3149
        get_peek_export    uvm_get_peek_imp            -     @3129
        put_ap             uvm_analysis_port           -     @3139
        put_export         uvm_put_imp                 -     @3119
      ar_r_fifo            uvm_tlm_analysis_fifo #(T)  -     @2992
        analysis_export    uvm_analysis_imp            -     @3041
        get_ap             uvm_analysis_port           -     @3031
        get_peek_export    uvm_get_peek_imp            -     @3011
        put_ap             uvm_analysis_port           -     @3021
        put_export         uvm_put_imp                 -     @3001
      aw_imp               uvm_analysis_imp_aw         -     @2656
      aw_p_fifo            uvm_tlm_analysis_fifo #(T)  -     @2815
        analysis_export    uvm_analysis_imp            -     @2864
        get_ap             uvm_analysis_port           -     @2854
        get_peek_export    uvm_get_peek_imp            -     @2834
        put_ap             uvm_analysis_port           -     @2844
        put_export         uvm_put_imp                 -     @2824
      aw_r_fifo            uvm_tlm_analysis_fifo #(T)  -     @2756
        analysis_export    uvm_analysis_imp            -     @2805
        get_ap             uvm_analysis_port           -     @2795
        get_peek_export    uvm_get_peek_imp            -     @2775
        put_ap             uvm_analysis_port           -     @2785
        put_export         uvm_put_imp                 -     @2765
      b_imp                uvm_analysis_imp_b          -     @2676
      b_p_fifo             uvm_tlm_analysis_fifo #(T)  -     @2933
        analysis_export    uvm_analysis_imp            -     @2982
        get_ap             uvm_analysis_port           -     @2972
        get_peek_export    uvm_get_peek_imp            -     @2952
        put_ap             uvm_analysis_port           -     @2962
        put_export         uvm_put_imp                 -     @2942
      r_d_fifo             uvm_tlm_analysis_fifo #(T)  -     @3169
        analysis_export    uvm_analysis_imp            -     @3218
        get_ap             uvm_analysis_port           -     @3208
        get_peek_export    uvm_get_peek_imp            -     @3188
        put_ap             uvm_analysis_port           -     @3198
        put_export         uvm_put_imp                 -     @3178
      r_imp                uvm_analysis_imp_r          -     @2696
      r_p_fifo             uvm_tlm_analysis_fifo #(T)  -     @3228
        analysis_export    uvm_analysis_imp            -     @3277
        get_ap             uvm_analysis_port           -     @3267
        get_peek_export    uvm_get_peek_imp            -     @3247
        put_ap             uvm_analysis_port           -     @3257
        put_export         uvm_put_imp                 -     @3237
      slv_ar_fifo          uvm_tlm_analysis_fifo #(T)  -     @3346
        analysis_export    uvm_analysis_imp            -     @3395
        get_ap             uvm_analysis_port           -     @3385
        get_peek_export    uvm_get_peek_imp            -     @3365
        put_ap             uvm_analysis_port           -     @3375
        put_export         uvm_put_imp                 -     @3355
      slv_ar_imp           uvm_analysis_imp_slv_ar     -     @2716
      slv_aw_fifo          uvm_tlm_analysis_fifo #(T)  -     @3287
        analysis_export    uvm_analysis_imp            -     @3336
        get_ap             uvm_analysis_port           -     @3326
        get_peek_export    uvm_get_peek_imp            -     @3306
        put_ap             uvm_analysis_port           -     @3316
        put_export         uvm_put_imp                 -     @3296
      slv_aw_imp           uvm_analysis_imp_slv_aw     -     @2706
      slv_b_fifo           uvm_tlm_analysis_fifo #(T)  -     @3464
        analysis_export    uvm_analysis_imp            -     @3513
        get_ap             uvm_analysis_port           -     @3503
        get_peek_export    uvm_get_peek_imp            -     @3483
        put_ap             uvm_analysis_port           -     @3493
        put_export         uvm_put_imp                 -     @3473
      slv_b_imp            uvm_analysis_imp_slv_b      -     @2736
      slv_r_fifo           uvm_tlm_analysis_fifo #(T)  -     @3523
        analysis_export    uvm_analysis_imp            -     @3572
        get_ap             uvm_analysis_port           -     @3562
        get_peek_export    uvm_get_peek_imp            -     @3542
        put_ap             uvm_analysis_port           -     @3552
        put_export         uvm_put_imp                 -     @3532
      slv_r_imp            uvm_analysis_imp_slv_r      -     @2746
      slv_w_fifo           uvm_tlm_analysis_fifo #(T)  -     @3405
        analysis_export    uvm_analysis_imp            -     @3454
        get_ap             uvm_analysis_port           -     @3444
        get_peek_export    uvm_get_peek_imp            -     @3424
        put_ap             uvm_analysis_port           -     @3434
        put_export         uvm_put_imp                 -     @3414
      slv_w_imp            uvm_analysis_imp_slv_w      -     @2726
      w_imp                uvm_analysis_imp_w          -     @2666
      w_p_fifo             uvm_tlm_analysis_fifo #(T)  -     @2874
        analysis_export    uvm_analysis_imp            -     @2923
        get_ap             uvm_analysis_port           -     @2913
        get_peek_export    uvm_get_peek_imp            -     @2893
        put_ap             uvm_analysis_port           -     @2903
        put_export         uvm_put_imp                 -     @2883
    slv_ag0                axi_slave_agent             -     @375 
      mon_s0               axi_monitor                 -     @3583
        ap_ar              uvm_analysis_port           -     @3622
        ap_aw              uvm_analysis_port           -     @3592
        ap_b               uvm_analysis_port           -     @3612
        ap_r               uvm_analysis_port           -     @3632
        ap_w               uvm_analysis_port           -     @3602
    slv_ag1                axi_slave_agent             -     @393 
      mon_s1               axi_monitor                 -     @3643
        ap_ar              uvm_analysis_port           -     @3682
        ap_aw              uvm_analysis_port           -     @3652
        ap_b               uvm_analysis_port           -     @3672
        ap_r               uvm_analysis_port           -     @3692
        ap_w               uvm_analysis_port           -     @3662
    slv_ag2                axi_slave_agent             -     @411 
      mon_s2               axi_monitor                 -     @3703
        ap_ar              uvm_analysis_port           -     @3742
        ap_aw              uvm_analysis_port           -     @3712
        ap_b               uvm_analysis_port           -     @3732
        ap_r               uvm_analysis_port           -     @3752
        ap_w               uvm_analysis_port           -     @3722
    slv_ag3                axi_slave_agent             -     @429 
      mon_s3               axi_monitor                 -     @3763
        ap_ar              uvm_analysis_port           -     @3802
        ap_aw              uvm_analysis_port           -     @3772
        ap_b               uvm_analysis_port           -     @3792
        ap_r               uvm_analysis_port           -     @3812
        ap_w               uvm_analysis_port           -     @3782
    vsqr                   axi_virtual_sequencer       -     @438 
      rsp_export           uvm_analysis_export         -     @447 
      seq_item_export      uvm_seq_item_pull_imp       -     @565 
      arbitration_queue    array                       0     -    
      lock_queue           array                       0     -    
      num_last_reqs        integral                    32    'd1  
      num_last_rsps        integral                    32    'd1  
------------------------------------------------------------------

UVM_INFO /home/synopsys/vcs/O-2018.09-SP2/etc/uvm-1.2/base/uvm_traversal.svh(279) @ 0: reporter [UVM/COMP/NAMECHECK] This implementation of the component name checks requires DPI to be enabled
UVM_INFO ./uvm/axi_driver.sv(220) @ 195000: uvm_test_top.env.mst_ag0.drv_m0 [TRACE] M[0] DRV AR start addr=0x000068c8 len=13 id=14
[TRACE] 215000 AR pre-FIFO vld m=0 vld=1 rdy=1
[TRACE] 215000 AR pre-FIFO out m=0 addr=0x000068c8
UVM_INFO ./uvm/axi_slave_agent.sv(171) @ 225000: uvm_test_top.env.slv_ag3 [TRACE] S[3] SLV AR handshake id=14 addr=0x000068c8 len=13
[TRACE] 225000 AR at slave s=3 addr=0x000068c8
[TRACE] 225000 AR pre-FIFO vld m=0 vld=0 rdy=0
UVM_INFO ./uvm/axi_slave_agent.sv(204) @ 225000: uvm_test_top.env.slv_ag3 [TRACE] S[3] SLV R MISS at addr=0x000068c8
UVM_INFO ./uvm/axi_slave_agent.sv(204) @ 235000: uvm_test_top.env.slv_ag3 [TRACE] S[3] SLV R MISS at addr=0x000068cc
UVM_INFO ./uvm/axi_slave_agent.sv(204) @ 245000: uvm_test_top.env.slv_ag3 [TRACE] S[3] SLV R MISS at addr=0x000068d0
UVM_INFO ./uvm/axi_slave_agent.sv(204) @ 255000: uvm_test_top.env.slv_ag3 [TRACE] S[3] SLV R MISS at addr=0x000068d4
UVM_INFO ./uvm/axi_slave_agent.sv(204) @ 265000: uvm_test_top.env.slv_ag3 [TRACE] S[3] SLV R MISS at addr=0x000068d8
UVM_INFO ./uvm/axi_slave_agent.sv(204) @ 275000: uvm_test_top.env.slv_ag3 [TRACE] S[3] SLV R MISS at addr=0x000068dc
UVM_INFO ./uvm/axi_slave_agent.sv(204) @ 285000: uvm_test_top.env.slv_ag3 [TRACE] S[3] SLV R MISS at addr=0x000068e0
UVM_INFO ./uvm/axi_slave_agent.sv(204) @ 295000: uvm_test_top.env.slv_ag3 [TRACE] S[3] SLV R MISS at addr=0x000068e4
UVM_INFO ./uvm/axi_slave_agent.sv(204) @ 305000: uvm_test_top.env.slv_ag3 [TRACE] S[3] SLV R MISS at addr=0x000068e8
UVM_INFO ./uvm/axi_slave_agent.sv(204) @ 315000: uvm_test_top.env.slv_ag3 [TRACE] S[3] SLV R MISS at addr=0x000068ec
UVM_INFO ./uvm/axi_slave_agent.sv(204) @ 325000: uvm_test_top.env.slv_ag3 [TRACE] S[3] SLV R MISS at addr=0x000068f0
UVM_INFO ./uvm/axi_slave_agent.sv(204) @ 335000: uvm_test_top.env.slv_ag3 [TRACE] S[3] SLV R MISS at addr=0x000068f4
UVM_INFO ./uvm/axi_slave_agent.sv(204) @ 345000: uvm_test_top.env.slv_ag3 [TRACE] S[3] SLV R MISS at addr=0x000068f8
UVM_INFO ./uvm/axi_slave_agent.sv(204) @ 355000: uvm_test_top.env.slv_ag3 [TRACE] S[3] SLV R MISS at addr=0x000068fc
UVM_INFO ./uvm/axi_driver.sv(220) @ 385000: uvm_test_top.env.mst_ag0.drv_m0 [TRACE] M[0] DRV AR start addr=0x00003324 len=12 id=3
[TRACE] 405000 AR pre-FIFO vld m=0 vld=1 rdy=1
[TRACE] 405000 AR pre-FIFO out m=0 addr=0x00003324
UVM_INFO ./uvm/axi_slave_agent.sv(171) @ 415000: uvm_test_top.env.slv_ag1 [TRACE] S[1] SLV AR handshake id=3 addr=0x00003324 len=12
[TRACE] 415000 AR at slave s=1 addr=0x00003324
[TRACE] 415000 AR pre-FIFO vld m=0 vld=0 rdy=0
UVM_INFO ./uvm/axi_slave_agent.sv(204) @ 415000: uvm_test_top.env.slv_ag1 [TRACE] S[1] SLV R MISS at addr=0x00003324
UVM_INFO ./uvm/axi_slave_agent.sv(204) @ 425000: uvm_test_top.env.slv_ag1 [TRACE] S[1] SLV R MISS at addr=0x00003328
UVM_INFO ./uvm/axi_slave_agent.sv(204) @ 435000: uvm_test_top.env.slv_ag1 [TRACE] S[1] SLV R MISS at addr=0x0000332c
UVM_INFO ./uvm/axi_slave_agent.sv(204) @ 445000: uvm_test_top.env.slv_ag1 [TRACE] S[1] SLV R MISS at addr=0x00003330
UVM_INFO ./uvm/axi_slave_agent.sv(204) @ 455000: uvm_test_top.env.slv_ag1 [TRACE] S[1] SLV R MISS at addr=0x00003334
UVM_INFO ./uvm/axi_slave_agent.sv(204) @ 465000: uvm_test_top.env.slv_ag1 [TRACE] S[1] SLV R MISS at addr=0x00003338
UVM_INFO ./uvm/axi_slave_agent.sv(204) @ 475000: uvm_test_top.env.slv_ag1 [TRACE] S[1] SLV R MISS at addr=0x0000333c
UVM_INFO ./uvm/axi_slave_agent.sv(204) @ 485000: uvm_test_top.env.slv_ag1 [TRACE] S[1] SLV R MISS at addr=0x00003340
UVM_INFO ./uvm/axi_slave_agent.sv(204) @ 495000: uvm_test_top.env.slv_ag1 [TRACE] S[1] SLV R MISS at addr=0x00003344
UVM_INFO ./uvm/axi_slave_agent.sv(204) @ 505000: uvm_test_top.env.slv_ag1 [TRACE] S[1] SLV R MISS at addr=0x00003348
UVM_INFO ./uvm/axi_slave_agent.sv(204) @ 515000: uvm_test_top.env.slv_ag1 [TRACE] S[1] SLV R MISS at addr=0x0000334c
UVM_INFO ./uvm/axi_slave_agent.sv(204) @ 525000: uvm_test_top.env.slv_ag1 [TRACE] S[1] SLV R MISS at addr=0x00003350
UVM_INFO ./uvm/axi_slave_agent.sv(204) @ 535000: uvm_test_top.env.slv_ag1 [TRACE] S[1] SLV R MISS at addr=0x00003354
UVM_INFO ./uvm/axi_driver.sv(126) @ 565000: uvm_test_top.env.mst_ag0.drv_m0 [TRACE] M[0] DRV AW start addr=0x00002354 id=10
UVM_INFO ./uvm/axi_slave_agent.sv(84) @ 595000: uvm_test_top.env.slv_ag1 [TRACE] S[1] SLV AW handshake id=10 addr=0x00002354 len=15
UVM_INFO ./uvm/axi_slave_agent.sv(112) @ 605000: uvm_test_top.env.slv_ag1 [TRACE] S[1] SLV W beat 0 data=0x95e08f57 last=0
UVM_INFO ./uvm/axi_slave_agent.sv(112) @ 615000: uvm_test_top.env.slv_ag1 [TRACE] S[1] SLV W beat 1 data=0xfe015e7d last=0
UVM_INFO ./uvm/axi_slave_agent.sv(112) @ 625000: uvm_test_top.env.slv_ag1 [TRACE] S[1] SLV W beat 2 data=0xeedc63ea last=0
UVM_INFO ./uvm/axi_slave_agent.sv(112) @ 635000: uvm_test_top.env.slv_ag1 [TRACE] S[1] SLV W beat 3 data=0xa32397eb last=0
UVM_INFO ./uvm/axi_slave_agent.sv(112) @ 645000: uvm_test_top.env.slv_ag1 [TRACE] S[1] SLV W beat 4 data=0x85019651 last=0
UVM_INFO ./uvm/axi_slave_agent.sv(112) @ 655000: uvm_test_top.env.slv_ag1 [TRACE] S[1] SLV W beat 5 data=0x3ac750d4 last=0
UVM_INFO ./uvm/axi_slave_agent.sv(112) @ 665000: uvm_test_top.env.slv_ag1 [TRACE] S[1] SLV W beat 6 data=0x7cd1c8b1 last=0
UVM_INFO ./uvm/axi_slave_agent.sv(112) @ 675000: uvm_test_top.env.slv_ag1 [TRACE] S[1] SLV W beat 7 data=0x35768999 last=0
UVM_INFO ./uvm/axi_slave_agent.sv(112) @ 685000: uvm_test_top.env.slv_ag1 [TRACE] S[1] SLV W beat 8 data=0xf8c2ba9f last=0
UVM_INFO ./uvm/axi_slave_agent.sv(112) @ 695000: uvm_test_top.env.slv_ag1 [TRACE] S[1] SLV W beat 9 data=0x487542e7 last=0
UVM_INFO ./uvm/axi_slave_agent.sv(112) @ 705000: uvm_test_top.env.slv_ag1 [TRACE] S[1] SLV W beat 10 data=0x8c2fb31c last=0
UVM_INFO ./uvm/axi_slave_agent.sv(112) @ 715000: uvm_test_top.env.slv_ag1 [TRACE] S[1] SLV W beat 11 data=0x3c54b16c last=0
UVM_INFO ./uvm/axi_slave_agent.sv(112) @ 725000: uvm_test_top.env.slv_ag1 [TRACE] S[1] SLV W beat 12 data=0xdaaef47c last=0
UVM_INFO ./uvm/axi_slave_agent.sv(112) @ 735000: uvm_test_top.env.slv_ag1 [TRACE] S[1] SLV W beat 13 data=0xd87f47d9 last=0
UVM_INFO ./uvm/axi_slave_agent.sv(112) @ 745000: uvm_test_top.env.slv_ag1 [TRACE] S[1] SLV W beat 14 data=0xa33c06cf last=0
UVM_INFO ./uvm/axi_slave_agent.sv(112) @ 755000: uvm_test_top.env.slv_ag1 [TRACE] S[1] SLV W beat 15 data=0xec957756 last=1
[785000] M[0] DRV B Handshake! BID=10 b_pending_size=1
UVM_INFO ./uvm/axi_driver.sv(190) @ 785000: uvm_test_top.env.mst_ag0.drv_m0 [TRACE] M[0] DRV B resp=0 id=10
UVM_INFO ./uvm/axi_driver.sv(126) @ 785000: uvm_test_top.env.mst_ag0.drv_m0 [TRACE] M[0] DRV AW start addr=0x0000413c id=11
UVM_INFO ./uvm/axi_slave_agent.sv(84) @ 815000: uvm_test_top.env.slv_ag2 [TRACE] S[2] SLV AW handshake id=11 addr=0x0000413c len=14
UVM_INFO ./uvm/axi_slave_agent.sv(112) @ 825000: uvm_test_top.env.slv_ag2 [TRACE] S[2] SLV W beat 0 data=0xd4761fc4 last=0
UVM_INFO ./uvm/axi_slave_agent.sv(112) @ 835000: uvm_test_top.env.slv_ag2 [TRACE] S[2] SLV W beat 1 data=0x1639f4f5 last=0
UVM_INFO ./uvm/axi_slave_agent.sv(112) @ 845000: uvm_test_top.env.slv_ag2 [TRACE] S[2] SLV W beat 2 data=0xc87826d6 last=0
UVM_INFO ./uvm/axi_slave_agent.sv(112) @ 855000: uvm_test_top.env.slv_ag2 [TRACE] S[2] SLV W beat 3 data=0xc4f47437 last=0
UVM_INFO ./uvm/axi_slave_agent.sv(112) @ 865000: uvm_test_top.env.slv_ag2 [TRACE] S[2] SLV W beat 4 data=0x2cc1819c last=0
UVM_INFO ./uvm/axi_slave_agent.sv(112) @ 875000: uvm_test_top.env.slv_ag2 [TRACE] S[2] SLV W beat 5 data=0x07b409bc last=0
UVM_INFO ./uvm/axi_slave_agent.sv(112) @ 885000: uvm_test_top.env.slv_ag2 [TRACE] S[2] SLV W beat 6 data=0x18349670 last=0
UVM_INFO ./uvm/axi_slave_agent.sv(112) @ 895000: uvm_test_top.env.slv_ag2 [TRACE] S[2] SLV W beat 7 data=0x27a4a110 last=0
UVM_INFO ./uvm/axi_slave_agent.sv(112) @ 905000: uvm_test_top.env.slv_ag2 [TRACE] S[2] SLV W beat 8 data=0xdc13a7a3 last=0
UVM_INFO ./uvm/axi_slave_agent.sv(112) @ 915000: uvm_test_top.env.slv_ag2 [TRACE] S[2] SLV W beat 9 data=0x3ba54a15 last=0
UVM_INFO ./uvm/axi_slave_agent.sv(112) @ 925000: uvm_test_top.env.slv_ag2 [TRACE] S[2] SLV W beat 10 data=0xb61b488e last=0
UVM_INFO ./uvm/axi_slave_agent.sv(112) @ 935000: uvm_test_top.env.slv_ag2 [TRACE] S[2] SLV W beat 11 data=0x08893d2a last=0
UVM_INFO ./uvm/axi_slave_agent.sv(112) @ 945000: uvm_test_top.env.slv_ag2 [TRACE] S[2] SLV W beat 12 data=0x1b2add22 last=0
UVM_INFO ./uvm/axi_slave_agent.sv(112) @ 955000: uvm_test_top.env.slv_ag2 [TRACE] S[2] SLV W beat 13 data=0x8b3448b3 last=0
UVM_INFO ./uvm/axi_slave_agent.sv(112) @ 965000: uvm_test_top.env.slv_ag2 [TRACE] S[2] SLV W beat 14 data=0xd9113aea last=1
[995000] M[0] DRV B Handshake! BID=11 b_pending_size=1
UVM_INFO ./uvm/axi_driver.sv(190) @ 995000: uvm_test_top.env.mst_ag0.drv_m0 [TRACE] M[0] DRV B resp=0 id=11
UVM_INFO ./uvm/axi_driver.sv(220) @ 995000: uvm_test_top.env.mst_ag0.drv_m0 [TRACE] M[0] DRV AR start addr=0x00000a50 len=1 id=12
[TRACE] 1015000 AR pre-FIFO vld m=0 vld=1 rdy=1
[TRACE] 1015000 AR pre-FIFO out m=0 addr=0x00000a50
UVM_INFO ./uvm/axi_slave_agent.sv(171) @ 1025000: uvm_test_top.env.slv_ag0 [TRACE] S[0] SLV AR handshake id=12 addr=0x00000a50 len=1
[TRACE] 1025000 AR at slave s=0 addr=0x00000a50
[TRACE] 1025000 AR pre-FIFO vld m=0 vld=0 rdy=0
UVM_INFO ./uvm/axi_slave_agent.sv(204) @ 1025000: uvm_test_top.env.slv_ag0 [TRACE] S[0] SLV R MISS at addr=0x00000a50
UVM_INFO ./uvm/axi_slave_agent.sv(204) @ 1035000: uvm_test_top.env.slv_ag0 [TRACE] S[0] SLV R MISS at addr=0x00000a54
UVM_INFO ./uvm/axi_driver.sv(126) @ 1065000: uvm_test_top.env.mst_ag0.drv_m0 [TRACE] M[0] DRV AW start addr=0x00004504 id=15
UVM_INFO ./uvm/axi_slave_agent.sv(84) @ 1095000: uvm_test_top.env.slv_ag2 [TRACE] S[2] SLV AW handshake id=15 addr=0x00004504 len=5
UVM_INFO ./uvm/axi_slave_agent.sv(112) @ 1105000: uvm_test_top.env.slv_ag2 [TRACE] S[2] SLV W beat 0 data=0x6b5f89a2 last=0
UVM_INFO ./uvm/axi_slave_agent.sv(112) @ 1115000: uvm_test_top.env.slv_ag2 [TRACE] S[2] SLV W beat 1 data=0xebb7f8f5 last=0
UVM_INFO ./uvm/axi_slave_agent.sv(112) @ 1125000: uvm_test_top.env.slv_ag2 [TRACE] S[2] SLV W beat 2 data=0x97c55b2e last=0
UVM_INFO ./uvm/axi_slave_agent.sv(112) @ 1135000: uvm_test_top.env.slv_ag2 [TRACE] S[2] SLV W beat 3 data=0x75138b38 last=0
UVM_INFO ./uvm/axi_slave_agent.sv(112) @ 1145000: uvm_test_top.env.slv_ag2 [TRACE] S[2] SLV W beat 4 data=0xb9d5ff8a last=0
UVM_INFO ./uvm/axi_slave_agent.sv(112) @ 1155000: uvm_test_top.env.slv_ag2 [TRACE] S[2] SLV W beat 5 data=0x4a6542ed last=1
[1185000] M[0] DRV B Handshake! BID=15 b_pending_size=1
UVM_INFO ./uvm/axi_driver.sv(190) @ 1185000: uvm_test_top.env.mst_ag0.drv_m0 [TRACE] M[0] DRV B resp=0 id=15
UVM_INFO ./uvm/axi_driver.sv(126) @ 1185000: uvm_test_top.env.mst_ag0.drv_m0 [TRACE] M[0] DRV AW start addr=0x00003d90 id=5
UVM_INFO ./uvm/axi_slave_agent.sv(84) @ 1215000: uvm_test_top.env.slv_ag1 [TRACE] S[1] SLV AW handshake id=5 addr=0x00003d90 len=3
UVM_INFO ./uvm/axi_slave_agent.sv(112) @ 1225000: uvm_test_top.env.slv_ag1 [TRACE] S[1] SLV W beat 0 data=0x9e56e6a2 last=0
UVM_INFO ./uvm/axi_slave_agent.sv(112) @ 1235000: uvm_test_top.env.slv_ag1 [TRACE] S[1] SLV W beat 1 data=0x011c4473 last=0
UVM_INFO ./uvm/axi_slave_agent.sv(112) @ 1245000: uvm_test_top.env.slv_ag1 [TRACE] S[1] SLV W beat 2 data=0xa7920b2e last=0
UVM_INFO ./uvm/axi_slave_agent.sv(112) @ 1255000: uvm_test_top.env.slv_ag1 [TRACE] S[1] SLV W beat 3 data=0x308787ee last=1
[1285000] M[0] DRV B Handshake! BID=5 b_pending_size=1
UVM_INFO ./uvm/axi_driver.sv(190) @ 1285000: uvm_test_top.env.mst_ag0.drv_m0 [TRACE] M[0] DRV B resp=0 id=5
UVM_INFO ./uvm/axi_driver.sv(220) @ 1285000: uvm_test_top.env.mst_ag0.drv_m0 [TRACE] M[0] DRV AR start addr=0x0000301c len=14 id=2
[TRACE] 1305000 AR pre-FIFO vld m=0 vld=1 rdy=1
[TRACE] 1305000 AR pre-FIFO out m=0 addr=0x0000301c
UVM_INFO ./uvm/axi_slave_agent.sv(171) @ 1315000: uvm_test_top.env.slv_ag1 [TRACE] S[1] SLV AR handshake id=2 addr=0x0000301c len=14
[TRACE] 1315000 AR at slave s=1 addr=0x0000301c
[TRACE] 1315000 AR pre-FIFO vld m=0 vld=0 rdy=0
UVM_INFO ./uvm/axi_slave_agent.sv(204) @ 1315000: uvm_test_top.env.slv_ag1 [TRACE] S[1] SLV R MISS at addr=0x0000301c
UVM_INFO ./uvm/axi_slave_agent.sv(204) @ 1325000: uvm_test_top.env.slv_ag1 [TRACE] S[1] SLV R MISS at addr=0x00003020
UVM_INFO ./uvm/axi_slave_agent.sv(204) @ 1335000: uvm_test_top.env.slv_ag1 [TRACE] S[1] SLV R MISS at addr=0x00003024
UVM_INFO ./uvm/axi_slave_agent.sv(204) @ 1345000: uvm_test_top.env.slv_ag1 [TRACE] S[1] SLV R MISS at addr=0x00003028
UVM_INFO ./uvm/axi_slave_agent.sv(204) @ 1355000: uvm_test_top.env.slv_ag1 [TRACE] S[1] SLV R MISS at addr=0x0000302c
UVM_INFO ./uvm/axi_slave_agent.sv(204) @ 1365000: uvm_test_top.env.slv_ag1 [TRACE] S[1] SLV R MISS at addr=0x00003030
UVM_INFO ./uvm/axi_slave_agent.sv(204) @ 1375000: uvm_test_top.env.slv_ag1 [TRACE] S[1] SLV R MISS at addr=0x00003034
UVM_INFO ./uvm/axi_slave_agent.sv(204) @ 1385000: uvm_test_top.env.slv_ag1 [TRACE] S[1] SLV R MISS at addr=0x00003038
UVM_INFO ./uvm/axi_slave_agent.sv(204) @ 1395000: uvm_test_top.env.slv_ag1 [TRACE] S[1] SLV R MISS at addr=0x0000303c
UVM_INFO ./uvm/axi_slave_agent.sv(204) @ 1405000: uvm_test_top.env.slv_ag1 [TRACE] S[1] SLV R MISS at addr=0x00003040
UVM_INFO ./uvm/axi_slave_agent.sv(204) @ 1415000: uvm_test_top.env.slv_ag1 [TRACE] S[1] SLV R MISS at addr=0x00003044
UVM_INFO ./uvm/axi_slave_agent.sv(204) @ 1425000: uvm_test_top.env.slv_ag1 [TRACE] S[1] SLV R MISS at addr=0x00003048
UVM_INFO ./uvm/axi_slave_agent.sv(204) @ 1435000: uvm_test_top.env.slv_ag1 [TRACE] S[1] SLV R MISS at addr=0x0000304c
UVM_INFO ./uvm/axi_slave_agent.sv(204) @ 1445000: uvm_test_top.env.slv_ag1 [TRACE] S[1] SLV R MISS at addr=0x00003050
UVM_INFO ./uvm/axi_slave_agent.sv(204) @ 1455000: uvm_test_top.env.slv_ag1 [TRACE] S[1] SLV R MISS at addr=0x00003054
UVM_INFO ./uvm/axi_driver.sv(220) @ 1485000: uvm_test_top.env.mst_ag0.drv_m0 [TRACE] M[0] DRV AR start addr=0x000031f8 len=14 id=4
[TRACE] 1505000 AR pre-FIFO vld m=0 vld=1 rdy=1
[TRACE] 1505000 AR pre-FIFO out m=0 addr=0x000031f8
UVM_INFO ./uvm/axi_slave_agent.sv(171) @ 1515000: uvm_test_top.env.slv_ag1 [TRACE] S[1] SLV AR handshake id=4 addr=0x000031f8 len=14
[TRACE] 1515000 AR at slave s=1 addr=0x000031f8
[TRACE] 1515000 AR pre-FIFO vld m=0 vld=0 rdy=0
UVM_INFO ./uvm/axi_slave_agent.sv(204) @ 1515000: uvm_test_top.env.slv_ag1 [TRACE] S[1] SLV R MISS at addr=0x000031f8
UVM_INFO ./uvm/axi_slave_agent.sv(204) @ 1525000: uvm_test_top.env.slv_ag1 [TRACE] S[1] SLV R MISS at addr=0x000031fc
UVM_INFO ./uvm/axi_slave_agent.sv(204) @ 1535000: uvm_test_top.env.slv_ag1 [TRACE] S[1] SLV R MISS at addr=0x00003200
UVM_INFO ./uvm/axi_slave_agent.sv(204) @ 1545000: uvm_test_top.env.slv_ag1 [TRACE] S[1] SLV R MISS at addr=0x00003204
UVM_INFO ./uvm/axi_slave_agent.sv(204) @ 1555000: uvm_test_top.env.slv_ag1 [TRACE] S[1] SLV R MISS at addr=0x00003208
UVM_INFO ./uvm/axi_slave_agent.sv(204) @ 1565000: uvm_test_top.env.slv_ag1 [TRACE] S[1] SLV R MISS at addr=0x0000320c
UVM_INFO ./uvm/axi_slave_agent.sv(204) @ 1575000: uvm_test_top.env.slv_ag1 [TRACE] S[1] SLV R MISS at addr=0x00003210
UVM_INFO ./uvm/axi_slave_agent.sv(204) @ 1585000: uvm_test_top.env.slv_ag1 [TRACE] S[1] SLV R MISS at addr=0x00003214
UVM_INFO ./uvm/axi_slave_agent.sv(204) @ 1595000: uvm_test_top.env.slv_ag1 [TRACE] S[1] SLV R MISS at addr=0x00003218
UVM_INFO ./uvm/axi_slave_agent.sv(204) @ 1605000: uvm_test_top.env.slv_ag1 [TRACE] S[1] SLV R MISS at addr=0x0000321c
UVM_INFO ./uvm/axi_slave_agent.sv(204) @ 1615000: uvm_test_top.env.slv_ag1 [TRACE] S[1] SLV R MISS at addr=0x00003220
UVM_INFO ./uvm/axi_slave_agent.sv(204) @ 1625000: uvm_test_top.env.slv_ag1 [TRACE] S[1] SLV R MISS at addr=0x00003224
UVM_INFO ./uvm/axi_slave_agent.sv(204) @ 1635000: uvm_test_top.env.slv_ag1 [TRACE] S[1] SLV R MISS at addr=0x00003228
UVM_INFO ./uvm/axi_slave_agent.sv(204) @ 1645000: uvm_test_top.env.slv_ag1 [TRACE] S[1] SLV R MISS at addr=0x0000322c
UVM_INFO ./uvm/axi_slave_agent.sv(204) @ 1655000: uvm_test_top.env.slv_ag1 [TRACE] S[1] SLV R MISS at addr=0x00003230
UVM_INFO ./uvm/axi_driver.sv(220) @ 1685000: uvm_test_top.env.mst_ag0.drv_m0 [TRACE] M[0] DRV AR start addr=0x00003cfc len=4 id=4
[TRACE] 1705000 AR pre-FIFO vld m=0 vld=1 rdy=1
[TRACE] 1705000 AR pre-FIFO out m=0 addr=0x00003cfc
UVM_INFO ./uvm/axi_slave_agent.sv(171) @ 1715000: uvm_test_top.env.slv_ag1 [TRACE] S[1] SLV AR handshake id=4 addr=0x00003cfc len=4
[TRACE] 1715000 AR at slave s=1 addr=0x00003cfc
[TRACE] 1715000 AR pre-FIFO vld m=0 vld=0 rdy=0
UVM_INFO ./uvm/axi_slave_agent.sv(204) @ 1715000: uvm_test_top.env.slv_ag1 [TRACE] S[1] SLV R MISS at addr=0x00003cfc
UVM_INFO ./uvm/axi_slave_agent.sv(204) @ 1725000: uvm_test_top.env.slv_ag1 [TRACE] S[1] SLV R MISS at addr=0x00003d00
UVM_INFO ./uvm/axi_slave_agent.sv(204) @ 1735000: uvm_test_top.env.slv_ag1 [TRACE] S[1] SLV R MISS at addr=0x00003d04
UVM_INFO ./uvm/axi_slave_agent.sv(204) @ 1745000: uvm_test_top.env.slv_ag1 [TRACE] S[1] SLV R MISS at addr=0x00003d08
UVM_INFO ./uvm/axi_slave_agent.sv(204) @ 1755000: uvm_test_top.env.slv_ag1 [TRACE] S[1] SLV R MISS at addr=0x00003d0c
UVM_INFO ./uvm/axi_driver.sv(126) @ 1785000: uvm_test_top.env.mst_ag0.drv_m0 [TRACE] M[0] DRV AW start addr=0x00002f88 id=15
UVM_INFO ./uvm/axi_slave_agent.sv(84) @ 1815000: uvm_test_top.env.slv_ag1 [TRACE] S[1] SLV AW handshake id=15 addr=0x00002f88 len=4
UVM_INFO ./uvm/axi_slave_agent.sv(112) @ 1825000: uvm_test_top.env.slv_ag1 [TRACE] S[1] SLV W beat 0 data=0x4bcaa838 last=0
UVM_INFO ./uvm/axi_slave_agent.sv(112) @ 1835000: uvm_test_top.env.slv_ag1 [TRACE] S[1] SLV W beat 1 data=0xe37ea118 last=0
UVM_INFO ./uvm/axi_slave_agent.sv(112) @ 1845000: uvm_test_top.env.slv_ag1 [TRACE] S[1] SLV W beat 2 data=0x0da545be last=0
UVM_INFO ./uvm/axi_slave_agent.sv(112) @ 1855000: uvm_test_top.env.slv_ag1 [TRACE] S[1] SLV W beat 3 data=0x8b4042a3 last=0
UVM_INFO ./uvm/axi_slave_agent.sv(112) @ 1865000: uvm_test_top.env.slv_ag1 [TRACE] S[1] SLV W beat 4 data=0x21800e23 last=1
[1895000] M[0] DRV B Handshake! BID=15 b_pending_size=1
UVM_INFO ./uvm/axi_driver.sv(190) @ 1895000: uvm_test_top.env.mst_ag0.drv_m0 [TRACE] M[0] DRV B resp=0 id=15
UVM_INFO ./uvm/axi_driver.sv(220) @ 1895000: uvm_test_top.env.mst_ag0.drv_m0 [TRACE] M[0] DRV AR start addr=0x00003780 len=3 id=5
[TRACE] 1915000 AR pre-FIFO vld m=0 vld=1 rdy=1
[TRACE] 1915000 AR pre-FIFO out m=0 addr=0x00003780
UVM_INFO ./uvm/axi_slave_agent.sv(171) @ 1925000: uvm_test_top.env.slv_ag1 [TRACE] S[1] SLV AR handshake id=5 addr=0x00003780 len=3
[TRACE] 1925000 AR at slave s=1 addr=0x00003780
[TRACE] 1925000 AR pre-FIFO vld m=0 vld=0 rdy=0
UVM_INFO ./uvm/axi_slave_agent.sv(204) @ 1925000: uvm_test_top.env.slv_ag1 [TRACE] S[1] SLV R MISS at addr=0x00003780
UVM_INFO ./uvm/axi_slave_agent.sv(204) @ 1935000: uvm_test_top.env.slv_ag1 [TRACE] S[1] SLV R MISS at addr=0x00003784
UVM_INFO ./uvm/axi_slave_agent.sv(204) @ 1945000: uvm_test_top.env.slv_ag1 [TRACE] S[1] SLV R MISS at addr=0x00003788
UVM_INFO ./uvm/axi_slave_agent.sv(204) @ 1955000: uvm_test_top.env.slv_ag1 [TRACE] S[1] SLV R MISS at addr=0x0000378c
UVM_INFO ./uvm/axi_driver.sv(126) @ 1985000: uvm_test_top.env.mst_ag0.drv_m0 [TRACE] M[0] DRV AW start addr=0x00002a84 id=7
UVM_INFO ./uvm/axi_slave_agent.sv(84) @ 2015000: uvm_test_top.env.slv_ag1 [TRACE] S[1] SLV AW handshake id=7 addr=0x00002a84 len=8
UVM_INFO ./uvm/axi_slave_agent.sv(112) @ 2025000: uvm_test_top.env.slv_ag1 [TRACE] S[1] SLV W beat 0 data=0xf71c438b last=0
UVM_INFO ./uvm/axi_slave_agent.sv(112) @ 2035000: uvm_test_top.env.slv_ag1 [TRACE] S[1] SLV W beat 1 data=0x75c8c02c last=0
UVM_INFO ./uvm/axi_slave_agent.sv(112) @ 2045000: uvm_test_top.env.slv_ag1 [TRACE] S[1] SLV W beat 2 data=0xcc16777e last=0
UVM_INFO ./uvm/axi_slave_agent.sv(112) @ 2055000: uvm_test_top.env.slv_ag1 [TRACE] S[1] SLV W beat 3 data=0x3e481b83 last=0
UVM_INFO ./uvm/axi_slave_agent.sv(112) @ 2065000: uvm_test_top.env.slv_ag1 [TRACE] S[1] SLV W beat 4 data=0xf0d4f8db last=0
UVM_INFO ./uvm/axi_slave_agent.sv(112) @ 2075000: uvm_test_top.env.slv_ag1 [TRACE] S[1] SLV W beat 5 data=0xad9f1fb3 last=0
UVM_INFO ./uvm/axi_slave_agent.sv(112) @ 2085000: uvm_test_top.env.slv_ag1 [TRACE] S[1] SLV W beat 6 data=0x52fb0397 last=0
UVM_INFO ./uvm/axi_slave_agent.sv(112) @ 2095000: uvm_test_top.env.slv_ag1 [TRACE] S[1] SLV W beat 7 data=0x0a08668d last=0
UVM_INFO ./uvm/axi_slave_agent.sv(112) @ 2105000: uvm_test_top.env.slv_ag1 [TRACE] S[1] SLV W beat 8 data=0xfb625331 last=1
[2135000] M[0] DRV B Handshake! BID=7 b_pending_size=1
UVM_INFO ./uvm/axi_driver.sv(190) @ 2135000: uvm_test_top.env.mst_ag0.drv_m0 [TRACE] M[0] DRV B resp=0 id=7
UVM_INFO ./uvm/axi_driver.sv(220) @ 2135000: uvm_test_top.env.mst_ag0.drv_m0 [TRACE] M[0] DRV AR start addr=0x000007f0 len=7 id=9
[TRACE] 2155000 AR pre-FIFO vld m=0 vld=1 rdy=1
[TRACE] 2155000 AR pre-FIFO out m=0 addr=0x000007f0
UVM_INFO ./uvm/axi_slave_agent.sv(171) @ 2165000: uvm_test_top.env.slv_ag0 [TRACE] S[0] SLV AR handshake id=9 addr=0x000007f0 len=7
[TRACE] 2165000 AR at slave s=0 addr=0x000007f0
[TRACE] 2165000 AR pre-FIFO vld m=0 vld=0 rdy=0
UVM_INFO ./uvm/axi_slave_agent.sv(204) @ 2165000: uvm_test_top.env.slv_ag0 [TRACE] S[0] SLV R MISS at addr=0x000007f0
UVM_INFO ./uvm/axi_slave_agent.sv(204) @ 2175000: uvm_test_top.env.slv_ag0 [TRACE] S[0] SLV R MISS at addr=0x000007f4
UVM_INFO ./uvm/axi_slave_agent.sv(204) @ 2185000: uvm_test_top.env.slv_ag0 [TRACE] S[0] SLV R MISS at addr=0x000007f8
UVM_INFO ./uvm/axi_slave_agent.sv(204) @ 2195000: uvm_test_top.env.slv_ag0 [TRACE] S[0] SLV R MISS at addr=0x000007fc
UVM_INFO ./uvm/axi_slave_agent.sv(204) @ 2205000: uvm_test_top.env.slv_ag0 [TRACE] S[0] SLV R MISS at addr=0x00000800
UVM_INFO ./uvm/axi_slave_agent.sv(204) @ 2215000: uvm_test_top.env.slv_ag0 [TRACE] S[0] SLV R MISS at addr=0x00000804
UVM_INFO ./uvm/axi_slave_agent.sv(204) @ 2225000: uvm_test_top.env.slv_ag0 [TRACE] S[0] SLV R MISS at addr=0x00000808
UVM_INFO ./uvm/axi_slave_agent.sv(204) @ 2235000: uvm_test_top.env.slv_ag0 [TRACE] S[0] SLV R MISS at addr=0x0000080c
UVM_INFO ./uvm/axi_driver.sv(220) @ 2265000: uvm_test_top.env.mst_ag0.drv_m0 [TRACE] M[0] DRV AR start addr=0x00003aec len=5 id=9
[TRACE] 2285000 AR pre-FIFO vld m=0 vld=1 rdy=1
[TRACE] 2285000 AR pre-FIFO out m=0 addr=0x00003aec
UVM_INFO ./uvm/axi_slave_agent.sv(171) @ 2295000: uvm_test_top.env.slv_ag1 [TRACE] S[1] SLV AR handshake id=9 addr=0x00003aec len=5
[TRACE] 2295000 AR at slave s=1 addr=0x00003aec
[TRACE] 2295000 AR pre-FIFO vld m=0 vld=0 rdy=0
UVM_INFO ./uvm/axi_slave_agent.sv(204) @ 2295000: uvm_test_top.env.slv_ag1 [TRACE] S[1] SLV R MISS at addr=0x00003aec
UVM_INFO ./uvm/axi_slave_agent.sv(204) @ 2305000: uvm_test_top.env.slv_ag1 [TRACE] S[1] SLV R MISS at addr=0x00003af0
UVM_INFO ./uvm/axi_slave_agent.sv(204) @ 2315000: uvm_test_top.env.slv_ag1 [TRACE] S[1] SLV R MISS at addr=0x00003af4
UVM_INFO ./uvm/axi_slave_agent.sv(204) @ 2325000: uvm_test_top.env.slv_ag1 [TRACE] S[1] SLV R MISS at addr=0x00003af8
UVM_INFO ./uvm/axi_slave_agent.sv(204) @ 2335000: uvm_test_top.env.slv_ag1 [TRACE] S[1] SLV R MISS at addr=0x00003afc
UVM_INFO ./uvm/axi_slave_agent.sv(204) @ 2345000: uvm_test_top.env.slv_ag1 [TRACE] S[1] SLV R MISS at addr=0x00003b00
UVM_INFO ./uvm/axi_driver.sv(220) @ 2375000: uvm_test_top.env.mst_ag0.drv_m0 [TRACE] M[0] DRV AR start addr=0x00004914 len=10 id=2
[TRACE] 2395000 AR pre-FIFO vld m=0 vld=1 rdy=1
[TRACE] 2395000 AR pre-FIFO out m=0 addr=0x00004914
UVM_INFO ./uvm/axi_slave_agent.sv(171) @ 2405000: uvm_test_top.env.slv_ag2 [TRACE] S[2] SLV AR handshake id=2 addr=0x00004914 len=10
[TRACE] 2405000 AR at slave s=2 addr=0x00004914
[TRACE] 2405000 AR pre-FIFO vld m=0 vld=0 rdy=0
UVM_INFO ./uvm/axi_slave_agent.sv(204) @ 2405000: uvm_test_top.env.slv_ag2 [TRACE] S[2] SLV R MISS at addr=0x00004914
UVM_INFO ./uvm/axi_slave_agent.sv(204) @ 2415000: uvm_test_top.env.slv_ag2 [TRACE] S[2] SLV R MISS at addr=0x00004918
UVM_INFO ./uvm/axi_slave_agent.sv(204) @ 2425000: uvm_test_top.env.slv_ag2 [TRACE] S[2] SLV R MISS at addr=0x0000491c
UVM_INFO ./uvm/axi_slave_agent.sv(204) @ 2435000: uvm_test_top.env.slv_ag2 [TRACE] S[2] SLV R MISS at addr=0x00004920
UVM_INFO ./uvm/axi_slave_agent.sv(204) @ 2445000: uvm_test_top.env.slv_ag2 [TRACE] S[2] SLV R MISS at addr=0x00004924
UVM_INFO ./uvm/axi_slave_agent.sv(204) @ 2455000: uvm_test_top.env.slv_ag2 [TRACE] S[2] SLV R MISS at addr=0x00004928
UVM_INFO ./uvm/axi_slave_agent.sv(204) @ 2465000: uvm_test_top.env.slv_ag2 [TRACE] S[2] SLV R MISS at addr=0x0000492c
UVM_INFO ./uvm/axi_slave_agent.sv(204) @ 2475000: uvm_test_top.env.slv_ag2 [TRACE] S[2] SLV R MISS at addr=0x00004930
UVM_INFO ./uvm/axi_slave_agent.sv(204) @ 2485000: uvm_test_top.env.slv_ag2 [TRACE] S[2] SLV R MISS at addr=0x00004934
UVM_INFO ./uvm/axi_slave_agent.sv(204) @ 2495000: uvm_test_top.env.slv_ag2 [TRACE] S[2] SLV R MISS at addr=0x00004938
UVM_INFO ./uvm/axi_slave_agent.sv(204) @ 2505000: uvm_test_top.env.slv_ag2 [TRACE] S[2] SLV R MISS at addr=0x0000493c
UVM_INFO ./uvm/axi_driver.sv(126) @ 2535000: uvm_test_top.env.mst_ag0.drv_m0 [TRACE] M[0] DRV AW start addr=0x00000f78 id=1
UVM_INFO ./uvm/axi_slave_agent.sv(84) @ 2565000: uvm_test_top.env.slv_ag0 [TRACE] S[0] SLV AW handshake id=1 addr=0x00000f78 len=13
UVM_INFO ./uvm/axi_slave_agent.sv(112) @ 2575000: uvm_test_top.env.slv_ag0 [TRACE] S[0] SLV W beat 0 data=0x4b2ca111 last=0
UVM_INFO ./uvm/axi_slave_agent.sv(112) @ 2585000: uvm_test_top.env.slv_ag0 [TRACE] S[0] SLV W beat 1 data=0x2ee1152a last=0
UVM_INFO ./uvm/axi_slave_agent.sv(112) @ 2595000: uvm_test_top.env.slv_ag0 [TRACE] S[0] SLV W beat 2 data=0xcc635c1c last=0
UVM_INFO ./uvm/axi_slave_agent.sv(112) @ 2605000: uvm_test_top.env.slv_ag0 [TRACE] S[0] SLV W beat 3 data=0x09feeffc last=0
UVM_INFO ./uvm/axi_slave_agent.sv(112) @ 2615000: uvm_test_top.env.slv_ag0 [TRACE] S[0] SLV W beat 4 data=0xc29f428c last=0
UVM_INFO ./uvm/axi_slave_agent.sv(112) @ 2625000: uvm_test_top.env.slv_ag0 [TRACE] S[0] SLV W beat 5 data=0xbad2735f last=0
UVM_INFO ./uvm/axi_slave_agent.sv(112) @ 2635000: uvm_test_top.env.slv_ag0 [TRACE] S[0] SLV W beat 6 data=0x09a7fa65 last=0
UVM_INFO ./uvm/axi_slave_agent.sv(112) @ 2645000: uvm_test_top.env.slv_ag0 [TRACE] S[0] SLV W beat 7 data=0x4edf51bc last=0
UVM_INFO ./uvm/axi_slave_agent.sv(112) @ 2655000: uvm_test_top.env.slv_ag0 [TRACE] S[0] SLV W beat 8 data=0xdf28efa9 last=0
UVM_INFO ./uvm/axi_slave_agent.sv(112) @ 2665000: uvm_test_top.env.slv_ag0 [TRACE] S[0] SLV W beat 9 data=0x89b2121a last=0
UVM_INFO ./uvm/axi_slave_agent.sv(112) @ 2675000: uvm_test_top.env.slv_ag0 [TRACE] S[0] SLV W beat 10 data=0x7bd9bced last=0
UVM_INFO ./uvm/axi_slave_agent.sv(112) @ 2685000: uvm_test_top.env.slv_ag0 [TRACE] S[0] SLV W beat 11 data=0xdee48a96 last=0
UVM_INFO ./uvm/axi_slave_agent.sv(112) @ 2695000: uvm_test_top.env.slv_ag0 [TRACE] S[0] SLV W beat 12 data=0x67dbeec3 last=0
UVM_INFO ./uvm/axi_slave_agent.sv(112) @ 2705000: uvm_test_top.env.slv_ag0 [TRACE] S[0] SLV W beat 13 data=0xb4567b09 last=1
[2735000] M[0] DRV B Handshake! BID=1 b_pending_size=1
UVM_INFO ./uvm/axi_driver.sv(190) @ 2735000: uvm_test_top.env.mst_ag0.drv_m0 [TRACE] M[0] DRV B resp=0 id=1
UVM_INFO ./uvm/axi_driver.sv(220) @ 2735000: uvm_test_top.env.mst_ag0.drv_m0 [TRACE] M[0] DRV AR start addr=0x00002da4 len=13 id=3
[TRACE] 2755000 AR pre-FIFO vld m=0 vld=1 rdy=1
[TRACE] 2755000 AR pre-FIFO out m=0 addr=0x00002da4
UVM_INFO ./uvm/axi_slave_agent.sv(171) @ 2765000: uvm_test_top.env.slv_ag1 [TRACE] S[1] SLV AR handshake id=3 addr=0x00002da4 len=13
[TRACE] 2765000 AR at slave s=1 addr=0x00002da4
[TRACE] 2765000 AR pre-FIFO vld m=0 vld=0 rdy=0
UVM_INFO ./uvm/axi_slave_agent.sv(204) @ 2765000: uvm_test_top.env.slv_ag1 [TRACE] S[1] SLV R MISS at addr=0x00002da4
UVM_INFO ./uvm/axi_slave_agent.sv(204) @ 2775000: uvm_test_top.env.slv_ag1 [TRACE] S[1] SLV R MISS at addr=0x00002da8
UVM_INFO ./uvm/axi_slave_agent.sv(204) @ 2785000: uvm_test_top.env.slv_ag1 [TRACE] S[1] SLV R MISS at addr=0x00002dac
UVM_INFO ./uvm/axi_slave_agent.sv(204) @ 2795000: uvm_test_top.env.slv_ag1 [TRACE] S[1] SLV R MISS at addr=0x00002db0
UVM_INFO ./uvm/axi_slave_agent.sv(204) @ 2805000: uvm_test_top.env.slv_ag1 [TRACE] S[1] SLV R MISS at addr=0x00002db4
UVM_INFO ./uvm/axi_slave_agent.sv(204) @ 2815000: uvm_test_top.env.slv_ag1 [TRACE] S[1] SLV R MISS at addr=0x00002db8
UVM_INFO ./uvm/axi_slave_agent.sv(204) @ 2825000: uvm_test_top.env.slv_ag1 [TRACE] S[1] SLV R MISS at addr=0x00002dbc
UVM_INFO ./uvm/axi_slave_agent.sv(204) @ 2835000: uvm_test_top.env.slv_ag1 [TRACE] S[1] SLV R MISS at addr=0x00002dc0
UVM_INFO ./uvm/axi_slave_agent.sv(204) @ 2845000: uvm_test_top.env.slv_ag1 [TRACE] S[1] SLV R MISS at addr=0x00002dc4
UVM_INFO ./uvm/axi_slave_agent.sv(204) @ 2855000: uvm_test_top.env.slv_ag1 [TRACE] S[1] SLV R MISS at addr=0x00002dc8
UVM_INFO ./uvm/axi_slave_agent.sv(204) @ 2865000: uvm_test_top.env.slv_ag1 [TRACE] S[1] SLV R MISS at addr=0x00002dcc
UVM_INFO ./uvm/axi_slave_agent.sv(204) @ 2875000: uvm_test_top.env.slv_ag1 [TRACE] S[1] SLV R MISS at addr=0x00002dd0
UVM_INFO ./uvm/axi_slave_agent.sv(204) @ 2885000: uvm_test_top.env.slv_ag1 [TRACE] S[1] SLV R MISS at addr=0x00002dd4
UVM_INFO ./uvm/axi_slave_agent.sv(204) @ 2895000: uvm_test_top.env.slv_ag1 [TRACE] S[1] SLV R MISS at addr=0x00002dd8
UVM_INFO ./uvm/axi_driver.sv(220) @ 2925000: uvm_test_top.env.mst_ag0.drv_m0 [TRACE] M[0] DRV AR start addr=0x00005124 len=5 id=11
[TRACE] 2945000 AR pre-FIFO vld m=0 vld=1 rdy=1
[TRACE] 2945000 AR pre-FIFO out m=0 addr=0x00005124
UVM_INFO ./uvm/axi_slave_agent.sv(171) @ 2955000: uvm_test_top.env.slv_ag2 [TRACE] S[2] SLV AR handshake id=11 addr=0x00005124 len=5
[TRACE] 2955000 AR at slave s=2 addr=0x00005124
[TRACE] 2955000 AR pre-FIFO vld m=0 vld=0 rdy=0
UVM_INFO ./uvm/axi_slave_agent.sv(204) @ 2955000: uvm_test_top.env.slv_ag2 [TRACE] S[2] SLV R MISS at addr=0x00005124
UVM_INFO ./uvm/axi_slave_agent.sv(204) @ 2965000: uvm_test_top.env.slv_ag2 [TRACE] S[2] SLV R MISS at addr=0x00005128
UVM_INFO ./uvm/axi_slave_agent.sv(204) @ 2975000: uvm_test_top.env.slv_ag2 [TRACE] S[2] SLV R MISS at addr=0x0000512c
UVM_INFO ./uvm/axi_slave_agent.sv(204) @ 2985000: uvm_test_top.env.slv_ag2 [TRACE] S[2] SLV R MISS at addr=0x00005130
UVM_INFO ./uvm/axi_slave_agent.sv(204) @ 2995000: uvm_test_top.env.slv_ag2 [TRACE] S[2] SLV R MISS at addr=0x00005134
UVM_INFO ./uvm/axi_slave_agent.sv(204) @ 3005000: uvm_test_top.env.slv_ag2 [TRACE] S[2] SLV R MISS at addr=0x00005138
UVM_INFO ./uvm/axi_driver.sv(126) @ 3035000: uvm_test_top.env.mst_ag0.drv_m0 [TRACE] M[0] DRV AW start addr=0x000004b0 id=1
UVM_INFO ./uvm/axi_slave_agent.sv(84) @ 3065000: uvm_test_top.env.slv_ag0 [TRACE] S[0] SLV AW handshake id=1 addr=0x000004b0 len=5
UVM_INFO ./uvm/axi_slave_agent.sv(112) @ 3075000: uvm_test_top.env.slv_ag0 [TRACE] S[0] SLV W beat 0 data=0xc0493466 last=0
UVM_INFO ./uvm/axi_slave_agent.sv(112) @ 3085000: uvm_test_top.env.slv_ag0 [TRACE] S[0] SLV W beat 1 data=0x8b6b40e1 last=0
UVM_INFO ./uvm/axi_slave_agent.sv(112) @ 3095000: uvm_test_top.env.slv_ag0 [TRACE] S[0] SLV W beat 2 data=0xee291309 last=0
UVM_INFO ./uvm/axi_slave_agent.sv(112) @ 3105000: uvm_test_top.env.slv_ag0 [TRACE] S[0] SLV W beat 3 data=0xa86310cc last=0
UVM_INFO ./uvm/axi_slave_agent.sv(112) @ 3115000: uvm_test_top.env.slv_ag0 [TRACE] S[0] SLV W beat 4 data=0x73fc602d last=0
UVM_INFO ./uvm/axi_slave_agent.sv(112) @ 3125000: uvm_test_top.env.slv_ag0 [TRACE] S[0] SLV W beat 5 data=0x66258e40 last=1
[3155000] M[0] DRV B Handshake! BID=1 b_pending_size=1
UVM_INFO ./uvm/axi_driver.sv(190) @ 3155000: uvm_test_top.env.mst_ag0.drv_m0 [TRACE] M[0] DRV B resp=0 id=1
UVM_INFO ./uvm/axi_driver.sv(220) @ 3155000: uvm_test_top.env.mst_ag0.drv_m0 [TRACE] M[0] DRV AR start addr=0x000025ec len=3 id=7
[TRACE] 3175000 AR pre-FIFO vld m=0 vld=1 rdy=1
[TRACE] 3175000 AR pre-FIFO out m=0 addr=0x000025ec
UVM_INFO ./uvm/axi_slave_agent.sv(171) @ 3185000: uvm_test_top.env.slv_ag1 [TRACE] S[1] SLV AR handshake id=7 addr=0x000025ec len=3
[TRACE] 3185000 AR at slave s=1 addr=0x000025ec
[TRACE] 3185000 AR pre-FIFO vld m=0 vld=0 rdy=0
UVM_INFO ./uvm/axi_slave_agent.sv(204) @ 3185000: uvm_test_top.env.slv_ag1 [TRACE] S[1] SLV R MISS at addr=0x000025ec
UVM_INFO ./uvm/axi_slave_agent.sv(204) @ 3195000: uvm_test_top.env.slv_ag1 [TRACE] S[1] SLV R MISS at addr=0x000025f0
UVM_INFO ./uvm/axi_slave_agent.sv(204) @ 3205000: uvm_test_top.env.slv_ag1 [TRACE] S[1] SLV R MISS at addr=0x000025f4
UVM_INFO ./uvm/axi_slave_agent.sv(204) @ 3215000: uvm_test_top.env.slv_ag1 [TRACE] S[1] SLV R MISS at addr=0x000025f8
UVM_INFO ./uvm/axi_driver.sv(220) @ 3245000: uvm_test_top.env.mst_ag0.drv_m0 [TRACE] M[0] DRV AR start addr=0x00000c28 len=13 id=2
[TRACE] 3265000 AR pre-FIFO vld m=0 vld=1 rdy=1
[TRACE] 3265000 AR pre-FIFO out m=0 addr=0x00000c28
UVM_INFO ./uvm/axi_slave_agent.sv(171) @ 3275000: uvm_test_top.env.slv_ag0 [TRACE] S[0] SLV AR handshake id=2 addr=0x00000c28 len=13
[TRACE] 3275000 AR at slave s=0 addr=0x00000c28
[TRACE] 3275000 AR pre-FIFO vld m=0 vld=0 rdy=0
UVM_INFO ./uvm/axi_slave_agent.sv(204) @ 3275000: uvm_test_top.env.slv_ag0 [TRACE] S[0] SLV R MISS at addr=0x00000c28
UVM_INFO ./uvm/axi_slave_agent.sv(204) @ 3285000: uvm_test_top.env.slv_ag0 [TRACE] S[0] SLV R MISS at addr=0x00000c2c
UVM_INFO ./uvm/axi_slave_agent.sv(204) @ 3295000: uvm_test_top.env.slv_ag0 [TRACE] S[0] SLV R MISS at addr=0x00000c30
UVM_INFO ./uvm/axi_slave_agent.sv(204) @ 3305000: uvm_test_top.env.slv_ag0 [TRACE] S[0] SLV R MISS at addr=0x00000c34
UVM_INFO ./uvm/axi_slave_agent.sv(204) @ 3315000: uvm_test_top.env.slv_ag0 [TRACE] S[0] SLV R MISS at addr=0x00000c38
UVM_INFO ./uvm/axi_slave_agent.sv(204) @ 3325000: uvm_test_top.env.slv_ag0 [TRACE] S[0] SLV R MISS at addr=0x00000c3c
UVM_INFO ./uvm/axi_slave_agent.sv(204) @ 3335000: uvm_test_top.env.slv_ag0 [TRACE] S[0] SLV R MISS at addr=0x00000c40
UVM_INFO ./uvm/axi_slave_agent.sv(204) @ 3345000: uvm_test_top.env.slv_ag0 [TRACE] S[0] SLV R MISS at addr=0x00000c44
UVM_INFO ./uvm/axi_slave_agent.sv(204) @ 3355000: uvm_test_top.env.slv_ag0 [TRACE] S[0] SLV R MISS at addr=0x00000c48
UVM_INFO ./uvm/axi_slave_agent.sv(204) @ 3365000: uvm_test_top.env.slv_ag0 [TRACE] S[0] SLV R MISS at addr=0x00000c4c
UVM_INFO ./uvm/axi_slave_agent.sv(204) @ 3375000: uvm_test_top.env.slv_ag0 [TRACE] S[0] SLV R MISS at addr=0x00000c50
UVM_INFO ./uvm/axi_slave_agent.sv(204) @ 3385000: uvm_test_top.env.slv_ag0 [TRACE] S[0] SLV R MISS at addr=0x00000c54
UVM_INFO ./uvm/axi_slave_agent.sv(204) @ 3395000: uvm_test_top.env.slv_ag0 [TRACE] S[0] SLV R MISS at addr=0x00000c58
UVM_INFO ./uvm/axi_slave_agent.sv(204) @ 3405000: uvm_test_top.env.slv_ag0 [TRACE] S[0] SLV R MISS at addr=0x00000c5c
UVM_INFO ./uvm/axi_driver.sv(220) @ 3435000: uvm_test_top.env.mst_ag0.drv_m0 [TRACE] M[0] DRV AR start addr=0x00007b88 len=1 id=14
[TRACE] 3455000 AR pre-FIFO vld m=0 vld=1 rdy=1
[TRACE] 3455000 AR pre-FIFO out m=0 addr=0x00007b88
UVM_INFO ./uvm/axi_slave_agent.sv(171) @ 3465000: uvm_test_top.env.slv_ag3 [TRACE] S[3] SLV AR handshake id=14 addr=0x00007b88 len=1
[TRACE] 3465000 AR at slave s=3 addr=0x00007b88
[TRACE] 3465000 AR pre-FIFO vld m=0 vld=0 rdy=0
UVM_INFO ./uvm/axi_slave_agent.sv(204) @ 3465000: uvm_test_top.env.slv_ag3 [TRACE] S[3] SLV R MISS at addr=0x00007b88
UVM_INFO ./uvm/axi_slave_agent.sv(204) @ 3475000: uvm_test_top.env.slv_ag3 [TRACE] S[3] SLV R MISS at addr=0x00007b8c
UVM_INFO ./uvm/axi_driver.sv(220) @ 3505000: uvm_test_top.env.mst_ag0.drv_m0 [TRACE] M[0] DRV AR start addr=0x00001148 len=3 id=12
[TRACE] 3525000 AR pre-FIFO vld m=0 vld=1 rdy=1
[TRACE] 3525000 AR pre-FIFO out m=0 addr=0x00001148
UVM_INFO ./uvm/axi_slave_agent.sv(171) @ 3535000: uvm_test_top.env.slv_ag0 [TRACE] S[0] SLV AR handshake id=12 addr=0x00001148 len=3
[TRACE] 3535000 AR at slave s=0 addr=0x00001148
[TRACE] 3535000 AR pre-FIFO vld m=0 vld=0 rdy=0
UVM_INFO ./uvm/axi_slave_agent.sv(204) @ 3535000: uvm_test_top.env.slv_ag0 [TRACE] S[0] SLV R MISS at addr=0x00001148
UVM_INFO ./uvm/axi_slave_agent.sv(204) @ 3545000: uvm_test_top.env.slv_ag0 [TRACE] S[0] SLV R MISS at addr=0x0000114c
UVM_INFO ./uvm/axi_slave_agent.sv(204) @ 3555000: uvm_test_top.env.slv_ag0 [TRACE] S[0] SLV R MISS at addr=0x00001150
UVM_INFO ./uvm/axi_slave_agent.sv(204) @ 3565000: uvm_test_top.env.slv_ag0 [TRACE] S[0] SLV R MISS at addr=0x00001154
UVM_INFO ./uvm/axi_driver.sv(126) @ 3595000: uvm_test_top.env.mst_ag0.drv_m0 [TRACE] M[0] DRV AW start addr=0x00003418 id=1
UVM_INFO ./uvm/axi_slave_agent.sv(84) @ 3625000: uvm_test_top.env.slv_ag1 [TRACE] S[1] SLV AW handshake id=1 addr=0x00003418 len=3
UVM_INFO ./uvm/axi_slave_agent.sv(112) @ 3635000: uvm_test_top.env.slv_ag1 [TRACE] S[1] SLV W beat 0 data=0x5588d65e last=0
UVM_INFO ./uvm/axi_slave_agent.sv(112) @ 3645000: uvm_test_top.env.slv_ag1 [TRACE] S[1] SLV W beat 1 data=0xa9cc4d93 last=0
UVM_INFO ./uvm/axi_slave_agent.sv(112) @ 3655000: uvm_test_top.env.slv_ag1 [TRACE] S[1] SLV W beat 2 data=0x6bdad081 last=0
UVM_INFO ./uvm/axi_slave_agent.sv(112) @ 3665000: uvm_test_top.env.slv_ag1 [TRACE] S[1] SLV W beat 3 data=0x03cf2874 last=1
[3695000] M[0] DRV B Handshake! BID=1 b_pending_size=1
UVM_INFO ./uvm/axi_driver.sv(190) @ 3695000: uvm_test_top.env.mst_ag0.drv_m0 [TRACE] M[0] DRV B resp=0 id=1
UVM_INFO ./uvm/axi_driver.sv(220) @ 3695000: uvm_test_top.env.mst_ag0.drv_m0 [TRACE] M[0] DRV AR start addr=0x000078b0 len=3 id=3
[TRACE] 3715000 AR pre-FIFO vld m=0 vld=1 rdy=1
[TRACE] 3715000 AR pre-FIFO out m=0 addr=0x000078b0
UVM_INFO ./uvm/axi_slave_agent.sv(171) @ 3725000: uvm_test_top.env.slv_ag3 [TRACE] S[3] SLV AR handshake id=3 addr=0x000078b0 len=3
[TRACE] 3725000 AR at slave s=3 addr=0x000078b0
[TRACE] 3725000 AR pre-FIFO vld m=0 vld=0 rdy=0
UVM_INFO ./uvm/axi_slave_agent.sv(204) @ 3725000: uvm_test_top.env.slv_ag3 [TRACE] S[3] SLV R MISS at addr=0x000078b0
UVM_INFO ./uvm/axi_slave_agent.sv(204) @ 3735000: uvm_test_top.env.slv_ag3 [TRACE] S[3] SLV R MISS at addr=0x000078b4
UVM_INFO ./uvm/axi_slave_agent.sv(204) @ 3745000: uvm_test_top.env.slv_ag3 [TRACE] S[3] SLV R MISS at addr=0x000078b8
UVM_INFO ./uvm/axi_slave_agent.sv(204) @ 3755000: uvm_test_top.env.slv_ag3 [TRACE] S[3] SLV R MISS at addr=0x000078bc
UVM_INFO ./uvm/axi_driver.sv(220) @ 3785000: uvm_test_top.env.mst_ag0.drv_m0 [TRACE] M[0] DRV AR start addr=0x00000318 len=8 id=6
[TRACE] 3805000 AR pre-FIFO vld m=0 vld=1 rdy=1
[TRACE] 3805000 AR pre-FIFO out m=0 addr=0x00000318
UVM_INFO ./uvm/axi_slave_agent.sv(171) @ 3815000: uvm_test_top.env.slv_ag0 [TRACE] S[0] SLV AR handshake id=6 addr=0x00000318 len=8
[TRACE] 3815000 AR at slave s=0 addr=0x00000318
[TRACE] 3815000 AR pre-FIFO vld m=0 vld=0 rdy=0
UVM_INFO ./uvm/axi_slave_agent.sv(204) @ 3815000: uvm_test_top.env.slv_ag0 [TRACE] S[0] SLV R MISS at addr=0x00000318
UVM_INFO ./uvm/axi_slave_agent.sv(204) @ 3825000: uvm_test_top.env.slv_ag0 [TRACE] S[0] SLV R MISS at addr=0x0000031c
UVM_INFO ./uvm/axi_slave_agent.sv(204) @ 3835000: uvm_test_top.env.slv_ag0 [TRACE] S[0] SLV R MISS at addr=0x00000320
UVM_INFO ./uvm/axi_slave_agent.sv(204) @ 3845000: uvm_test_top.env.slv_ag0 [TRACE] S[0] SLV R MISS at addr=0x00000324
UVM_INFO ./uvm/axi_slave_agent.sv(204) @ 3855000: uvm_test_top.env.slv_ag0 [TRACE] S[0] SLV R MISS at addr=0x00000328
UVM_INFO ./uvm/axi_slave_agent.sv(204) @ 3865000: uvm_test_top.env.slv_ag0 [TRACE] S[0] SLV R MISS at addr=0x0000032c
UVM_INFO ./uvm/axi_slave_agent.sv(204) @ 3875000: uvm_test_top.env.slv_ag0 [TRACE] S[0] SLV R MISS at addr=0x00000330
UVM_INFO ./uvm/axi_slave_agent.sv(204) @ 3885000: uvm_test_top.env.slv_ag0 [TRACE] S[0] SLV R MISS at addr=0x00000334
UVM_INFO ./uvm/axi_slave_agent.sv(204) @ 3895000: uvm_test_top.env.slv_ag0 [TRACE] S[0] SLV R MISS at addr=0x00000338
UVM_INFO ./uvm/axi_driver.sv(220) @ 3925000: uvm_test_top.env.mst_ag0.drv_m0 [TRACE] M[0] DRV AR start addr=0x00004ebc len=14 id=1
[TRACE] 3945000 AR pre-FIFO vld m=0 vld=1 rdy=1
[TRACE] 3945000 AR pre-FIFO out m=0 addr=0x00004ebc
UVM_INFO ./uvm/axi_slave_agent.sv(171) @ 3955000: uvm_test_top.env.slv_ag2 [TRACE] S[2] SLV AR handshake id=1 addr=0x00004ebc len=14
[TRACE] 3955000 AR at slave s=2 addr=0x00004ebc
[TRACE] 3955000 AR pre-FIFO vld m=0 vld=0 rdy=0
UVM_INFO ./uvm/axi_slave_agent.sv(204) @ 3955000: uvm_test_top.env.slv_ag2 [TRACE] S[2] SLV R MISS at addr=0x00004ebc
UVM_INFO ./uvm/axi_slave_agent.sv(204) @ 3965000: uvm_test_top.env.slv_ag2 [TRACE] S[2] SLV R MISS at addr=0x00004ec0
UVM_INFO ./uvm/axi_slave_agent.sv(204) @ 3975000: uvm_test_top.env.slv_ag2 [TRACE] S[2] SLV R MISS at addr=0x00004ec4
UVM_INFO ./uvm/axi_slave_agent.sv(204) @ 3985000: uvm_test_top.env.slv_ag2 [TRACE] S[2] SLV R MISS at addr=0x00004ec8
UVM_INFO ./uvm/axi_slave_agent.sv(204) @ 3995000: uvm_test_top.env.slv_ag2 [TRACE] S[2] SLV R MISS at addr=0x00004ecc
UVM_INFO ./uvm/axi_slave_agent.sv(204) @ 4005000: uvm_test_top.env.slv_ag2 [TRACE] S[2] SLV R MISS at addr=0x00004ed0
UVM_INFO ./uvm/axi_slave_agent.sv(204) @ 4015000: uvm_test_top.env.slv_ag2 [TRACE] S[2] SLV R MISS at addr=0x00004ed4
UVM_INFO ./uvm/axi_slave_agent.sv(204) @ 4025000: uvm_test_top.env.slv_ag2 [TRACE] S[2] SLV R MISS at addr=0x00004ed8
UVM_INFO ./uvm/axi_slave_agent.sv(204) @ 4035000: uvm_test_top.env.slv_ag2 [TRACE] S[2] SLV R MISS at addr=0x00004edc
UVM_INFO ./uvm/axi_slave_agent.sv(204) @ 4045000: uvm_test_top.env.slv_ag2 [TRACE] S[2] SLV R MISS at addr=0x00004ee0
UVM_INFO ./uvm/axi_slave_agent.sv(204) @ 4055000: uvm_test_top.env.slv_ag2 [TRACE] S[2] SLV R MISS at addr=0x00004ee4
UVM_INFO ./uvm/axi_slave_agent.sv(204) @ 4065000: uvm_test_top.env.slv_ag2 [TRACE] S[2] SLV R MISS at addr=0x00004ee8
UVM_INFO ./uvm/axi_slave_agent.sv(204) @ 4075000: uvm_test_top.env.slv_ag2 [TRACE] S[2] SLV R MISS at addr=0x00004eec
UVM_INFO ./uvm/axi_slave_agent.sv(204) @ 4085000: uvm_test_top.env.slv_ag2 [TRACE] S[2] SLV R MISS at addr=0x00004ef0
UVM_INFO ./uvm/axi_slave_agent.sv(204) @ 4095000: uvm_test_top.env.slv_ag2 [TRACE] S[2] SLV R MISS at addr=0x00004ef4
UVM_INFO ./uvm/axi_driver.sv(126) @ 4125000: uvm_test_top.env.mst_ag0.drv_m0 [TRACE] M[0] DRV AW start addr=0x00002b08 id=3
UVM_INFO ./uvm/axi_slave_agent.sv(84) @ 4155000: uvm_test_top.env.slv_ag1 [TRACE] S[1] SLV AW handshake id=3 addr=0x00002b08 len=7
UVM_INFO ./uvm/axi_slave_agent.sv(112) @ 4165000: uvm_test_top.env.slv_ag1 [TRACE] S[1] SLV W beat 0 data=0x147a08be last=0
UVM_INFO ./uvm/axi_slave_agent.sv(112) @ 4175000: uvm_test_top.env.slv_ag1 [TRACE] S[1] SLV W beat 1 data=0x1bff9be9 last=0
UVM_INFO ./uvm/axi_slave_agent.sv(112) @ 4185000: uvm_test_top.env.slv_ag1 [TRACE] S[1] SLV W beat 2 data=0x814011ad last=0
UVM_INFO ./uvm/axi_slave_agent.sv(112) @ 4195000: uvm_test_top.env.slv_ag1 [TRACE] S[1] SLV W beat 3 data=0x3e448ce3 last=0
UVM_INFO ./uvm/axi_slave_agent.sv(112) @ 4205000: uvm_test_top.env.slv_ag1 [TRACE] S[1] SLV W beat 4 data=0x21cd2c0f last=0
UVM_INFO ./uvm/axi_slave_agent.sv(112) @ 4215000: uvm_test_top.env.slv_ag1 [TRACE] S[1] SLV W beat 5 data=0x03fea7e9 last=0
UVM_INFO ./uvm/axi_slave_agent.sv(112) @ 4225000: uvm_test_top.env.slv_ag1 [TRACE] S[1] SLV W beat 6 data=0x0d7267ef last=0
UVM_INFO ./uvm/axi_slave_agent.sv(112) @ 4235000: uvm_test_top.env.slv_ag1 [TRACE] S[1] SLV W beat 7 data=0x0b9bc409 last=1
[4265000] M[0] DRV B Handshake! BID=3 b_pending_size=1
UVM_INFO ./uvm/axi_driver.sv(190) @ 4265000: uvm_test_top.env.mst_ag0.drv_m0 [TRACE] M[0] DRV B resp=0 id=3
UVM_INFO ./uvm/axi_driver.sv(126) @ 4265000: uvm_test_top.env.mst_ag0.drv_m0 [TRACE] M[0] DRV AW start addr=0x0000360c id=10
UVM_INFO ./uvm/axi_slave_agent.sv(84) @ 4295000: uvm_test_top.env.slv_ag1 [TRACE] S[1] SLV AW handshake id=10 addr=0x0000360c len=13
UVM_INFO ./uvm/axi_slave_agent.sv(112) @ 4305000: uvm_test_top.env.slv_ag1 [TRACE] S[1] SLV W beat 0 data=0xa72269db last=0
UVM_INFO ./uvm/axi_slave_agent.sv(112) @ 4315000: uvm_test_top.env.slv_ag1 [TRACE] S[1] SLV W beat 1 data=0x4eaaad65 last=0
UVM_INFO ./uvm/axi_slave_agent.sv(112) @ 4325000: uvm_test_top.env.slv_ag1 [TRACE] S[1] SLV W beat 2 data=0x35d542c7 last=0
UVM_INFO ./uvm/axi_slave_agent.sv(112) @ 4335000: uvm_test_top.env.slv_ag1 [TRACE] S[1] SLV W beat 3 data=0x98028ecf last=0
UVM_INFO ./uvm/axi_slave_agent.sv(112) @ 4345000: uvm_test_top.env.slv_ag1 [TRACE] S[1] SLV W beat 4 data=0x1398915f last=0
UVM_INFO ./uvm/axi_slave_agent.sv(112) @ 4355000: uvm_test_top.env.slv_ag1 [TRACE] S[1] SLV W beat 5 data=0x065541ed last=0
UVM_INFO ./uvm/axi_slave_agent.sv(112) @ 4365000: uvm_test_top.env.slv_ag1 [TRACE] S[1] SLV W beat 6 data=0xf1ca1446 last=0
UVM_INFO ./uvm/axi_slave_agent.sv(112) @ 4375000: uvm_test_top.env.slv_ag1 [TRACE] S[1] SLV W beat 7 data=0xf0f3ea31 last=0
UVM_INFO ./uvm/axi_slave_agent.sv(112) @ 4385000: uvm_test_top.env.slv_ag1 [TRACE] S[1] SLV W beat 8 data=0xec16653e last=0
UVM_INFO ./uvm/axi_slave_agent.sv(112) @ 4395000: uvm_test_top.env.slv_ag1 [TRACE] S[1] SLV W beat 9 data=0x84345301 last=0
UVM_INFO ./uvm/axi_slave_agent.sv(112) @ 4405000: uvm_test_top.env.slv_ag1 [TRACE] S[1] SLV W beat 10 data=0x8adb0f5a last=0
UVM_INFO ./uvm/axi_slave_agent.sv(112) @ 4415000: uvm_test_top.env.slv_ag1 [TRACE] S[1] SLV W beat 11 data=0x6390cdd4 last=0
UVM_INFO ./uvm/axi_slave_agent.sv(112) @ 4425000: uvm_test_top.env.slv_ag1 [TRACE] S[1] SLV W beat 12 data=0x7ea35cac last=0
UVM_INFO ./uvm/axi_slave_agent.sv(112) @ 4435000: uvm_test_top.env.slv_ag1 [TRACE] S[1] SLV W beat 13 data=0xce471006 last=1
[4465000] M[0] DRV B Handshake! BID=10 b_pending_size=1
UVM_INFO ./uvm/axi_driver.sv(190) @ 4465000: uvm_test_top.env.mst_ag0.drv_m0 [TRACE] M[0] DRV B resp=0 id=10
UVM_INFO ./uvm/axi_driver.sv(126) @ 4465000: uvm_test_top.env.mst_ag0.drv_m0 [TRACE] M[0] DRV AW start addr=0x000072b4 id=12
UVM_INFO ./uvm/axi_slave_agent.sv(84) @ 4495000: uvm_test_top.env.slv_ag3 [TRACE] S[3] SLV AW handshake id=12 addr=0x000072b4 len=0
UVM_INFO ./uvm/axi_slave_agent.sv(112) @ 4505000: uvm_test_top.env.slv_ag3 [TRACE] S[3] SLV W beat 0 data=0x5eb79111 last=1
[4535000] M[0] DRV B Handshake! BID=12 b_pending_size=1
UVM_INFO ./uvm/axi_driver.sv(190) @ 4535000: uvm_test_top.env.mst_ag0.drv_m0 [TRACE] M[0] DRV B resp=0 id=12
UVM_INFO ./uvm/axi_driver.sv(126) @ 4535000: uvm_test_top.env.mst_ag0.drv_m0 [TRACE] M[0] DRV AW start addr=0x00005774 id=13
UVM_INFO ./uvm/axi_slave_agent.sv(84) @ 4565000: uvm_test_top.env.slv_ag2 [TRACE] S[2] SLV AW handshake id=13 addr=0x00005774 len=4
UVM_INFO ./uvm/axi_slave_agent.sv(112) @ 4575000: uvm_test_top.env.slv_ag2 [TRACE] S[2] SLV W beat 0 data=0x979e48ee last=0
UVM_INFO ./uvm/axi_slave_agent.sv(112) @ 4585000: uvm_test_top.env.slv_ag2 [TRACE] S[2] SLV W beat 1 data=0xd1839b52 last=0
UVM_INFO ./uvm/axi_slave_agent.sv(112) @ 4595000: uvm_test_top.env.slv_ag2 [TRACE] S[2] SLV W beat 2 data=0x4e450f25 last=0
UVM_INFO ./uvm/axi_slave_agent.sv(112) @ 4605000: uvm_test_top.env.slv_ag2 [TRACE] S[2] SLV W beat 3 data=0xe27387ed last=0
UVM_INFO ./uvm/axi_slave_agent.sv(112) @ 4615000: uvm_test_top.env.slv_ag2 [TRACE] S[2] SLV W beat 4 data=0x9777a576 last=1
[4645000] M[0] DRV B Handshake! BID=13 b_pending_size=1
UVM_INFO ./uvm/axi_driver.sv(190) @ 4645000: uvm_test_top.env.mst_ag0.drv_m0 [TRACE] M[0] DRV B resp=0 id=13
UVM_INFO ./uvm/axi_driver.sv(126) @ 4645000: uvm_test_top.env.mst_ag1.drv_m1 [TRACE] M[1] DRV AW start addr=0x00000dc4 id=3
UVM_INFO ./uvm/axi_slave_agent.sv(84) @ 4675000: uvm_test_top.env.slv_ag0 [TRACE] S[0] SLV AW handshake id=67 addr=0x00000dc4 len=10
UVM_INFO ./uvm/axi_slave_agent.sv(112) @ 4685000: uvm_test_top.env.slv_ag0 [TRACE] S[0] SLV W beat 0 data=0xa57f0807 last=0
UVM_INFO ./uvm/axi_slave_agent.sv(112) @ 4695000: uvm_test_top.env.slv_ag0 [TRACE] S[0] SLV W beat 1 data=0xe8cc7063 last=0
UVM_INFO ./uvm/axi_slave_agent.sv(112) @ 4705000: uvm_test_top.env.slv_ag0 [TRACE] S[0] SLV W beat 2 data=0x6b4bd8a4 last=0
UVM_INFO ./uvm/axi_slave_agent.sv(112) @ 4715000: uvm_test_top.env.slv_ag0 [TRACE] S[0] SLV W beat 3 data=0x5f396f78 last=0
UVM_INFO ./uvm/axi_slave_agent.sv(112) @ 4725000: uvm_test_top.env.slv_ag0 [TRACE] S[0] SLV W beat 4 data=0x84a77594 last=0
UVM_INFO ./uvm/axi_slave_agent.sv(112) @ 4735000: uvm_test_top.env.slv_ag0 [TRACE] S[0] SLV W beat 5 data=0x12082c13 last=0
UVM_INFO ./uvm/axi_slave_agent.sv(112) @ 4745000: uvm_test_top.env.slv_ag0 [TRACE] S[0] SLV W beat 6 data=0x4a3f25ce last=0
UVM_INFO ./uvm/axi_slave_agent.sv(112) @ 4755000: uvm_test_top.env.slv_ag0 [TRACE] S[0] SLV W beat 7 data=0xd6b3c1aa last=0
UVM_INFO ./uvm/axi_slave_agent.sv(112) @ 4765000: uvm_test_top.env.slv_ag0 [TRACE] S[0] SLV W beat 8 data=0xd856b7ff last=0
UVM_INFO ./uvm/axi_slave_agent.sv(112) @ 4775000: uvm_test_top.env.slv_ag0 [TRACE] S[0] SLV W beat 9 data=0xf08131fa last=0
UVM_INFO ./uvm/axi_slave_agent.sv(112) @ 4785000: uvm_test_top.env.slv_ag0 [TRACE] S[0] SLV W beat 10 data=0x7fb7970d last=1
[4815000] M[1] DRV B Handshake! BID=3 b_pending_size=1
UVM_INFO ./uvm/axi_driver.sv(190) @ 4815000: uvm_test_top.env.mst_ag1.drv_m1 [TRACE] M[1] DRV B resp=0 id=3
UVM_INFO ./uvm/axi_driver.sv(220) @ 4815000: uvm_test_top.env.mst_ag1.drv_m1 [TRACE] M[1] DRV AR start addr=0x0000559c len=5 id=12
[TRACE] 4835000 AR pre-FIFO vld m=1 vld=1 rdy=1
[TRACE] 4835000 AR pre-FIFO out m=1 addr=0x0000559c
UVM_INFO ./uvm/axi_slave_agent.sv(171) @ 4845000: uvm_test_top.env.slv_ag2 [TRACE] S[2] SLV AR handshake id=76 addr=0x0000559c len=5
[TRACE] 4845000 AR at slave s=2 addr=0x0000559c
[TRACE] 4845000 AR pre-FIFO vld m=1 vld=0 rdy=0
UVM_INFO ./uvm/axi_slave_agent.sv(204) @ 4845000: uvm_test_top.env.slv_ag2 [TRACE] S[2] SLV R MISS at addr=0x0000559c
UVM_INFO ./uvm/axi_slave_agent.sv(204) @ 4855000: uvm_test_top.env.slv_ag2 [TRACE] S[2] SLV R MISS at addr=0x000055a0
UVM_INFO ./uvm/axi_slave_agent.sv(204) @ 4865000: uvm_test_top.env.slv_ag2 [TRACE] S[2] SLV R MISS at addr=0x000055a4
UVM_INFO ./uvm/axi_slave_agent.sv(204) @ 4875000: uvm_test_top.env.slv_ag2 [TRACE] S[2] SLV R MISS at addr=0x000055a8
UVM_INFO ./uvm/axi_slave_agent.sv(204) @ 4885000: uvm_test_top.env.slv_ag2 [TRACE] S[2] SLV R MISS at addr=0x000055ac
UVM_INFO ./uvm/axi_slave_agent.sv(204) @ 4895000: uvm_test_top.env.slv_ag2 [TRACE] S[2] SLV R MISS at addr=0x000055b0
UVM_INFO ./uvm/axi_driver.sv(126) @ 4925000: uvm_test_top.env.mst_ag1.drv_m1 [TRACE] M[1] DRV AW start addr=0x00007ba8 id=2
UVM_INFO ./uvm/axi_slave_agent.sv(84) @ 4955000: uvm_test_top.env.slv_ag3 [TRACE] S[3] SLV AW handshake id=66 addr=0x00007ba8 len=3
UVM_INFO ./uvm/axi_slave_agent.sv(112) @ 4965000: uvm_test_top.env.slv_ag3 [TRACE] S[3] SLV W beat 0 data=0x7ef4f5fb last=0
UVM_INFO ./uvm/axi_slave_agent.sv(112) @ 4975000: uvm_test_top.env.slv_ag3 [TRACE] S[3] SLV W beat 1 data=0x234d7eda last=0
UVM_INFO ./uvm/axi_slave_agent.sv(112) @ 4985000: uvm_test_top.env.slv_ag3 [TRACE] S[3] SLV W beat 2 data=0x89b1c606 last=0
UVM_INFO ./uvm/axi_slave_agent.sv(112) @ 4995000: uvm_test_top.env.slv_ag3 [TRACE] S[3] SLV W beat 3 data=0x7bca11a0 last=1
[5025000] M[1] DRV B Handshake! BID=2 b_pending_size=1
UVM_INFO ./uvm/axi_driver.sv(190) @ 5025000: uvm_test_top.env.mst_ag1.drv_m1 [TRACE] M[1] DRV B resp=0 id=2
UVM_INFO ./uvm/axi_driver.sv(220) @ 5025000: uvm_test_top.env.mst_ag1.drv_m1 [TRACE] M[1] DRV AR start addr=0x000042e8 len=3 id=12
[TRACE] 5045000 AR pre-FIFO vld m=1 vld=1 rdy=1
[TRACE] 5045000 AR pre-FIFO out m=1 addr=0x000042e8
UVM_INFO ./uvm/axi_slave_agent.sv(171) @ 5055000: uvm_test_top.env.slv_ag2 [TRACE] S[2] SLV AR handshake id=76 addr=0x000042e8 len=3
[TRACE] 5055000 AR at slave s=2 addr=0x000042e8
[TRACE] 5055000 AR pre-FIFO vld m=1 vld=0 rdy=0
UVM_INFO ./uvm/axi_slave_agent.sv(204) @ 5055000: uvm_test_top.env.slv_ag2 [TRACE] S[2] SLV R MISS at addr=0x000042e8
UVM_INFO ./uvm/axi_slave_agent.sv(204) @ 5065000: uvm_test_top.env.slv_ag2 [TRACE] S[2] SLV R MISS at addr=0x000042ec
UVM_INFO ./uvm/axi_slave_agent.sv(204) @ 5075000: uvm_test_top.env.slv_ag2 [TRACE] S[2] SLV R MISS at addr=0x000042f0
UVM_INFO ./uvm/axi_slave_agent.sv(204) @ 5085000: uvm_test_top.env.slv_ag2 [TRACE] S[2] SLV R MISS at addr=0x000042f4
UVM_INFO ./uvm/axi_driver.sv(126) @ 5115000: uvm_test_top.env.mst_ag1.drv_m1 [TRACE] M[1] DRV AW start addr=0x00007100 id=9
UVM_INFO ./uvm/axi_slave_agent.sv(84) @ 5145000: uvm_test_top.env.slv_ag3 [TRACE] S[3] SLV AW handshake id=73 addr=0x00007100 len=3
UVM_INFO ./uvm/axi_slave_agent.sv(112) @ 5155000: uvm_test_top.env.slv_ag3 [TRACE] S[3] SLV W beat 0 data=0x1e20d95e last=0
UVM_INFO ./uvm/axi_slave_agent.sv(112) @ 5165000: uvm_test_top.env.slv_ag3 [TRACE] S[3] SLV W beat 1 data=0x9e95512c last=0
UVM_INFO ./uvm/axi_slave_agent.sv(112) @ 5175000: uvm_test_top.env.slv_ag3 [TRACE] S[3] SLV W beat 2 data=0x01217234 last=0
UVM_INFO ./uvm/axi_slave_agent.sv(112) @ 5185000: uvm_test_top.env.slv_ag3 [TRACE] S[3] SLV W beat 3 data=0x97d0d2d8 last=1
[5215000] M[1] DRV B Handshake! BID=9 b_pending_size=1
UVM_INFO ./uvm/axi_driver.sv(190) @ 5215000: uvm_test_top.env.mst_ag1.drv_m1 [TRACE] M[1] DRV B resp=0 id=9
UVM_INFO ./uvm/axi_driver.sv(220) @ 5215000: uvm_test_top.env.mst_ag1.drv_m1 [TRACE] M[1] DRV AR start addr=0x00006400 len=14 id=14
[TRACE] 5235000 AR pre-FIFO vld m=1 vld=1 rdy=1
[TRACE] 5235000 AR pre-FIFO out m=1 addr=0x00006400
UVM_INFO ./uvm/axi_slave_agent.sv(171) @ 5245000: uvm_test_top.env.slv_ag3 [TRACE] S[3] SLV AR handshake id=78 addr=0x00006400 len=14
[TRACE] 5245000 AR at slave s=3 addr=0x00006400
[TRACE] 5245000 AR pre-FIFO vld m=1 vld=0 rdy=0
UVM_INFO ./uvm/axi_slave_agent.sv(204) @ 5245000: uvm_test_top.env.slv_ag3 [TRACE] S[3] SLV R MISS at addr=0x00006400
UVM_INFO ./uvm/axi_slave_agent.sv(204) @ 5255000: uvm_test_top.env.slv_ag3 [TRACE] S[3] SLV R MISS at addr=0x00006404
UVM_INFO ./uvm/axi_slave_agent.sv(204) @ 5265000: uvm_test_top.env.slv_ag3 [TRACE] S[3] SLV R MISS at addr=0x00006408
UVM_INFO ./uvm/axi_slave_agent.sv(204) @ 5275000: uvm_test_top.env.slv_ag3 [TRACE] S[3] SLV R MISS at addr=0x0000640c
UVM_INFO ./uvm/axi_slave_agent.sv(204) @ 5285000: uvm_test_top.env.slv_ag3 [TRACE] S[3] SLV R MISS at addr=0x00006410
UVM_INFO ./uvm/axi_slave_agent.sv(204) @ 5295000: uvm_test_top.env.slv_ag3 [TRACE] S[3] SLV R MISS at addr=0x00006414
UVM_INFO ./uvm/axi_slave_agent.sv(204) @ 5305000: uvm_test_top.env.slv_ag3 [TRACE] S[3] SLV R MISS at addr=0x00006418
UVM_INFO ./uvm/axi_slave_agent.sv(204) @ 5315000: uvm_test_top.env.slv_ag3 [TRACE] S[3] SLV R MISS at addr=0x0000641c
UVM_INFO ./uvm/axi_slave_agent.sv(204) @ 5325000: uvm_test_top.env.slv_ag3 [TRACE] S[3] SLV R MISS at addr=0x00006420
UVM_INFO ./uvm/axi_slave_agent.sv(204) @ 5335000: uvm_test_top.env.slv_ag3 [TRACE] S[3] SLV R MISS at addr=0x00006424
UVM_INFO ./uvm/axi_slave_agent.sv(204) @ 5345000: uvm_test_top.env.slv_ag3 [TRACE] S[3] SLV R MISS at addr=0x00006428
UVM_INFO ./uvm/axi_slave_agent.sv(204) @ 5355000: uvm_test_top.env.slv_ag3 [TRACE] S[3] SLV R MISS at addr=0x0000642c
UVM_INFO ./uvm/axi_slave_agent.sv(204) @ 5365000: uvm_test_top.env.slv_ag3 [TRACE] S[3] SLV R MISS at addr=0x00006430
UVM_INFO ./uvm/axi_slave_agent.sv(204) @ 5375000: uvm_test_top.env.slv_ag3 [TRACE] S[3] SLV R MISS at addr=0x00006434
UVM_INFO ./uvm/axi_slave_agent.sv(204) @ 5385000: uvm_test_top.env.slv_ag3 [TRACE] S[3] SLV R MISS at addr=0x00006438
UVM_INFO ./uvm/axi_driver.sv(220) @ 5415000: uvm_test_top.env.mst_ag1.drv_m1 [TRACE] M[1] DRV AR start addr=0x00000b18 len=1 id=7
[TRACE] 5435000 AR pre-FIFO vld m=1 vld=1 rdy=1
[TRACE] 5435000 AR pre-FIFO out m=1 addr=0x00000b18
UVM_INFO ./uvm/axi_slave_agent.sv(171) @ 5445000: uvm_test_top.env.slv_ag0 [TRACE] S[0] SLV AR handshake id=71 addr=0x00000b18 len=1
[TRACE] 5445000 AR at slave s=0 addr=0x00000b18
[TRACE] 5445000 AR pre-FIFO vld m=1 vld=0 rdy=0
UVM_INFO ./uvm/axi_slave_agent.sv(204) @ 5445000: uvm_test_top.env.slv_ag0 [TRACE] S[0] SLV R MISS at addr=0x00000b18
UVM_INFO ./uvm/axi_slave_agent.sv(204) @ 5455000: uvm_test_top.env.slv_ag0 [TRACE] S[0] SLV R MISS at addr=0x00000b1c
UVM_INFO ./uvm/axi_driver.sv(220) @ 5485000: uvm_test_top.env.mst_ag1.drv_m1 [TRACE] M[1] DRV AR start addr=0x00000540 len=5 id=11
[TRACE] 5505000 AR pre-FIFO vld m=1 vld=1 rdy=1
[TRACE] 5505000 AR pre-FIFO out m=1 addr=0x00000540
UVM_INFO ./uvm/axi_slave_agent.sv(171) @ 5515000: uvm_test_top.env.slv_ag0 [TRACE] S[0] SLV AR handshake id=75 addr=0x00000540 len=5
[TRACE] 5515000 AR at slave s=0 addr=0x00000540
[TRACE] 5515000 AR pre-FIFO vld m=1 vld=0 rdy=0
UVM_INFO ./uvm/axi_slave_agent.sv(204) @ 5515000: uvm_test_top.env.slv_ag0 [TRACE] S[0] SLV R MISS at addr=0x00000540
UVM_INFO ./uvm/axi_slave_agent.sv(204) @ 5525000: uvm_test_top.env.slv_ag0 [TRACE] S[0] SLV R MISS at addr=0x00000544
UVM_INFO ./uvm/axi_slave_agent.sv(204) @ 5535000: uvm_test_top.env.slv_ag0 [TRACE] S[0] SLV R MISS at addr=0x00000548
UVM_INFO ./uvm/axi_slave_agent.sv(204) @ 5545000: uvm_test_top.env.slv_ag0 [TRACE] S[0] SLV R MISS at addr=0x0000054c
UVM_INFO ./uvm/axi_slave_agent.sv(204) @ 5555000: uvm_test_top.env.slv_ag0 [TRACE] S[0] SLV R MISS at addr=0x00000550
UVM_INFO ./uvm/axi_slave_agent.sv(204) @ 5565000: uvm_test_top.env.slv_ag0 [TRACE] S[0] SLV R MISS at addr=0x00000554
UVM_INFO ./uvm/axi_driver.sv(126) @ 5595000: uvm_test_top.env.mst_ag1.drv_m1 [TRACE] M[1] DRV AW start addr=0x000049b4 id=0
UVM_INFO ./uvm/axi_slave_agent.sv(84) @ 5625000: uvm_test_top.env.slv_ag2 [TRACE] S[2] SLV AW handshake id=64 addr=0x000049b4 len=7
UVM_INFO ./uvm/axi_slave_agent.sv(112) @ 5635000: uvm_test_top.env.slv_ag2 [TRACE] S[2] SLV W beat 0 data=0x272510c9 last=0
UVM_INFO ./uvm/axi_slave_agent.sv(112) @ 5645000: uvm_test_top.env.slv_ag2 [TRACE] S[2] SLV W beat 1 data=0xf426b792 last=0
UVM_INFO ./uvm/axi_slave_agent.sv(112) @ 5655000: uvm_test_top.env.slv_ag2 [TRACE] S[2] SLV W beat 2 data=0x92427d82 last=0
UVM_INFO ./uvm/axi_slave_agent.sv(112) @ 5665000: uvm_test_top.env.slv_ag2 [TRACE] S[2] SLV W beat 3 data=0x4b1356f7 last=0
UVM_INFO ./uvm/axi_slave_agent.sv(112) @ 5675000: uvm_test_top.env.slv_ag2 [TRACE] S[2] SLV W beat 4 data=0x2c58389a last=0
UVM_INFO ./uvm/axi_slave_agent.sv(112) @ 5685000: uvm_test_top.env.slv_ag2 [TRACE] S[2] SLV W beat 5 data=0x32924a04 last=0
UVM_INFO ./uvm/axi_slave_agent.sv(112) @ 5695000: uvm_test_top.env.slv_ag2 [TRACE] S[2] SLV W beat 6 data=0x541870b6 last=0
UVM_INFO ./uvm/axi_slave_agent.sv(112) @ 5705000: uvm_test_top.env.slv_ag2 [TRACE] S[2] SLV W beat 7 data=0xc925faa5 last=1
[5735000] M[1] DRV B Handshake! BID=0 b_pending_size=1
UVM_INFO ./uvm/axi_driver.sv(190) @ 5735000: uvm_test_top.env.mst_ag1.drv_m1 [TRACE] M[1] DRV B resp=0 id=0
UVM_INFO ./uvm/axi_driver.sv(126) @ 5735000: uvm_test_top.env.mst_ag1.drv_m1 [TRACE] M[1] DRV AW start addr=0x000064f4 id=13
UVM_INFO ./uvm/axi_slave_agent.sv(84) @ 5765000: uvm_test_top.env.slv_ag3 [TRACE] S[3] SLV AW handshake id=77 addr=0x000064f4 len=5
UVM_INFO ./uvm/axi_slave_agent.sv(112) @ 5775000: uvm_test_top.env.slv_ag3 [TRACE] S[3] SLV W beat 0 data=0x12c102a8 last=0
UVM_INFO ./uvm/axi_slave_agent.sv(112) @ 5785000: uvm_test_top.env.slv_ag3 [TRACE] S[3] SLV W beat 1 data=0x854d9720 last=0
UVM_INFO ./uvm/axi_slave_agent.sv(112) @ 5795000: uvm_test_top.env.slv_ag3 [TRACE] S[3] SLV W beat 2 data=0x15510972 last=0
UVM_INFO ./uvm/axi_slave_agent.sv(112) @ 5805000: uvm_test_top.env.slv_ag3 [TRACE] S[3] SLV W beat 3 data=0x6eee5a6b last=0
UVM_INFO ./uvm/axi_slave_agent.sv(112) @ 5815000: uvm_test_top.env.slv_ag3 [TRACE] S[3] SLV W beat 4 data=0x333a9268 last=0
UVM_INFO ./uvm/axi_slave_agent.sv(112) @ 5825000: uvm_test_top.env.slv_ag3 [TRACE] S[3] SLV W beat 5 data=0x4093e269 last=1
[5855000] M[1] DRV B Handshake! BID=13 b_pending_size=1
UVM_INFO ./uvm/axi_driver.sv(190) @ 5855000: uvm_test_top.env.mst_ag1.drv_m1 [TRACE] M[1] DRV B resp=0 id=13
UVM_INFO ./uvm/axi_driver.sv(126) @ 5855000: uvm_test_top.env.mst_ag1.drv_m1 [TRACE] M[1] DRV AW start addr=0x00003064 id=14
UVM_INFO ./uvm/axi_slave_agent.sv(84) @ 5885000: uvm_test_top.env.slv_ag1 [TRACE] S[1] SLV AW handshake id=78 addr=0x00003064 len=13
UVM_INFO ./uvm/axi_slave_agent.sv(112) @ 5895000: uvm_test_top.env.slv_ag1 [TRACE] S[1] SLV W beat 0 data=0xb628c740 last=0
UVM_INFO ./uvm/axi_slave_agent.sv(112) @ 5905000: uvm_test_top.env.slv_ag1 [TRACE] S[1] SLV W beat 1 data=0xf8cb780a last=0
UVM_INFO ./uvm/axi_slave_agent.sv(112) @ 5915000: uvm_test_top.env.slv_ag1 [TRACE] S[1] SLV W beat 2 data=0x546b9c5b last=0
UVM_INFO ./uvm/axi_slave_agent.sv(112) @ 5925000: uvm_test_top.env.slv_ag1 [TRACE] S[1] SLV W beat 3 data=0xc2cb1521 last=0
UVM_INFO ./uvm/axi_slave_agent.sv(112) @ 5935000: uvm_test_top.env.slv_ag1 [TRACE] S[1] SLV W beat 4 data=0x3ef5c0e3 last=0
UVM_INFO ./uvm/axi_slave_agent.sv(112) @ 5945000: uvm_test_top.env.slv_ag1 [TRACE] S[1] SLV W beat 5 data=0xb30ba1ac last=0
UVM_INFO ./uvm/axi_slave_agent.sv(112) @ 5955000: uvm_test_top.env.slv_ag1 [TRACE] S[1] SLV W beat 6 data=0x0314b9cf last=0
UVM_INFO ./uvm/axi_slave_agent.sv(112) @ 5965000: uvm_test_top.env.slv_ag1 [TRACE] S[1] SLV W beat 7 data=0x741b6d31 last=0
UVM_INFO ./uvm/axi_slave_agent.sv(112) @ 5975000: uvm_test_top.env.slv_ag1 [TRACE] S[1] SLV W beat 8 data=0xb4f0cfab last=0
UVM_INFO ./uvm/axi_slave_agent.sv(112) @ 5985000: uvm_test_top.env.slv_ag1 [TRACE] S[1] SLV W beat 9 data=0x362271ab last=0
UVM_INFO ./uvm/axi_slave_agent.sv(112) @ 5995000: uvm_test_top.env.slv_ag1 [TRACE] S[1] SLV W beat 10 data=0xa92dd3bb last=0
UVM_INFO ./uvm/axi_slave_agent.sv(112) @ 6005000: uvm_test_top.env.slv_ag1 [TRACE] S[1] SLV W beat 11 data=0xcd2ae9ed last=0
UVM_INFO ./uvm/axi_slave_agent.sv(112) @ 6015000: uvm_test_top.env.slv_ag1 [TRACE] S[1] SLV W beat 12 data=0x3686b897 last=0
UVM_INFO ./uvm/axi_slave_agent.sv(112) @ 6025000: uvm_test_top.env.slv_ag1 [TRACE] S[1] SLV W beat 13 data=0xfc651f92 last=1
[6055000] M[1] DRV B Handshake! BID=14 b_pending_size=1
UVM_INFO ./uvm/axi_driver.sv(190) @ 6055000: uvm_test_top.env.mst_ag1.drv_m1 [TRACE] M[1] DRV B resp=0 id=14
UVM_INFO ./uvm/axi_driver.sv(126) @ 6055000: uvm_test_top.env.mst_ag1.drv_m1 [TRACE] M[1] DRV AW start addr=0x00007574 id=12
UVM_INFO ./uvm/axi_slave_agent.sv(84) @ 6085000: uvm_test_top.env.slv_ag3 [TRACE] S[3] SLV AW handshake id=76 addr=0x00007574 len=13
UVM_INFO ./uvm/axi_slave_agent.sv(112) @ 6095000: uvm_test_top.env.slv_ag3 [TRACE] S[3] SLV W beat 0 data=0xd1530c07 last=0
UVM_INFO ./uvm/axi_slave_agent.sv(112) @ 6105000: uvm_test_top.env.slv_ag3 [TRACE] S[3] SLV W beat 1 data=0x950eec26 last=0
UVM_INFO ./uvm/axi_slave_agent.sv(112) @ 6115000: uvm_test_top.env.slv_ag3 [TRACE] S[3] SLV W beat 2 data=0xb9ddb5ac last=0
UVM_INFO ./uvm/axi_slave_agent.sv(112) @ 6125000: uvm_test_top.env.slv_ag3 [TRACE] S[3] SLV W beat 3 data=0xaead0cb2 last=0
UVM_INFO ./uvm/axi_slave_agent.sv(112) @ 6135000: uvm_test_top.env.slv_ag3 [TRACE] S[3] SLV W beat 4 data=0x9e33dc21 last=0
UVM_INFO ./uvm/axi_slave_agent.sv(112) @ 6145000: uvm_test_top.env.slv_ag3 [TRACE] S[3] SLV W beat 5 data=0xc5fea1dd last=0
UVM_INFO ./uvm/axi_slave_agent.sv(112) @ 6155000: uvm_test_top.env.slv_ag3 [TRACE] S[3] SLV W beat 6 data=0x01e38eb0 last=0
UVM_INFO ./uvm/axi_slave_agent.sv(112) @ 6165000: uvm_test_top.env.slv_ag3 [TRACE] S[3] SLV W beat 7 data=0x0c8bffbd last=0
UVM_INFO ./uvm/axi_slave_agent.sv(112) @ 6175000: uvm_test_top.env.slv_ag3 [TRACE] S[3] SLV W beat 8 data=0x9e2e92c9 last=0
UVM_INFO ./uvm/axi_slave_agent.sv(112) @ 6185000: uvm_test_top.env.slv_ag3 [TRACE] S[3] SLV W beat 9 data=0x1f536450 last=0
UVM_INFO ./uvm/axi_slave_agent.sv(112) @ 6195000: uvm_test_top.env.slv_ag3 [TRACE] S[3] SLV W beat 10 data=0x12ecd33e last=0
UVM_INFO ./uvm/axi_slave_agent.sv(112) @ 6205000: uvm_test_top.env.slv_ag3 [TRACE] S[3] SLV W beat 11 data=0x1b257c51 last=0
UVM_INFO ./uvm/axi_slave_agent.sv(112) @ 6215000: uvm_test_top.env.slv_ag3 [TRACE] S[3] SLV W beat 12 data=0x4fa32cd6 last=0
UVM_INFO ./uvm/axi_slave_agent.sv(112) @ 6225000: uvm_test_top.env.slv_ag3 [TRACE] S[3] SLV W beat 13 data=0x80187f33 last=1
[6255000] M[1] DRV B Handshake! BID=12 b_pending_size=1
UVM_INFO ./uvm/axi_driver.sv(190) @ 6255000: uvm_test_top.env.mst_ag1.drv_m1 [TRACE] M[1] DRV B resp=0 id=12
UVM_INFO ./uvm/axi_driver.sv(126) @ 6255000: uvm_test_top.env.mst_ag1.drv_m1 [TRACE] M[1] DRV AW start addr=0x00003644 id=12
UVM_INFO ./uvm/axi_slave_agent.sv(84) @ 6285000: uvm_test_top.env.slv_ag1 [TRACE] S[1] SLV AW handshake id=76 addr=0x00003644 len=0
UVM_INFO ./uvm/axi_slave_agent.sv(112) @ 6295000: uvm_test_top.env.slv_ag1 [TRACE] S[1] SLV W beat 0 data=0x5d23b7b2 last=1
[6325000] M[1] DRV B Handshake! BID=12 b_pending_size=1
UVM_INFO ./uvm/axi_driver.sv(190) @ 6325000: uvm_test_top.env.mst_ag1.drv_m1 [TRACE] M[1] DRV B resp=0 id=12
UVM_INFO ./uvm/axi_driver.sv(220) @ 6325000: uvm_test_top.env.mst_ag1.drv_m1 [TRACE] M[1] DRV AR start addr=0x00006020 len=3 id=6
[TRACE] 6345000 AR pre-FIFO vld m=1 vld=1 rdy=1
[TRACE] 6345000 AR pre-FIFO out m=1 addr=0x00006020
UVM_INFO ./uvm/axi_slave_agent.sv(171) @ 6355000: uvm_test_top.env.slv_ag3 [TRACE] S[3] SLV AR handshake id=70 addr=0x00006020 len=3
[TRACE] 6355000 AR at slave s=3 addr=0x00006020
[TRACE] 6355000 AR pre-FIFO vld m=1 vld=0 rdy=0
UVM_INFO ./uvm/axi_slave_agent.sv(204) @ 6355000: uvm_test_top.env.slv_ag3 [TRACE] S[3] SLV R MISS at addr=0x00006020
UVM_INFO ./uvm/axi_slave_agent.sv(204) @ 6365000: uvm_test_top.env.slv_ag3 [TRACE] S[3] SLV R MISS at addr=0x00006024
UVM_INFO ./uvm/axi_slave_agent.sv(204) @ 6375000: uvm_test_top.env.slv_ag3 [TRACE] S[3] SLV R MISS at addr=0x00006028
UVM_INFO ./uvm/axi_slave_agent.sv(204) @ 6385000: uvm_test_top.env.slv_ag3 [TRACE] S[3] SLV R MISS at addr=0x0000602c
UVM_INFO ./uvm/axi_driver.sv(220) @ 6415000: uvm_test_top.env.mst_ag1.drv_m1 [TRACE] M[1] DRV AR start addr=0x000055cc len=13 id=5
[TRACE] 6435000 AR pre-FIFO vld m=1 vld=1 rdy=1
[TRACE] 6435000 AR pre-FIFO out m=1 addr=0x000055cc
UVM_INFO ./uvm/axi_slave_agent.sv(171) @ 6445000: uvm_test_top.env.slv_ag2 [TRACE] S[2] SLV AR handshake id=69 addr=0x000055cc len=13
[TRACE] 6445000 AR at slave s=2 addr=0x000055cc
[TRACE] 6445000 AR pre-FIFO vld m=1 vld=0 rdy=0
UVM_INFO ./uvm/axi_slave_agent.sv(204) @ 6445000: uvm_test_top.env.slv_ag2 [TRACE] S[2] SLV R MISS at addr=0x000055cc
UVM_INFO ./uvm/axi_slave_agent.sv(204) @ 6455000: uvm_test_top.env.slv_ag2 [TRACE] S[2] SLV R MISS at addr=0x000055d0
UVM_INFO ./uvm/axi_slave_agent.sv(204) @ 6465000: uvm_test_top.env.slv_ag2 [TRACE] S[2] SLV R MISS at addr=0x000055d4
UVM_INFO ./uvm/axi_slave_agent.sv(204) @ 6475000: uvm_test_top.env.slv_ag2 [TRACE] S[2] SLV R MISS at addr=0x000055d8
UVM_INFO ./uvm/axi_slave_agent.sv(204) @ 6485000: uvm_test_top.env.slv_ag2 [TRACE] S[2] SLV R MISS at addr=0x000055dc
UVM_INFO ./uvm/axi_slave_agent.sv(204) @ 6495000: uvm_test_top.env.slv_ag2 [TRACE] S[2] SLV R MISS at addr=0x000055e0
UVM_INFO ./uvm/axi_slave_agent.sv(204) @ 6505000: uvm_test_top.env.slv_ag2 [TRACE] S[2] SLV R MISS at addr=0x000055e4
UVM_INFO ./uvm/axi_slave_agent.sv(204) @ 6515000: uvm_test_top.env.slv_ag2 [TRACE] S[2] SLV R MISS at addr=0x000055e8
UVM_INFO ./uvm/axi_slave_agent.sv(204) @ 6525000: uvm_test_top.env.slv_ag2 [TRACE] S[2] SLV R MISS at addr=0x000055ec
UVM_INFO ./uvm/axi_slave_agent.sv(204) @ 6535000: uvm_test_top.env.slv_ag2 [TRACE] S[2] SLV R MISS at addr=0x000055f0
UVM_INFO ./uvm/axi_slave_agent.sv(204) @ 6545000: uvm_test_top.env.slv_ag2 [TRACE] S[2] SLV R MISS at addr=0x000055f4
UVM_INFO ./uvm/axi_slave_agent.sv(204) @ 6555000: uvm_test_top.env.slv_ag2 [TRACE] S[2] SLV R MISS at addr=0x000055f8
UVM_INFO ./uvm/axi_slave_agent.sv(204) @ 6565000: uvm_test_top.env.slv_ag2 [TRACE] S[2] SLV R MISS at addr=0x000055fc
UVM_INFO ./uvm/axi_slave_agent.sv(204) @ 6575000: uvm_test_top.env.slv_ag2 [TRACE] S[2] SLV R MISS at addr=0x00005600
UVM_INFO ./uvm/axi_driver.sv(126) @ 6605000: uvm_test_top.env.mst_ag1.drv_m1 [TRACE] M[1] DRV AW start addr=0x0000799c id=6
UVM_INFO ./uvm/axi_slave_agent.sv(84) @ 6635000: uvm_test_top.env.slv_ag3 [TRACE] S[3] SLV AW handshake id=70 addr=0x0000799c len=2
UVM_INFO ./uvm/axi_slave_agent.sv(112) @ 6645000: uvm_test_top.env.slv_ag3 [TRACE] S[3] SLV W beat 0 data=0xc6b93ffc last=0
UVM_INFO ./uvm/axi_slave_agent.sv(112) @ 6655000: uvm_test_top.env.slv_ag3 [TRACE] S[3] SLV W beat 1 data=0x5c76c677 last=0
UVM_INFO ./uvm/axi_slave_agent.sv(112) @ 6665000: uvm_test_top.env.slv_ag3 [TRACE] S[3] SLV W beat 2 data=0xe25b0a83 last=1
[6695000] M[1] DRV B Handshake! BID=6 b_pending_size=1
UVM_INFO ./uvm/axi_driver.sv(190) @ 6695000: uvm_test_top.env.mst_ag1.drv_m1 [TRACE] M[1] DRV B resp=0 id=6
UVM_INFO ./uvm/axi_driver.sv(126) @ 6695000: uvm_test_top.env.mst_ag1.drv_m1 [TRACE] M[1] DRV AW start addr=0x00003e34 id=10
UVM_INFO ./uvm/axi_slave_agent.sv(84) @ 6725000: uvm_test_top.env.slv_ag1 [TRACE] S[1] SLV AW handshake id=74 addr=0x00003e34 len=8
UVM_INFO ./uvm/axi_slave_agent.sv(112) @ 6735000: uvm_test_top.env.slv_ag1 [TRACE] S[1] SLV W beat 0 data=0x6c305de9 last=0
UVM_INFO ./uvm/axi_slave_agent.sv(112) @ 6745000: uvm_test_top.env.slv_ag1 [TRACE] S[1] SLV W beat 1 data=0xf019b5e0 last=0
UVM_INFO ./uvm/axi_slave_agent.sv(112) @ 6755000: uvm_test_top.env.slv_ag1 [TRACE] S[1] SLV W beat 2 data=0x79bbd40c last=0
UVM_INFO ./uvm/axi_slave_agent.sv(112) @ 6765000: uvm_test_top.env.slv_ag1 [TRACE] S[1] SLV W beat 3 data=0xde94fad7 last=0
UVM_INFO ./uvm/axi_slave_agent.sv(112) @ 6775000: uvm_test_top.env.slv_ag1 [TRACE] S[1] SLV W beat 4 data=0xf96a7060 last=0
UVM_INFO ./uvm/axi_slave_agent.sv(112) @ 6785000: uvm_test_top.env.slv_ag1 [TRACE] S[1] SLV W beat 5 data=0xbbac3b17 last=0
UVM_INFO ./uvm/axi_slave_agent.sv(112) @ 6795000: uvm_test_top.env.slv_ag1 [TRACE] S[1] SLV W beat 6 data=0xe06caff4 last=0
UVM_INFO ./uvm/axi_slave_agent.sv(112) @ 6805000: uvm_test_top.env.slv_ag1 [TRACE] S[1] SLV W beat 7 data=0x74762953 last=0
UVM_INFO ./uvm/axi_slave_agent.sv(112) @ 6815000: uvm_test_top.env.slv_ag1 [TRACE] S[1] SLV W beat 8 data=0x2830c5ab last=1
[6845000] M[1] DRV B Handshake! BID=10 b_pending_size=1
UVM_INFO ./uvm/axi_driver.sv(190) @ 6845000: uvm_test_top.env.mst_ag1.drv_m1 [TRACE] M[1] DRV B resp=0 id=10
UVM_INFO ./uvm/axi_driver.sv(220) @ 6845000: uvm_test_top.env.mst_ag1.drv_m1 [TRACE] M[1] DRV AR start addr=0x00003884 len=12 id=12
[TRACE] 6865000 AR pre-FIFO vld m=1 vld=1 rdy=1
[TRACE] 6865000 AR pre-FIFO out m=1 addr=0x00003884
UVM_INFO ./uvm/axi_slave_agent.sv(171) @ 6875000: uvm_test_top.env.slv_ag1 [TRACE] S[1] SLV AR handshake id=76 addr=0x00003884 len=12
[TRACE] 6875000 AR at slave s=1 addr=0x00003884
[TRACE] 6875000 AR pre-FIFO vld m=1 vld=0 rdy=0
UVM_INFO ./uvm/axi_slave_agent.sv(204) @ 6875000: uvm_test_top.env.slv_ag1 [TRACE] S[1] SLV R MISS at addr=0x00003884
UVM_INFO ./uvm/axi_slave_agent.sv(204) @ 6885000: uvm_test_top.env.slv_ag1 [TRACE] S[1] SLV R MISS at addr=0x00003888
UVM_INFO ./uvm/axi_slave_agent.sv(204) @ 6895000: uvm_test_top.env.slv_ag1 [TRACE] S[1] SLV R MISS at addr=0x0000388c
UVM_INFO ./uvm/axi_slave_agent.sv(204) @ 6905000: uvm_test_top.env.slv_ag1 [TRACE] S[1] SLV R MISS at addr=0x00003890
UVM_INFO ./uvm/axi_slave_agent.sv(204) @ 6915000: uvm_test_top.env.slv_ag1 [TRACE] S[1] SLV R MISS at addr=0x00003894
UVM_INFO ./uvm/axi_slave_agent.sv(204) @ 6925000: uvm_test_top.env.slv_ag1 [TRACE] S[1] SLV R MISS at addr=0x00003898
UVM_INFO ./uvm/axi_slave_agent.sv(204) @ 6935000: uvm_test_top.env.slv_ag1 [TRACE] S[1] SLV R MISS at addr=0x0000389c
UVM_INFO ./uvm/axi_slave_agent.sv(204) @ 6945000: uvm_test_top.env.slv_ag1 [TRACE] S[1] SLV R MISS at addr=0x000038a0
UVM_INFO ./uvm/axi_slave_agent.sv(204) @ 6955000: uvm_test_top.env.slv_ag1 [TRACE] S[1] SLV R MISS at addr=0x000038a4
UVM_INFO ./uvm/axi_slave_agent.sv(204) @ 6965000: uvm_test_top.env.slv_ag1 [TRACE] S[1] SLV R MISS at addr=0x000038a8
UVM_INFO ./uvm/axi_slave_agent.sv(204) @ 6975000: uvm_test_top.env.slv_ag1 [TRACE] S[1] SLV R MISS at addr=0x000038ac
UVM_INFO ./uvm/axi_slave_agent.sv(204) @ 6985000: uvm_test_top.env.slv_ag1 [TRACE] S[1] SLV R MISS at addr=0x000038b0
UVM_INFO ./uvm/axi_slave_agent.sv(204) @ 6995000: uvm_test_top.env.slv_ag1 [TRACE] S[1] SLV R MISS at addr=0x000038b4
UVM_INFO ./uvm/axi_driver.sv(126) @ 7025000: uvm_test_top.env.mst_ag1.drv_m1 [TRACE] M[1] DRV AW start addr=0x000056ac id=15
UVM_INFO ./uvm/axi_slave_agent.sv(84) @ 7055000: uvm_test_top.env.slv_ag2 [TRACE] S[2] SLV AW handshake id=79 addr=0x000056ac len=15
UVM_INFO ./uvm/axi_slave_agent.sv(112) @ 7065000: uvm_test_top.env.slv_ag2 [TRACE] S[2] SLV W beat 0 data=0xaa103bb4 last=0
UVM_INFO ./uvm/axi_slave_agent.sv(112) @ 7075000: uvm_test_top.env.slv_ag2 [TRACE] S[2] SLV W beat 1 data=0x57598fd8 last=0
UVM_INFO ./uvm/axi_slave_agent.sv(112) @ 7085000: uvm_test_top.env.slv_ag2 [TRACE] S[2] SLV W beat 2 data=0x62ec146a last=0
UVM_INFO ./uvm/axi_slave_agent.sv(112) @ 7095000: uvm_test_top.env.slv_ag2 [TRACE] S[2] SLV W beat 3 data=0x1b1de409 last=0
UVM_INFO ./uvm/axi_slave_agent.sv(112) @ 7105000: uvm_test_top.env.slv_ag2 [TRACE] S[2] SLV W beat 4 data=0x0fe0bbb7 last=0
UVM_INFO ./uvm/axi_slave_agent.sv(112) @ 7115000: uvm_test_top.env.slv_ag2 [TRACE] S[2] SLV W beat 5 data=0x44636656 last=0
UVM_INFO ./uvm/axi_slave_agent.sv(112) @ 7125000: uvm_test_top.env.slv_ag2 [TRACE] S[2] SLV W beat 6 data=0xe6bb5f0c last=0
UVM_INFO ./uvm/axi_slave_agent.sv(112) @ 7135000: uvm_test_top.env.slv_ag2 [TRACE] S[2] SLV W beat 7 data=0x7b9bee68 last=0
UVM_INFO ./uvm/axi_slave_agent.sv(112) @ 7145000: uvm_test_top.env.slv_ag2 [TRACE] S[2] SLV W beat 8 data=0xb14fa768 last=0
UVM_INFO ./uvm/axi_slave_agent.sv(112) @ 7155000: uvm_test_top.env.slv_ag2 [TRACE] S[2] SLV W beat 9 data=0xf330e14a last=0
UVM_INFO ./uvm/axi_slave_agent.sv(112) @ 7165000: uvm_test_top.env.slv_ag2 [TRACE] S[2] SLV W beat 10 data=0xeb7fec5f last=0
UVM_INFO ./uvm/axi_slave_agent.sv(112) @ 7175000: uvm_test_top.env.slv_ag2 [TRACE] S[2] SLV W beat 11 data=0xf50ed7e7 last=0
UVM_INFO ./uvm/axi_slave_agent.sv(112) @ 7185000: uvm_test_top.env.slv_ag2 [TRACE] S[2] SLV W beat 12 data=0x09fa0848 last=0
UVM_INFO ./uvm/axi_slave_agent.sv(112) @ 7195000: uvm_test_top.env.slv_ag2 [TRACE] S[2] SLV W beat 13 data=0x4950a0a5 last=0
UVM_INFO ./uvm/axi_slave_agent.sv(112) @ 7205000: uvm_test_top.env.slv_ag2 [TRACE] S[2] SLV W beat 14 data=0xf75d978b last=0
UVM_INFO ./uvm/axi_slave_agent.sv(112) @ 7215000: uvm_test_top.env.slv_ag2 [TRACE] S[2] SLV W beat 15 data=0x4ea80f37 last=1
[7245000] M[1] DRV B Handshake! BID=15 b_pending_size=1
UVM_INFO ./uvm/axi_driver.sv(190) @ 7245000: uvm_test_top.env.mst_ag1.drv_m1 [TRACE] M[1] DRV B resp=0 id=15
UVM_INFO ./uvm/axi_driver.sv(220) @ 7245000: uvm_test_top.env.mst_ag1.drv_m1 [TRACE] M[1] DRV AR start addr=0x00005e10 len=10 id=13
[TRACE] 7265000 AR pre-FIFO vld m=1 vld=1 rdy=1
[TRACE] 7265000 AR pre-FIFO out m=1 addr=0x00005e10
UVM_INFO ./uvm/axi_slave_agent.sv(171) @ 7275000: uvm_test_top.env.slv_ag2 [TRACE] S[2] SLV AR handshake id=77 addr=0x00005e10 len=10
[TRACE] 7275000 AR at slave s=2 addr=0x00005e10
[TRACE] 7275000 AR pre-FIFO vld m=1 vld=0 rdy=0
UVM_INFO ./uvm/axi_slave_agent.sv(204) @ 7275000: uvm_test_top.env.slv_ag2 [TRACE] S[2] SLV R MISS at addr=0x00005e10
UVM_INFO ./uvm/axi_slave_agent.sv(204) @ 7285000: uvm_test_top.env.slv_ag2 [TRACE] S[2] SLV R MISS at addr=0x00005e14
UVM_INFO ./uvm/axi_slave_agent.sv(204) @ 7295000: uvm_test_top.env.slv_ag2 [TRACE] S[2] SLV R MISS at addr=0x00005e18
UVM_INFO ./uvm/axi_slave_agent.sv(204) @ 7305000: uvm_test_top.env.slv_ag2 [TRACE] S[2] SLV R MISS at addr=0x00005e1c
UVM_INFO ./uvm/axi_slave_agent.sv(204) @ 7315000: uvm_test_top.env.slv_ag2 [TRACE] S[2] SLV R MISS at addr=0x00005e20
UVM_INFO ./uvm/axi_slave_agent.sv(204) @ 7325000: uvm_test_top.env.slv_ag2 [TRACE] S[2] SLV R MISS at addr=0x00005e24
UVM_INFO ./uvm/axi_slave_agent.sv(204) @ 7335000: uvm_test_top.env.slv_ag2 [TRACE] S[2] SLV R MISS at addr=0x00005e28
UVM_INFO ./uvm/axi_slave_agent.sv(204) @ 7345000: uvm_test_top.env.slv_ag2 [TRACE] S[2] SLV R MISS at addr=0x00005e2c
UVM_INFO ./uvm/axi_slave_agent.sv(204) @ 7355000: uvm_test_top.env.slv_ag2 [TRACE] S[2] SLV R MISS at addr=0x00005e30
UVM_INFO ./uvm/axi_slave_agent.sv(204) @ 7365000: uvm_test_top.env.slv_ag2 [TRACE] S[2] SLV R MISS at addr=0x00005e34
UVM_INFO ./uvm/axi_slave_agent.sv(204) @ 7375000: uvm_test_top.env.slv_ag2 [TRACE] S[2] SLV R MISS at addr=0x00005e38
UVM_INFO ./uvm/axi_driver.sv(220) @ 7405000: uvm_test_top.env.mst_ag1.drv_m1 [TRACE] M[1] DRV AR start addr=0x00006e9c len=11 id=14
[TRACE] 7425000 AR pre-FIFO vld m=1 vld=1 rdy=1
[TRACE] 7425000 AR pre-FIFO out m=1 addr=0x00006e9c
UVM_INFO ./uvm/axi_slave_agent.sv(171) @ 7435000: uvm_test_top.env.slv_ag3 [TRACE] S[3] SLV AR handshake id=78 addr=0x00006e9c len=11
[TRACE] 7435000 AR at slave s=3 addr=0x00006e9c
[TRACE] 7435000 AR pre-FIFO vld m=1 vld=0 rdy=0
UVM_INFO ./uvm/axi_slave_agent.sv(204) @ 7435000: uvm_test_top.env.slv_ag3 [TRACE] S[3] SLV R MISS at addr=0x00006e9c
