Command: /home/ICer/project/axi4/./simv +UVM_TESTNAME=stress_test +ntb_random_seed_automatic -l sim.log
Chronologic VCS simulator copyright 1991-2018
Contains Synopsys proprietary information.
Compiler version O-2018.09-SP2_Full64; Runtime version O-2018.09-SP2_Full64;  Jun 18 14:43 2026
NOTE: automatic random seed used: 1345177400
UVM_INFO /home/synopsys/vcs/O-2018.09-SP2/etc/uvm-1.2/base/uvm_root.svh(402) @ 0: reporter [UVM/RELNOTES] 
----------------------------------------------------------------
UVM-1.2.Synopsys
(C) 2007-2014 Mentor Graphics Corporation
(C) 2007-2014 Cadence Design Systems, Inc.
(C) 2006-2014 Synopsys, Inc.
(C) 2011-2013 Cypress Semiconductor Corp.
(C) 2013-2014 NVIDIA Corporation
----------------------------------------------------------------

  ***********       IMPORTANT RELEASE NOTES         ************

  You are using a version of the UVM library that has been compiled
  with `UVM_NO_DEPRECATED undefined.
  See http://www.eda.org/svdb/view.php?id=3313 for more details.

  You are using a version of the UVM library that has been compiled
  with `UVM_OBJECT_DO_NOT_NEED_CONSTRUCTOR undefined.
  See http://www.eda.org/svdb/view.php?id=3770 for more details.

      (Specify +UVM_NO_RELNOTES to turn off this notice)

*Verdi* Loading libsscore_vcs201809.so
FSDB Dumper for VCS, Release Verdi_O-2018.09-SP2, Linux x86_64/64bit, 02/21/2019
(C) 1996 - 2019 by Synopsys, Inc.
*Verdi* : Create FSDB file 'tb_top.fsdb'
*Verdi* : Begin traversing the scope (tb_top), layer (0).
*Verdi* : End of traversing.
*Verdi* : Begin traversing the MDAs, layer (0).
*Verdi* : Enable +mda and +packedmda dumping.
*Verdi* : End of traversing the MDAs.
UVM_INFO /home/synopsys/vcs/O-2018.09-SP2/etc/uvm-1.2/base/uvm_root.svh(463) @ 0: reporter [NO_DPI_TSTNAME] UVM_NO_DPI defined--getting UVM_TESTNAME directly, without DPI
UVM_INFO @ 0: reporter [RNTST] Running test stress_test...
UVM_INFO /home/synopsys/vcs/O-2018.09-SP2/etc/uvm-1.2/base/uvm_root.svh(589) @ 0: reporter [UVMTOP] UVM testbench topology:
------------------------------------------------------------------
Name                       Type                        Size  Value
------------------------------------------------------------------
uvm_test_top               stress_test                 -     @343 
  env                      axi_env                     -     @356 
    cov                    axi_cov                     -     @593 
      ar_ap                uvm_analysis_export         -     @671 
      ar_fifo              uvm_tlm_analysis_fifo #(T)  -     @760 
        analysis_export    uvm_analysis_imp            -     @809 
        get_ap             uvm_analysis_port           -     @799 
        get_peek_export    uvm_get_peek_imp            -     @779 
        put_ap             uvm_analysis_port           -     @789 
        put_export         uvm_put_imp                 -     @769 
      aw_ap                uvm_analysis_export         -     @661 
      aw_fifo              uvm_tlm_analysis_fifo #(T)  -     @701 
        analysis_export    uvm_analysis_imp            -     @750 
        get_ap             uvm_analysis_port           -     @740 
        get_peek_export    uvm_get_peek_imp            -     @720 
        put_ap             uvm_analysis_port           -     @730 
        put_export         uvm_put_imp                 -     @710 
      b_ap                 uvm_analysis_export         -     @681 
      b_fifo               uvm_tlm_analysis_fifo #(T)  -     @819 
        analysis_export    uvm_analysis_imp            -     @868 
        get_ap             uvm_analysis_port           -     @858 
        get_peek_export    uvm_get_peek_imp            -     @838 
        put_ap             uvm_analysis_port           -     @848 
        put_export         uvm_put_imp                 -     @828 
      r_ap                 uvm_analysis_export         -     @691 
      r_fifo               uvm_tlm_analysis_fifo #(T)  -     @878 
        analysis_export    uvm_analysis_imp            -     @927 
        get_ap             uvm_analysis_port           -     @917 
        get_peek_export    uvm_get_peek_imp            -     @897 
        put_ap             uvm_analysis_port           -     @907 
        put_export         uvm_put_imp                 -     @887 
    mst_ag0                axi_master_agent            -     @366 
      drv_m0               axi_driver                  -     @1075
        ar_fifo            uvm_tlm_fifo #(T)           -     @1261
          get_ap           uvm_analysis_port           -     @1300
          get_peek_export  uvm_get_peek_imp            -     @1280
          put_ap           uvm_analysis_port           -     @1290
          put_export       uvm_put_imp                 -     @1270
        aw_fifo            uvm_tlm_fifo #(T)           -     @1163
          get_ap           uvm_analysis_port           -     @1202
          get_peek_export  uvm_get_peek_imp            -     @1182
          put_ap           uvm_analysis_port           -     @1192
          put_export       uvm_put_imp                 -     @1172
        rsp_port           uvm_analysis_port           -     @1094
        seq_item_port      uvm_seq_item_pull_port      -     @1084
        w_fifo             uvm_tlm_fifo #(T)           -     @1212
          get_ap           uvm_analysis_port           -     @1251
          get_peek_export  uvm_get_peek_imp            -     @1231
          put_ap           uvm_analysis_port           -     @1241
          put_export       uvm_put_imp                 -     @1221
      mon_m0               axi_monitor                 -     @1104
        ap_ar              uvm_analysis_port           -     @1143
        ap_aw              uvm_analysis_port           -     @1113
        ap_b               uvm_analysis_port           -     @1133
        ap_r               uvm_analysis_port           -     @1153
        ap_w               uvm_analysis_port           -     @1123
      sqr_m0               axi_sequencer               -     @938 
        rsp_export         uvm_analysis_export         -     @947 
        seq_item_export    uvm_seq_item_pull_imp       -     @1065
        arbitration_queue  array                       0     -    
        lock_queue         array                       0     -    
        num_last_reqs      integral                    32    'd1  
        num_last_rsps      integral                    32    'd1  
    mst_ag1                axi_master_agent            -     @384 
      drv_m1               axi_driver                  -     @1453
        ar_fifo            uvm_tlm_fifo #(T)           -     @1639
          get_ap           uvm_analysis_port           -     @1678
          get_peek_export  uvm_get_peek_imp            -     @1658
          put_ap           uvm_analysis_port           -     @1668
          put_export       uvm_put_imp                 -     @1648
        aw_fifo            uvm_tlm_fifo #(T)           -     @1541
          get_ap           uvm_analysis_port           -     @1580
          get_peek_export  uvm_get_peek_imp            -     @1560
          put_ap           uvm_analysis_port           -     @1570
          put_export       uvm_put_imp                 -     @1550
        rsp_port           uvm_analysis_port           -     @1472
        seq_item_port      uvm_seq_item_pull_port      -     @1462
        w_fifo             uvm_tlm_fifo #(T)           -     @1590
          get_ap           uvm_analysis_port           -     @1629
          get_peek_export  uvm_get_peek_imp            -     @1609
          put_ap           uvm_analysis_port           -     @1619
          put_export       uvm_put_imp                 -     @1599
      mon_m1               axi_monitor                 -     @1482
        ap_ar              uvm_analysis_port           -     @1521
        ap_aw              uvm_analysis_port           -     @1491
        ap_b               uvm_analysis_port           -     @1511
        ap_r               uvm_analysis_port           -     @1531
        ap_w               uvm_analysis_port           -     @1501
      sqr_m1               axi_sequencer               -     @1316
        rsp_export         uvm_analysis_export         -     @1325
        seq_item_export    uvm_seq_item_pull_imp       -     @1443
        arbitration_queue  array                       0     -    
        lock_queue         array                       0     -    
        num_last_reqs      integral                    32    'd1  
        num_last_rsps      integral                    32    'd1  
    mst_ag2                axi_master_agent            -     @402 
      drv_m2               axi_driver                  -     @1831
        ar_fifo            uvm_tlm_fifo #(T)           -     @2017
          get_ap           uvm_analysis_port           -     @2056
          get_peek_export  uvm_get_peek_imp            -     @2036
          put_ap           uvm_analysis_port           -     @2046
          put_export       uvm_put_imp                 -     @2026
        aw_fifo            uvm_tlm_fifo #(T)           -     @1919
          get_ap           uvm_analysis_port           -     @1958
          get_peek_export  uvm_get_peek_imp            -     @1938
          put_ap           uvm_analysis_port           -     @1948
          put_export       uvm_put_imp                 -     @1928
        rsp_port           uvm_analysis_port           -     @1850
        seq_item_port      uvm_seq_item_pull_port      -     @1840
        w_fifo             uvm_tlm_fifo #(T)           -     @1968
          get_ap           uvm_analysis_port           -     @2007
          get_peek_export  uvm_get_peek_imp            -     @1987
          put_ap           uvm_analysis_port           -     @1997
          put_export       uvm_put_imp                 -     @1977
      mon_m2               axi_monitor                 -     @1860
        ap_ar              uvm_analysis_port           -     @1899
        ap_aw              uvm_analysis_port           -     @1869
        ap_b               uvm_analysis_port           -     @1889
        ap_r               uvm_analysis_port           -     @1909
        ap_w               uvm_analysis_port           -     @1879
      sqr_m2               axi_sequencer               -     @1694
        rsp_export         uvm_analysis_export         -     @1703
        seq_item_export    uvm_seq_item_pull_imp       -     @1821
        arbitration_queue  array                       0     -    
        lock_queue         array                       0     -    
        num_last_reqs      integral                    32    'd1  
        num_last_rsps      integral                    32    'd1  
    mst_ag3                axi_master_agent            -     @420 
      drv_m3               axi_driver                  -     @2209
        ar_fifo            uvm_tlm_fifo #(T)           -     @2395
          get_ap           uvm_analysis_port           -     @2434
          get_peek_export  uvm_get_peek_imp            -     @2414
          put_ap           uvm_analysis_port           -     @2424
          put_export       uvm_put_imp                 -     @2404
        aw_fifo            uvm_tlm_fifo #(T)           -     @2297
          get_ap           uvm_analysis_port           -     @2336
          get_peek_export  uvm_get_peek_imp            -     @2316
          put_ap           uvm_analysis_port           -     @2326
          put_export       uvm_put_imp                 -     @2306
        rsp_port           uvm_analysis_port           -     @2228
        seq_item_port      uvm_seq_item_pull_port      -     @2218
        w_fifo             uvm_tlm_fifo #(T)           -     @2346
          get_ap           uvm_analysis_port           -     @2385
          get_peek_export  uvm_get_peek_imp            -     @2365
          put_ap           uvm_analysis_port           -     @2375
          put_export       uvm_put_imp                 -     @2355
      mon_m3               axi_monitor                 -     @2238
        ap_ar              uvm_analysis_port           -     @2277
        ap_aw              uvm_analysis_port           -     @2247
        ap_b               uvm_analysis_port           -     @2267
        ap_r               uvm_analysis_port           -     @2287
        ap_w               uvm_analysis_port           -     @2257
      sqr_m3               axi_sequencer               -     @2072
        rsp_export         uvm_analysis_export         -     @2081
        seq_item_export    uvm_seq_item_pull_imp       -     @2199
        arbitration_queue  array                       0     -    
        lock_queue         array                       0     -    
        num_last_reqs      integral                    32    'd1  
        num_last_rsps      integral                    32    'd1  
    proto_chk              axi_protocol_checker        -     @602 
      ar_imp               uvm_analysis_imp_ar         -     @641 
      aw_imp               uvm_analysis_imp_aw         -     @611 
      b_imp                uvm_analysis_imp_b          -     @631 
      r_imp                uvm_analysis_imp_r          -     @651 
      w_imp                uvm_analysis_imp_w          -     @621 
    refm                   reference_model             -     @584 
      ar_ap                uvm_analysis_export         -     @2459
      ar_fifo              uvm_tlm_analysis_fifo #(T)  -     @2538
        analysis_export    uvm_analysis_imp            -     @2587
        get_ap             uvm_analysis_port           -     @2577
        get_peek_export    uvm_get_peek_imp            -     @2557
        put_ap             uvm_analysis_port           -     @2567
        put_export         uvm_put_imp                 -     @2547
      aw_ap                uvm_analysis_export         -     @2449
      aw_fifo              uvm_tlm_analysis_fifo #(T)  -     @2479
        analysis_export    uvm_analysis_imp            -     @2528
        get_ap             uvm_analysis_port           -     @2518
        get_peek_export    uvm_get_peek_imp            -     @2498
        put_ap             uvm_analysis_port           -     @2508
        put_export         uvm_put_imp                 -     @2488
      w_ap                 uvm_analysis_export         -     @2469
      w_fifo               uvm_tlm_analysis_fifo #(T)  -     @2597
        analysis_export    uvm_analysis_imp            -     @2646
        get_ap             uvm_analysis_port           -     @2636
        get_peek_export    uvm_get_peek_imp            -     @2616
        put_ap             uvm_analysis_port           -     @2626
        put_export         uvm_put_imp                 -     @2606
    sb                     axi_scoreboard              -     @575 
      ar_d_fifo            uvm_tlm_analysis_fifo #(T)  -     @3051
        analysis_export    uvm_analysis_imp            -     @3100
        get_ap             uvm_analysis_port           -     @3090
        get_peek_export    uvm_get_peek_imp            -     @3070
        put_ap             uvm_analysis_port           -     @3080
        put_export         uvm_put_imp                 -     @3060
      ar_imp               uvm_analysis_imp_ar         -     @2686
      ar_p_fifo            uvm_tlm_analysis_fifo #(T)  -     @3110
        analysis_export    uvm_analysis_imp            -     @3159
        get_ap             uvm_analysis_port           -     @3149
        get_peek_export    uvm_get_peek_imp            -     @3129
        put_ap             uvm_analysis_port           -     @3139
        put_export         uvm_put_imp                 -     @3119
      ar_r_fifo            uvm_tlm_analysis_fifo #(T)  -     @2992
        analysis_export    uvm_analysis_imp            -     @3041
        get_ap             uvm_analysis_port           -     @3031
        get_peek_export    uvm_get_peek_imp            -     @3011
        put_ap             uvm_analysis_port           -     @3021
        put_export         uvm_put_imp                 -     @3001
      aw_imp               uvm_analysis_imp_aw         -     @2656
      aw_p_fifo            uvm_tlm_analysis_fifo #(T)  -     @2815
        analysis_export    uvm_analysis_imp            -     @2864
        get_ap             uvm_analysis_port           -     @2854
        get_peek_export    uvm_get_peek_imp            -     @2834
        put_ap             uvm_analysis_port           -     @2844
        put_export         uvm_put_imp                 -     @2824
      aw_r_fifo            uvm_tlm_analysis_fifo #(T)  -     @2756
        analysis_export    uvm_analysis_imp            -     @2805
        get_ap             uvm_analysis_port           -     @2795
        get_peek_export    uvm_get_peek_imp            -     @2775
        put_ap             uvm_analysis_port           -     @2785
        put_export         uvm_put_imp                 -     @2765
      b_imp                uvm_analysis_imp_b          -     @2676
      b_p_fifo             uvm_tlm_analysis_fifo #(T)  -     @2933
        analysis_export    uvm_analysis_imp            -     @2982
        get_ap             uvm_analysis_port           -     @2972
        get_peek_export    uvm_get_peek_imp            -     @2952
        put_ap             uvm_analysis_port           -     @2962
        put_export         uvm_put_imp                 -     @2942
      r_d_fifo             uvm_tlm_analysis_fifo #(T)  -     @3169
        analysis_export    uvm_analysis_imp            -     @3218
        get_ap             uvm_analysis_port           -     @3208
        get_peek_export    uvm_get_peek_imp            -     @3188
        put_ap             uvm_analysis_port           -     @3198
        put_export         uvm_put_imp                 -     @3178
      r_imp                uvm_analysis_imp_r          -     @2696
      r_p_fifo             uvm_tlm_analysis_fifo #(T)  -     @3228
        analysis_export    uvm_analysis_imp            -     @3277
        get_ap             uvm_analysis_port           -     @3267
        get_peek_export    uvm_get_peek_imp            -     @3247
        put_ap             uvm_analysis_port           -     @3257
        put_export         uvm_put_imp                 -     @3237
      slv_ar_fifo          uvm_tlm_analysis_fifo #(T)  -     @3346
        analysis_export    uvm_analysis_imp            -     @3395
        get_ap             uvm_analysis_port           -     @3385
        get_peek_export    uvm_get_peek_imp            -     @3365
        put_ap             uvm_analysis_port           -     @3375
        put_export         uvm_put_imp                 -     @3355
      slv_ar_imp           uvm_analysis_imp_slv_ar     -     @2716
      slv_aw_fifo          uvm_tlm_analysis_fifo #(T)  -     @3287
        analysis_export    uvm_analysis_imp            -     @3336
        get_ap             uvm_analysis_port           -     @3326
        get_peek_export    uvm_get_peek_imp            -     @3306
        put_ap             uvm_analysis_port           -     @3316
        put_export         uvm_put_imp                 -     @3296
      slv_aw_imp           uvm_analysis_imp_slv_aw     -     @2706
      slv_b_fifo           uvm_tlm_analysis_fifo #(T)  -     @3464
        analysis_export    uvm_analysis_imp            -     @3513
        get_ap             uvm_analysis_port           -     @3503
        get_peek_export    uvm_get_peek_imp            -     @3483
        put_ap             uvm_analysis_port           -     @3493
        put_export         uvm_put_imp                 -     @3473
      slv_b_imp            uvm_analysis_imp_slv_b      -     @2736
      slv_r_fifo           uvm_tlm_analysis_fifo #(T)  -     @3523
        analysis_export    uvm_analysis_imp            -     @3572
        get_ap             uvm_analysis_port           -     @3562
        get_peek_export    uvm_get_peek_imp            -     @3542
        put_ap             uvm_analysis_port           -     @3552
        put_export         uvm_put_imp                 -     @3532
      slv_r_imp            uvm_analysis_imp_slv_r      -     @2746
      slv_w_fifo           uvm_tlm_analysis_fifo #(T)  -     @3405
        analysis_export    uvm_analysis_imp            -     @3454
        get_ap             uvm_analysis_port           -     @3444
        get_peek_export    uvm_get_peek_imp            -     @3424
        put_ap             uvm_analysis_port           -     @3434
        put_export         uvm_put_imp                 -     @3414
      slv_w_imp            uvm_analysis_imp_slv_w      -     @2726
      w_imp                uvm_analysis_imp_w          -     @2666
      w_p_fifo             uvm_tlm_analysis_fifo #(T)  -     @2874
        analysis_export    uvm_analysis_imp            -     @2923
        get_ap             uvm_analysis_port           -     @2913
        get_peek_export    uvm_get_peek_imp            -     @2893
        put_ap             uvm_analysis_port           -     @2903
        put_export         uvm_put_imp                 -     @2883
    slv_ag0                axi_slave_agent             -     @375 
      mon_s0               axi_monitor                 -     @3583
        ap_ar              uvm_analysis_port           -     @3622
        ap_aw              uvm_analysis_port           -     @3592
        ap_b               uvm_analysis_port           -     @3612
        ap_r               uvm_analysis_port           -     @3632
        ap_w               uvm_analysis_port           -     @3602
    slv_ag1                axi_slave_agent             -     @393 
      mon_s1               axi_monitor                 -     @3643
        ap_ar              uvm_analysis_port           -     @3682
        ap_aw              uvm_analysis_port           -     @3652
        ap_b               uvm_analysis_port           -     @3672
        ap_r               uvm_analysis_port           -     @3692
        ap_w               uvm_analysis_port           -     @3662
    slv_ag2                axi_slave_agent             -     @411 
      mon_s2               axi_monitor                 -     @3703
        ap_ar              uvm_analysis_port           -     @3742
        ap_aw              uvm_analysis_port           -     @3712
        ap_b               uvm_analysis_port           -     @3732
        ap_r               uvm_analysis_port           -     @3752
        ap_w               uvm_analysis_port           -     @3722
    slv_ag3                axi_slave_agent             -     @429 
      mon_s3               axi_monitor                 -     @3763
        ap_ar              uvm_analysis_port           -     @3802
        ap_aw              uvm_analysis_port           -     @3772
        ap_b               uvm_analysis_port           -     @3792
        ap_r               uvm_analysis_port           -     @3812
        ap_w               uvm_analysis_port           -     @3782
    vsqr                   axi_virtual_sequencer       -     @438 
      rsp_export           uvm_analysis_export         -     @447 
      seq_item_export      uvm_seq_item_pull_imp       -     @565 
      arbitration_queue    array                       0     -    
      lock_queue           array                       0     -    
      num_last_reqs        integral                    32    'd1  
      num_last_rsps        integral                    32    'd1  
------------------------------------------------------------------

UVM_INFO /home/synopsys/vcs/O-2018.09-SP2/etc/uvm-1.2/base/uvm_traversal.svh(279) @ 0: reporter [UVM/COMP/NAMECHECK] This implementation of the component name checks requires DPI to be enabled
[TRACE_XBAR_B] 105000 M side m=0 m_bvalid=0 m_bready=1
[TRACE_XBAR_B] 115000 M side m=0 m_bvalid=0 m_bready=1
[TRACE_XBAR_B] 125000 M side m=0 m_bvalid=0 m_bready=1
[TRACE_XBAR_B] 135000 M side m=0 m_bvalid=0 m_bready=1
[TRACE_XBAR_B] 145000 M side m=0 m_bvalid=0 m_bready=1
[TRACE_XBAR_B] 155000 M side m=0 m_bvalid=0 m_bready=1
[TRACE_XBAR_B] 165000 M side m=0 m_bvalid=0 m_bready=1
[TRACE_XBAR_B] 175000 M side m=0 m_bvalid=0 m_bready=1
[TRACE_XBAR_B] 185000 M side m=0 m_bvalid=0 m_bready=1
[TRACE_XBAR_B] 195000 M side m=0 m_bvalid=0 m_bready=1
UVM_INFO ./uvm/axi_driver.sv(220) @ 195000: uvm_test_top.env.mst_ag0.drv_m0 [TRACE] M[0] DRV AR start addr=0x00003b98 len=0 id=15
[TRACE_XBAR_B] 205000 M side m=0 m_bvalid=0 m_bready=1
[TRACE_XBAR_B] 215000 M side m=0 m_bvalid=0 m_bready=1
[TRACE] 215000 AR pre-FIFO vld m=0 vld=1 rdy=1
[TRACE] 215000 AR pre-FIFO out m=0 addr=0x00003b98
[TRACE] 215000 AR pre-FIFO m=0 addr=0x00003b98 len=0
UVM_INFO ./uvm/axi_slave_agent.sv(171) @ 225000: uvm_test_top.env.slv_ag1 [TRACE] S[1] SLV AR handshake id=15 addr=0x00003b98 len=0
[TRACE_XBAR_B] 225000 M side m=0 m_bvalid=0 m_bready=1
[TRACE] 225000 AR at slave s=1 addr=0x00003b98
[TRACE] 225000 AR pre-FIFO vld m=0 vld=0 rdy=0
[TRACE] 225000 AR at slave s=1 addr=0x00003b98 len=0
UVM_INFO ./uvm/axi_slave_agent.sv(204) @ 225000: uvm_test_top.env.slv_ag1 [TRACE] S[1] SLV R MISS at addr=0x00003b98
[TRACE_XBAR_B] 235000 M side m=0 m_bvalid=0 m_bready=1
[TRACE] 235000 R  from slave s=1
[TRACE_XBAR_B] 245000 M side m=0 m_bvalid=0 m_bready=1
[TRACE] 245000 R  to master m=0
[TRACE_XBAR_B] 255000 M side m=0 m_bvalid=0 m_bready=1
UVM_INFO ./uvm/axi_driver.sv(126) @ 255000: uvm_test_top.env.mst_ag0.drv_m0 [TRACE] M[0] DRV AW start addr=0x00005f7c id=5
[TRACE_XBAR_B] 265000 M side m=0 m_bvalid=0 m_bready=1
[TRACE_W_FIFO] 265000 W_FIFO_WR m=0 last=0 data=0x51163b7d
[TRACE_XBAR_B] 275000 M side m=0 m_bvalid=0 m_bready=1
[TRACE] 275000 AW pre-FIFO m=0 addr=0x00005f7c len=5
[TRACE_W] 275000 W pre-FIFO HS m=0 last=0 data=0x51163b7d strb=0xf
[TRACE_W_FIFO] 275000 W_FIFO_WR m=0 last=0 data=0xb0cc6c78
[TRACE_W_FIFO] 275000 W_FIFO_RD m=0 last=0 data=0x51163b7d
[TRACE_W_XBAR] 275000 W_XBAR_M m=0 last=0 data=0x00000001
UVM_INFO ./uvm/axi_slave_agent.sv(84) @ 285000: uvm_test_top.env.slv_ag2 [TRACE] S[2] SLV AW handshake id=5 addr=0x00005f7c len=5
[TRACE_XBAR_B] 285000 M side m=0 m_bvalid=0 m_bready=1
[TRACE_W] 285000 W pre-FIFO HS m=0 last=0 data=0xb0cc6c78 strb=0xf
[TRACE] 285000 AW at slave s=2 addr=0x00005f7c len=5
[TRACE_W_FIFO] 285000 W_FIFO_WR m=0 last=0 data=0x792b13d6
[TRACE_W_FIFO] 285000 W_FIFO_RD m=0 last=0 data=0xb0cc6c78
[TRACE_W_XBAR] 285000 W_XBAR_M m=0 last=0 data=0x00000000
[TRACE_W_XBAR] 285000 W_XBAR_S s=2 last=0 data=0x00000000
UVM_INFO ./uvm/axi_slave_agent.sv(112) @ 295000: uvm_test_top.env.slv_ag2 [TRACE] S[2] SLV W beat 0 data=0x51163b7d last=0
[TRACE_XBAR_B] 295000 M side m=0 m_bvalid=0 m_bready=1
[TRACE_W] 295000 W pre-FIFO HS m=0 last=0 data=0x792b13d6 strb=0xf
[TRACE_W] 295000 W slave HS s=2 last=0 data=0x51163b7d
[TRACE_W_FIFO] 295000 W_FIFO_WR m=0 last=0 data=0x6ced6d7d
[TRACE_W_FIFO] 295000 W_FIFO_RD m=0 last=0 data=0x792b13d6
[TRACE_W_XBAR] 295000 W_XBAR_M m=0 last=0 data=0x00000000
[TRACE_W_XBAR] 295000 W_XBAR_S s=2 last=0 data=0x00000000
UVM_INFO ./uvm/axi_slave_agent.sv(112) @ 305000: uvm_test_top.env.slv_ag2 [TRACE] S[2] SLV W beat 1 data=0xb0cc6c78 last=0
[TRACE_XBAR_B] 305000 M side m=0 m_bvalid=0 m_bready=1
[TRACE_W] 305000 W pre-FIFO HS m=0 last=0 data=0x6ced6d7d strb=0xf
[TRACE_W] 305000 W slave HS s=2 last=0 data=0xb0cc6c78
[TRACE_W_FIFO] 305000 W_FIFO_WR m=0 last=0 data=0xb0306c9a
[TRACE_W_FIFO] 305000 W_FIFO_RD m=0 last=0 data=0x6ced6d7d
[TRACE_W_XBAR] 305000 W_XBAR_M m=0 last=0 data=0x00000001
[TRACE_W_XBAR] 305000 W_XBAR_S s=2 last=0 data=0x00000000
UVM_INFO ./uvm/axi_slave_agent.sv(112) @ 315000: uvm_test_top.env.slv_ag2 [TRACE] S[2] SLV W beat 2 data=0x792b13d6 last=0
[TRACE_XBAR_B] 315000 M side m=0 m_bvalid=0 m_bready=1
[TRACE_W] 315000 W pre-FIFO HS m=0 last=0 data=0xb0306c9a strb=0xf
[TRACE_W] 315000 W slave HS s=2 last=0 data=0x792b13d6
[TRACE_W_FIFO] 315000 W_FIFO_WR m=0 last=1 data=0x9c5e2173
[TRACE_W_FIFO] 315000 W_FIFO_RD m=0 last=0 data=0xb0306c9a
[TRACE_W_XBAR] 315000 W_XBAR_M m=0 last=0 data=0x00000000
[TRACE_W_XBAR] 315000 W_XBAR_S s=2 last=0 data=0x00000000
UVM_INFO ./uvm/axi_slave_agent.sv(112) @ 325000: uvm_test_top.env.slv_ag2 [TRACE] S[2] SLV W beat 3 data=0x6ced6d7d last=0
[TRACE_XBAR_B] 325000 M side m=0 m_bvalid=0 m_bready=1
[TRACE_W] 325000 W pre-FIFO HS m=0 last=1 data=0x9c5e2173 strb=0xf
[TRACE_W] 325000 W slave HS s=2 last=0 data=0x6ced6d7d
[TRACE_W_FIFO] 325000 W_FIFO_RD m=0 last=1 data=0x9c5e2173
[TRACE_W_XBAR] 325000 W_XBAR_M m=0 last=1 data=0x00000001
[TRACE_W_XBAR] 325000 W_XBAR_S s=2 last=0 data=0x00000000
UVM_INFO ./uvm/axi_slave_agent.sv(112) @ 335000: uvm_test_top.env.slv_ag2 [TRACE] S[2] SLV W beat 4 data=0xb0306c9a last=0
[TRACE_XBAR_B] 335000 M side m=0 m_bvalid=0 m_bready=1
[TRACE_W] 335000 W slave HS s=2 last=0 data=0xb0306c9a
[TRACE_W_XBAR] 335000 W_XBAR_S s=2 last=1 data=0x00000000
UVM_INFO ./uvm/axi_slave_agent.sv(112) @ 345000: uvm_test_top.env.slv_ag2 [TRACE] S[2] SLV W beat 5 data=0x9c5e2173 last=1
[TRACE_XBAR_B] 345000 M side m=0 m_bvalid=0 m_bready=1
[TRACE_W] 345000 W slave HS s=2 last=1 data=0x9c5e2173
[TRACE_XBAR_B] 355000 M side m=0 m_bvalid=0 m_bready=1
[TRACE] 355000 B  from slave s=2
[TRACE_XBAR_B] 365000 M side m=0 m_bvalid=1 m_bready=1
[TRACE] 365000 B post-FIFO out m=0 id=0x05
[TRACE] 365000 B  to master m=0
[375000] M[0] DRV B Handshake! BID=5 b_pending_size=1
UVM_INFO ./uvm/axi_driver.sv(190) @ 375000: uvm_test_top.env.mst_ag0.drv_m0 [TRACE] M[0] DRV B resp=0 id=5
[TRACE] 375000 B merge in m=0 id=0x05 resp=00
[TRACE] 375000 B merge out m=0 id=0x05 resp=00
[TRACE_XBAR_B] 375000 M side m=0 m_bvalid=0 m_bready=1
UVM_INFO ./uvm/axi_driver.sv(220) @ 375000: uvm_test_top.env.mst_ag0.drv_m0 [TRACE] M[0] DRV AR start addr=0x000027d4 len=1 id=8
[TRACE_XBAR_B] 385000 M side m=0 m_bvalid=0 m_bready=1
[TRACE_XBAR_B] 395000 M side m=0 m_bvalid=0 m_bready=1
[TRACE] 395000 AR pre-FIFO vld m=0 vld=1 rdy=1
[TRACE] 395000 AR pre-FIFO out m=0 addr=0x000027d4
[TRACE] 395000 AR pre-FIFO m=0 addr=0x000027d4 len=1
UVM_INFO ./uvm/axi_slave_agent.sv(171) @ 405000: uvm_test_top.env.slv_ag1 [TRACE] S[1] SLV AR handshake id=8 addr=0x000027d4 len=1
[TRACE_XBAR_B] 405000 M side m=0 m_bvalid=0 m_bready=1
[TRACE] 405000 AR at slave s=1 addr=0x000027d4
[TRACE] 405000 AR pre-FIFO vld m=0 vld=0 rdy=0
[TRACE] 405000 AR at slave s=1 addr=0x000027d4 len=1
UVM_INFO ./uvm/axi_slave_agent.sv(204) @ 405000: uvm_test_top.env.slv_ag1 [TRACE] S[1] SLV R MISS at addr=0x000027d4
UVM_INFO ./uvm/axi_slave_agent.sv(204) @ 415000: uvm_test_top.env.slv_ag1 [TRACE] S[1] SLV R MISS at addr=0x000027d8
[TRACE_XBAR_B] 415000 M side m=0 m_bvalid=0 m_bready=1
[TRACE] 415000 R  from slave s=1
[TRACE_XBAR_B] 425000 M side m=0 m_bvalid=0 m_bready=1
[TRACE] 425000 R  to master m=0
[TRACE] 425000 R  from slave s=1
[TRACE_XBAR_B] 435000 M side m=0 m_bvalid=0 m_bready=1
[TRACE] 435000 R  to master m=0
[TRACE_XBAR_B] 445000 M side m=0 m_bvalid=0 m_bready=1
UVM_INFO ./uvm/axi_driver.sv(126) @ 445000: uvm_test_top.env.mst_ag0.drv_m0 [TRACE] M[0] DRV AW start addr=0x00006af0 id=0
[TRACE_XBAR_B] 455000 M side m=0 m_bvalid=0 m_bready=1
[TRACE_W_FIFO] 455000 W_FIFO_WR m=0 last=0 data=0x1cb666f3
[TRACE_XBAR_B] 465000 M side m=0 m_bvalid=0 m_bready=1
[TRACE] 465000 AW pre-FIFO m=0 addr=0x00006af0 len=9
[TRACE_W] 465000 W pre-FIFO HS m=0 last=0 data=0x1cb666f3 strb=0xf
[TRACE_W_FIFO] 465000 W_FIFO_WR m=0 last=0 data=0xe6e585d9
[TRACE_W_FIFO] 465000 W_FIFO_RD m=0 last=0 data=0x1cb666f3
[TRACE_W_XBAR] 465000 W_XBAR_M m=0 last=0 data=0x00000001
UVM_INFO ./uvm/axi_slave_agent.sv(84) @ 475000: uvm_test_top.env.slv_ag3 [TRACE] S[3] SLV AW handshake id=0 addr=0x00006af0 len=9
[TRACE_XBAR_B] 475000 M side m=0 m_bvalid=0 m_bready=1
[TRACE_W] 475000 W pre-FIFO HS m=0 last=0 data=0xe6e585d9 strb=0xf
[TRACE] 475000 AW at slave s=3 addr=0x00006af0 len=9
[TRACE_W_FIFO] 475000 W_FIFO_WR m=0 last=0 data=0xb6a45bf4
[TRACE_W_FIFO] 475000 W_FIFO_RD m=0 last=0 data=0xe6e585d9
[TRACE_W_XBAR] 475000 W_XBAR_M m=0 last=0 data=0x00000001
[TRACE_W_XBAR] 475000 W_XBAR_S s=3 last=0 data=0x00000000
UVM_INFO ./uvm/axi_slave_agent.sv(112) @ 485000: uvm_test_top.env.slv_ag3 [TRACE] S[3] SLV W beat 0 data=0x1cb666f3 last=0
[TRACE_XBAR_B] 485000 M side m=0 m_bvalid=0 m_bready=1
[TRACE_W] 485000 W pre-FIFO HS m=0 last=0 data=0xb6a45bf4 strb=0xf
[TRACE_W] 485000 W slave HS s=3 last=0 data=0x1cb666f3
[TRACE_W_FIFO] 485000 W_FIFO_WR m=0 last=0 data=0x7559a2ad
[TRACE_W_FIFO] 485000 W_FIFO_RD m=0 last=0 data=0xb6a45bf4
[TRACE_W_XBAR] 485000 W_XBAR_M m=0 last=0 data=0x00000000
[TRACE_W_XBAR] 485000 W_XBAR_S s=3 last=0 data=0x00000000
UVM_INFO ./uvm/axi_slave_agent.sv(112) @ 495000: uvm_test_top.env.slv_ag3 [TRACE] S[3] SLV W beat 1 data=0xe6e585d9 last=0
[TRACE_XBAR_B] 495000 M side m=0 m_bvalid=0 m_bready=1
[TRACE_W] 495000 W pre-FIFO HS m=0 last=0 data=0x7559a2ad strb=0xf
[TRACE_W] 495000 W slave HS s=3 last=0 data=0xe6e585d9
[TRACE_W_FIFO] 495000 W_FIFO_WR m=0 last=0 data=0xa400c2da
[TRACE_W_FIFO] 495000 W_FIFO_RD m=0 last=0 data=0x7559a2ad
[TRACE_W_XBAR] 495000 W_XBAR_M m=0 last=0 data=0x00000001
[TRACE_W_XBAR] 495000 W_XBAR_S s=3 last=0 data=0x00000000
UVM_INFO ./uvm/axi_slave_agent.sv(112) @ 505000: uvm_test_top.env.slv_ag3 [TRACE] S[3] SLV W beat 2 data=0xb6a45bf4 last=0
[TRACE_XBAR_B] 505000 M side m=0 m_bvalid=0 m_bready=1
[TRACE_W] 505000 W pre-FIFO HS m=0 last=0 data=0xa400c2da strb=0xf
[TRACE_W] 505000 W slave HS s=3 last=0 data=0xb6a45bf4
[TRACE_W_FIFO] 505000 W_FIFO_WR m=0 last=0 data=0xc51aa3be
[TRACE_W_FIFO] 505000 W_FIFO_RD m=0 last=0 data=0xa400c2da
[TRACE_W_XBAR] 505000 W_XBAR_M m=0 last=0 data=0x00000000
[TRACE_W_XBAR] 505000 W_XBAR_S s=3 last=0 data=0x00000000
UVM_INFO ./uvm/axi_slave_agent.sv(112) @ 515000: uvm_test_top.env.slv_ag3 [TRACE] S[3] SLV W beat 3 data=0x7559a2ad last=0
[TRACE_XBAR_B] 515000 M side m=0 m_bvalid=0 m_bready=1
[TRACE_W] 515000 W pre-FIFO HS m=0 last=0 data=0xc51aa3be strb=0xf
[TRACE_W] 515000 W slave HS s=3 last=0 data=0x7559a2ad
[TRACE_W_FIFO] 515000 W_FIFO_WR m=0 last=0 data=0xa145a703
[TRACE_W_FIFO] 515000 W_FIFO_RD m=0 last=0 data=0xc51aa3be
[TRACE_W_XBAR] 515000 W_XBAR_M m=0 last=0 data=0x00000000
[TRACE_W_XBAR] 515000 W_XBAR_S s=3 last=0 data=0x00000000
UVM_INFO ./uvm/axi_slave_agent.sv(112) @ 525000: uvm_test_top.env.slv_ag3 [TRACE] S[3] SLV W beat 4 data=0xa400c2da last=0
[TRACE_XBAR_B] 525000 M side m=0 m_bvalid=0 m_bready=1
[TRACE_W] 525000 W pre-FIFO HS m=0 last=0 data=0xa145a703 strb=0xf
[TRACE_W] 525000 W slave HS s=3 last=0 data=0xa400c2da
[TRACE_W_FIFO] 525000 W_FIFO_WR m=0 last=0 data=0x249f98bd
[TRACE_W_FIFO] 525000 W_FIFO_RD m=0 last=0 data=0xa145a703
[TRACE_W_XBAR] 525000 W_XBAR_M m=0 last=0 data=0x00000001
[TRACE_W_XBAR] 525000 W_XBAR_S s=3 last=0 data=0x00000000
UVM_INFO ./uvm/axi_slave_agent.sv(112) @ 535000: uvm_test_top.env.slv_ag3 [TRACE] S[3] SLV W beat 5 data=0xc51aa3be last=0
[TRACE_XBAR_B] 535000 M side m=0 m_bvalid=0 m_bready=1
[TRACE_W] 535000 W pre-FIFO HS m=0 last=0 data=0x249f98bd strb=0xf
[TRACE_W] 535000 W slave HS s=3 last=0 data=0xc51aa3be
[TRACE_W_FIFO] 535000 W_FIFO_WR m=0 last=0 data=0x09018eb2
[TRACE_W_FIFO] 535000 W_FIFO_RD m=0 last=0 data=0x249f98bd
[TRACE_W_XBAR] 535000 W_XBAR_M m=0 last=0 data=0x00000001
[TRACE_W_XBAR] 535000 W_XBAR_S s=3 last=0 data=0x00000000
UVM_INFO ./uvm/axi_slave_agent.sv(112) @ 545000: uvm_test_top.env.slv_ag3 [TRACE] S[3] SLV W beat 6 data=0xa145a703 last=0
[TRACE_XBAR_B] 545000 M side m=0 m_bvalid=0 m_bready=1
[TRACE_W] 545000 W pre-FIFO HS m=0 last=0 data=0x09018eb2 strb=0xf
[TRACE_W] 545000 W slave HS s=3 last=0 data=0xa145a703
[TRACE_W_FIFO] 545000 W_FIFO_WR m=0 last=1 data=0x4493a17d
[TRACE_W_FIFO] 545000 W_FIFO_RD m=0 last=0 data=0x09018eb2
[TRACE_W_XBAR] 545000 W_XBAR_M m=0 last=0 data=0x00000000
[TRACE_W_XBAR] 545000 W_XBAR_S s=3 last=0 data=0x00000000
UVM_INFO ./uvm/axi_slave_agent.sv(112) @ 555000: uvm_test_top.env.slv_ag3 [TRACE] S[3] SLV W beat 7 data=0x249f98bd last=0
[TRACE_XBAR_B] 555000 M side m=0 m_bvalid=0 m_bready=1
[TRACE_W] 555000 W pre-FIFO HS m=0 last=1 data=0x4493a17d strb=0xf
[TRACE_W] 555000 W slave HS s=3 last=0 data=0x249f98bd
[TRACE_W_FIFO] 555000 W_FIFO_RD m=0 last=1 data=0x4493a17d
[TRACE_W_XBAR] 555000 W_XBAR_M m=0 last=1 data=0x00000001
[TRACE_W_XBAR] 555000 W_XBAR_S s=3 last=0 data=0x00000000
UVM_INFO ./uvm/axi_slave_agent.sv(112) @ 565000: uvm_test_top.env.slv_ag3 [TRACE] S[3] SLV W beat 8 data=0x09018eb2 last=0
[TRACE_XBAR_B] 565000 M side m=0 m_bvalid=0 m_bready=1
[TRACE_W] 565000 W slave HS s=3 last=0 data=0x09018eb2
[TRACE_W_XBAR] 565000 W_XBAR_S s=3 last=1 data=0x00000000
UVM_INFO ./uvm/axi_slave_agent.sv(112) @ 575000: uvm_test_top.env.slv_ag3 [TRACE] S[3] SLV W beat 9 data=0x4493a17d last=1
[TRACE_XBAR_B] 575000 M side m=0 m_bvalid=0 m_bready=1
[TRACE_W] 575000 W slave HS s=3 last=1 data=0x4493a17d
[TRACE_XBAR_B] 585000 M side m=0 m_bvalid=0 m_bready=1
[TRACE] 585000 B  from slave s=3
[TRACE_XBAR_B] 595000 M side m=0 m_bvalid=1 m_bready=1
[TRACE] 595000 B post-FIFO out m=0 id=0x00
[TRACE] 595000 B  to master m=0
[605000] M[0] DRV B Handshake! BID=0 b_pending_size=1
UVM_INFO ./uvm/axi_driver.sv(190) @ 605000: uvm_test_top.env.mst_ag0.drv_m0 [TRACE] M[0] DRV B resp=0 id=0
[TRACE] 605000 B merge in m=0 id=0x00 resp=00
[TRACE] 605000 B merge out m=0 id=0x00 resp=00
[TRACE_XBAR_B] 605000 M side m=0 m_bvalid=0 m_bready=1
UVM_INFO ./uvm/axi_driver.sv(220) @ 605000: uvm_test_top.env.mst_ag0.drv_m0 [TRACE] M[0] DRV AR start addr=0x00004590 len=1 id=8
[TRACE_XBAR_B] 615000 M side m=0 m_bvalid=0 m_bready=1
[TRACE_XBAR_B] 625000 M side m=0 m_bvalid=0 m_bready=1
[TRACE] 625000 AR pre-FIFO vld m=0 vld=1 rdy=1
[TRACE] 625000 AR pre-FIFO out m=0 addr=0x00004590
[TRACE] 625000 AR pre-FIFO m=0 addr=0x00004590 len=1
UVM_INFO ./uvm/axi_slave_agent.sv(171) @ 635000: uvm_test_top.env.slv_ag2 [TRACE] S[2] SLV AR handshake id=8 addr=0x00004590 len=1
[TRACE_XBAR_B] 635000 M side m=0 m_bvalid=0 m_bready=1
[TRACE] 635000 AR at slave s=2 addr=0x00004590
[TRACE] 635000 AR pre-FIFO vld m=0 vld=0 rdy=0
[TRACE] 635000 AR at slave s=2 addr=0x00004590 len=1
UVM_INFO ./uvm/axi_slave_agent.sv(204) @ 635000: uvm_test_top.env.slv_ag2 [TRACE] S[2] SLV R MISS at addr=0x00004590
UVM_INFO ./uvm/axi_slave_agent.sv(204) @ 645000: uvm_test_top.env.slv_ag2 [TRACE] S[2] SLV R MISS at addr=0x00004594
[TRACE_XBAR_B] 645000 M side m=0 m_bvalid=0 m_bready=1
[TRACE] 645000 R  from slave s=2
[TRACE_XBAR_B] 655000 M side m=0 m_bvalid=0 m_bready=1
[TRACE] 655000 R  to master m=0
[TRACE] 655000 R  from slave s=2
[TRACE_XBAR_B] 665000 M side m=0 m_bvalid=0 m_bready=1
[TRACE] 665000 R  to master m=0
[TRACE_XBAR_B] 675000 M side m=0 m_bvalid=0 m_bready=1
UVM_INFO ./uvm/axi_driver.sv(126) @ 675000: uvm_test_top.env.mst_ag0.drv_m0 [TRACE] M[0] DRV AW start addr=0x0000305c id=9
[TRACE_XBAR_B] 685000 M side m=0 m_bvalid=0 m_bready=1
[TRACE_W_FIFO] 685000 W_FIFO_WR m=0 last=0 data=0x06f31863
[TRACE_XBAR_B] 695000 M side m=0 m_bvalid=0 m_bready=1
[TRACE] 695000 AW pre-FIFO m=0 addr=0x0000305c len=10
[TRACE_W] 695000 W pre-FIFO HS m=0 last=0 data=0x06f31863 strb=0xf
[TRACE_W_FIFO] 695000 W_FIFO_WR m=0 last=0 data=0x82f9e21d
[TRACE_W_FIFO] 695000 W_FIFO_RD m=0 last=0 data=0x06f31863
[TRACE_W_XBAR] 695000 W_XBAR_M m=0 last=0 data=0x00000001
UVM_INFO ./uvm/axi_slave_agent.sv(84) @ 705000: uvm_test_top.env.slv_ag1 [TRACE] S[1] SLV AW handshake id=9 addr=0x0000305c len=10
[TRACE_XBAR_B] 705000 M side m=0 m_bvalid=0 m_bready=1
[TRACE_W] 705000 W pre-FIFO HS m=0 last=0 data=0x82f9e21d strb=0xf
[TRACE] 705000 AW at slave s=1 addr=0x0000305c len=10
[TRACE_W_FIFO] 705000 W_FIFO_WR m=0 last=0 data=0x3f50e7bc
[TRACE_W_FIFO] 705000 W_FIFO_RD m=0 last=0 data=0x82f9e21d
[TRACE_W_XBAR] 705000 W_XBAR_M m=0 last=0 data=0x00000001
[TRACE_W_XBAR] 705000 W_XBAR_S s=1 last=0 data=0x00000000
UVM_INFO ./uvm/axi_slave_agent.sv(112) @ 715000: uvm_test_top.env.slv_ag1 [TRACE] S[1] SLV W beat 0 data=0x06f31863 last=0
[TRACE_XBAR_B] 715000 M side m=0 m_bvalid=0 m_bready=1
[TRACE_W] 715000 W pre-FIFO HS m=0 last=0 data=0x3f50e7bc strb=0xf
[TRACE_W] 715000 W slave HS s=1 last=0 data=0x06f31863
[TRACE_W_FIFO] 715000 W_FIFO_WR m=0 last=0 data=0xbd2cfb40
[TRACE_W_FIFO] 715000 W_FIFO_RD m=0 last=0 data=0x3f50e7bc
[TRACE_W_XBAR] 715000 W_XBAR_M m=0 last=0 data=0x00000000
[TRACE_W_XBAR] 715000 W_XBAR_S s=1 last=0 data=0x00000000
UVM_INFO ./uvm/axi_slave_agent.sv(112) @ 725000: uvm_test_top.env.slv_ag1 [TRACE] S[1] SLV W beat 1 data=0x82f9e21d last=0
[TRACE_XBAR_B] 725000 M side m=0 m_bvalid=0 m_bready=1
[TRACE_W] 725000 W pre-FIFO HS m=0 last=0 data=0xbd2cfb40 strb=0xf
[TRACE_W] 725000 W slave HS s=1 last=0 data=0x82f9e21d
[TRACE_W_FIFO] 725000 W_FIFO_WR m=0 last=0 data=0x4177aee6
[TRACE_W_FIFO] 725000 W_FIFO_RD m=0 last=0 data=0xbd2cfb40
[TRACE_W_XBAR] 725000 W_XBAR_M m=0 last=0 data=0x00000000
[TRACE_W_XBAR] 725000 W_XBAR_S s=1 last=0 data=0x00000000
UVM_INFO ./uvm/axi_slave_agent.sv(112) @ 735000: uvm_test_top.env.slv_ag1 [TRACE] S[1] SLV W beat 2 data=0x3f50e7bc last=0
[TRACE_XBAR_B] 735000 M side m=0 m_bvalid=0 m_bready=1
[TRACE_W] 735000 W pre-FIFO HS m=0 last=0 data=0x4177aee6 strb=0xf
[TRACE_W] 735000 W slave HS s=1 last=0 data=0x3f50e7bc
[TRACE_W_FIFO] 735000 W_FIFO_WR m=0 last=0 data=0x0f78252c
[TRACE_W_FIFO] 735000 W_FIFO_RD m=0 last=0 data=0x4177aee6
[TRACE_W_XBAR] 735000 W_XBAR_M m=0 last=0 data=0x00000000
[TRACE_W_XBAR] 735000 W_XBAR_S s=1 last=0 data=0x00000000
UVM_INFO ./uvm/axi_slave_agent.sv(112) @ 745000: uvm_test_top.env.slv_ag1 [TRACE] S[1] SLV W beat 3 data=0xbd2cfb40 last=0
[TRACE_XBAR_B] 745000 M side m=0 m_bvalid=0 m_bready=1
[TRACE_W] 745000 W pre-FIFO HS m=0 last=0 data=0x0f78252c strb=0xf
[TRACE_W] 745000 W slave HS s=1 last=0 data=0xbd2cfb40
[TRACE_W_FIFO] 745000 W_FIFO_WR m=0 last=0 data=0x569cae34
[TRACE_W_FIFO] 745000 W_FIFO_RD m=0 last=0 data=0x0f78252c
[TRACE_W_XBAR] 745000 W_XBAR_M m=0 last=0 data=0x00000000
[TRACE_W_XBAR] 745000 W_XBAR_S s=1 last=0 data=0x00000000
UVM_INFO ./uvm/axi_slave_agent.sv(112) @ 755000: uvm_test_top.env.slv_ag1 [TRACE] S[1] SLV W beat 4 data=0x4177aee6 last=0
[TRACE_XBAR_B] 755000 M side m=0 m_bvalid=0 m_bready=1
[TRACE_W] 755000 W pre-FIFO HS m=0 last=0 data=0x569cae34 strb=0xf
[TRACE_W] 755000 W slave HS s=1 last=0 data=0x4177aee6
[TRACE_W_FIFO] 755000 W_FIFO_WR m=0 last=0 data=0xb4b94f98
[TRACE_W_FIFO] 755000 W_FIFO_RD m=0 last=0 data=0x569cae34
[TRACE_W_XBAR] 755000 W_XBAR_M m=0 last=0 data=0x00000000
[TRACE_W_XBAR] 755000 W_XBAR_S s=1 last=0 data=0x00000000
UVM_INFO ./uvm/axi_slave_agent.sv(112) @ 765000: uvm_test_top.env.slv_ag1 [TRACE] S[1] SLV W beat 5 data=0x0f78252c last=0
[TRACE_XBAR_B] 765000 M side m=0 m_bvalid=0 m_bready=1
[TRACE_W] 765000 W pre-FIFO HS m=0 last=0 data=0xb4b94f98 strb=0xf
[TRACE_W] 765000 W slave HS s=1 last=0 data=0x0f78252c
[TRACE_W_FIFO] 765000 W_FIFO_WR m=0 last=0 data=0x4ecd35e3
[TRACE_W_FIFO] 765000 W_FIFO_RD m=0 last=0 data=0xb4b94f98
[TRACE_W_XBAR] 765000 W_XBAR_M m=0 last=0 data=0x00000000
[TRACE_W_XBAR] 765000 W_XBAR_S s=1 last=0 data=0x00000000
UVM_INFO ./uvm/axi_slave_agent.sv(112) @ 775000: uvm_test_top.env.slv_ag1 [TRACE] S[1] SLV W beat 6 data=0x569cae34 last=0
[TRACE_XBAR_B] 775000 M side m=0 m_bvalid=0 m_bready=1
[TRACE_W] 775000 W pre-FIFO HS m=0 last=0 data=0x4ecd35e3 strb=0xf
[TRACE_W] 775000 W slave HS s=1 last=0 data=0x569cae34
[TRACE_W_FIFO] 775000 W_FIFO_WR m=0 last=0 data=0xa72d1da1
[TRACE_W_FIFO] 775000 W_FIFO_RD m=0 last=0 data=0x4ecd35e3
[TRACE_W_XBAR] 775000 W_XBAR_M m=0 last=0 data=0x00000001
[TRACE_W_XBAR] 775000 W_XBAR_S s=1 last=0 data=0x00000000
UVM_INFO ./uvm/axi_slave_agent.sv(112) @ 785000: uvm_test_top.env.slv_ag1 [TRACE] S[1] SLV W beat 7 data=0xb4b94f98 last=0
[TRACE_XBAR_B] 785000 M side m=0 m_bvalid=0 m_bready=1
[TRACE_W] 785000 W pre-FIFO HS m=0 last=0 data=0xa72d1da1 strb=0xf
[TRACE_W] 785000 W slave HS s=1 last=0 data=0xb4b94f98
[TRACE_W_FIFO] 785000 W_FIFO_WR m=0 last=1 data=0x5a050b7d
[TRACE_W_FIFO] 785000 W_FIFO_RD m=0 last=0 data=0xa72d1da1
[TRACE_W_XBAR] 785000 W_XBAR_M m=0 last=0 data=0x00000001
[TRACE_W_XBAR] 785000 W_XBAR_S s=1 last=0 data=0x00000000
UVM_INFO ./uvm/axi_slave_agent.sv(112) @ 795000: uvm_test_top.env.slv_ag1 [TRACE] S[1] SLV W beat 8 data=0x4ecd35e3 last=0
[TRACE_XBAR_B] 795000 M side m=0 m_bvalid=0 m_bready=1
[TRACE_W] 795000 W pre-FIFO HS m=0 last=1 data=0x5a050b7d strb=0xf
[TRACE_W] 795000 W slave HS s=1 last=0 data=0x4ecd35e3
[TRACE_W_FIFO] 795000 W_FIFO_RD m=0 last=1 data=0x5a050b7d
[TRACE_W_XBAR] 795000 W_XBAR_M m=0 last=1 data=0x00000001
[TRACE_W_XBAR] 795000 W_XBAR_S s=1 last=0 data=0x00000000
UVM_INFO ./uvm/axi_slave_agent.sv(112) @ 805000: uvm_test_top.env.slv_ag1 [TRACE] S[1] SLV W beat 9 data=0xa72d1da1 last=0
[TRACE_XBAR_B] 805000 M side m=0 m_bvalid=0 m_bready=1
[TRACE_W] 805000 W slave HS s=1 last=0 data=0xa72d1da1
[TRACE_W_XBAR] 805000 W_XBAR_S s=1 last=1 data=0x00000000
UVM_INFO ./uvm/axi_slave_agent.sv(112) @ 815000: uvm_test_top.env.slv_ag1 [TRACE] S[1] SLV W beat 10 data=0x5a050b7d last=1
[TRACE_XBAR_B] 815000 M side m=0 m_bvalid=0 m_bready=1
[TRACE_W] 815000 W slave HS s=1 last=1 data=0x5a050b7d
[TRACE_XBAR_B] 825000 M side m=0 m_bvalid=0 m_bready=1
[TRACE] 825000 B  from slave s=1
[TRACE_XBAR_B] 835000 M side m=0 m_bvalid=1 m_bready=1
[TRACE] 835000 B post-FIFO out m=0 id=0x09
[TRACE] 835000 B  to master m=0
[845000] M[0] DRV B Handshake! BID=9 b_pending_size=1
UVM_INFO ./uvm/axi_driver.sv(190) @ 845000: uvm_test_top.env.mst_ag0.drv_m0 [TRACE] M[0] DRV B resp=0 id=9
[TRACE] 845000 B merge in m=0 id=0x09 resp=00
[TRACE] 845000 B merge out m=0 id=0x09 resp=00
[TRACE_XBAR_B] 845000 M side m=0 m_bvalid=0 m_bready=1
UVM_INFO ./uvm/axi_driver.sv(126) @ 845000: uvm_test_top.env.mst_ag0.drv_m0 [TRACE] M[0] DRV AW start addr=0x00003ad8 id=5
[TRACE_XBAR_B] 855000 M side m=0 m_bvalid=0 m_bready=1
[TRACE_W_FIFO] 855000 W_FIFO_WR m=0 last=0 data=0xcd794cf8
[TRACE_XBAR_B] 865000 M side m=0 m_bvalid=0 m_bready=1
[TRACE] 865000 AW pre-FIFO m=0 addr=0x00003ad8 len=12
[TRACE_W] 865000 W pre-FIFO HS m=0 last=0 data=0xcd794cf8 strb=0xf
[TRACE_W_FIFO] 865000 W_FIFO_WR m=0 last=0 data=0xe9e4523b
[TRACE_W_FIFO] 865000 W_FIFO_RD m=0 last=0 data=0xcd794cf8
[TRACE_W_XBAR] 865000 W_XBAR_M m=0 last=0 data=0x00000000
UVM_INFO ./uvm/axi_slave_agent.sv(84) @ 875000: uvm_test_top.env.slv_ag1 [TRACE] S[1] SLV AW handshake id=5 addr=0x00003ad8 len=12
[TRACE_XBAR_B] 875000 M side m=0 m_bvalid=0 m_bready=1
[TRACE_W] 875000 W pre-FIFO HS m=0 last=0 data=0xe9e4523b strb=0xf
[TRACE] 875000 AW at slave s=1 addr=0x00003ad8 len=12
[TRACE_W_FIFO] 875000 W_FIFO_WR m=0 last=0 data=0xe80e794f
[TRACE_W_FIFO] 875000 W_FIFO_RD m=0 last=0 data=0xe9e4523b
[TRACE_W_XBAR] 875000 W_XBAR_M m=0 last=0 data=0x00000001
[TRACE_W_XBAR] 875000 W_XBAR_S s=1 last=0 data=0x00000000
UVM_INFO ./uvm/axi_slave_agent.sv(112) @ 885000: uvm_test_top.env.slv_ag1 [TRACE] S[1] SLV W beat 0 data=0xcd794cf8 last=0
[TRACE_XBAR_B] 885000 M side m=0 m_bvalid=0 m_bready=1
[TRACE_W] 885000 W pre-FIFO HS m=0 last=0 data=0xe80e794f strb=0xf
[TRACE_W] 885000 W slave HS s=1 last=0 data=0xcd794cf8
[TRACE_W_FIFO] 885000 W_FIFO_WR m=0 last=0 data=0x31781844
[TRACE_W_FIFO] 885000 W_FIFO_RD m=0 last=0 data=0xe80e794f
[TRACE_W_XBAR] 885000 W_XBAR_M m=0 last=0 data=0x00000001
[TRACE_W_XBAR] 885000 W_XBAR_S s=1 last=0 data=0x00000000
UVM_INFO ./uvm/axi_slave_agent.sv(112) @ 895000: uvm_test_top.env.slv_ag1 [TRACE] S[1] SLV W beat 1 data=0xe9e4523b last=0
[TRACE_XBAR_B] 895000 M side m=0 m_bvalid=0 m_bready=1
[TRACE_W] 895000 W pre-FIFO HS m=0 last=0 data=0x31781844 strb=0xf
[TRACE_W] 895000 W slave HS s=1 last=0 data=0xe9e4523b
[TRACE_W_FIFO] 895000 W_FIFO_WR m=0 last=0 data=0x2a6e11cb
[TRACE_W_FIFO] 895000 W_FIFO_RD m=0 last=0 data=0x31781844
[TRACE_W_XBAR] 895000 W_XBAR_M m=0 last=0 data=0x00000000
[TRACE_W_XBAR] 895000 W_XBAR_S s=1 last=0 data=0x00000000
UVM_INFO ./uvm/axi_slave_agent.sv(112) @ 905000: uvm_test_top.env.slv_ag1 [TRACE] S[1] SLV W beat 2 data=0xe80e794f last=0
[TRACE_XBAR_B] 905000 M side m=0 m_bvalid=0 m_bready=1
[TRACE_W] 905000 W pre-FIFO HS m=0 last=0 data=0x2a6e11cb strb=0xf
[TRACE_W] 905000 W slave HS s=1 last=0 data=0xe80e794f
[TRACE_W_FIFO] 905000 W_FIFO_WR m=0 last=0 data=0x33646026
[TRACE_W_FIFO] 905000 W_FIFO_RD m=0 last=0 data=0x2a6e11cb
[TRACE_W_XBAR] 905000 W_XBAR_M m=0 last=0 data=0x00000001
[TRACE_W_XBAR] 905000 W_XBAR_S s=1 last=0 data=0x00000000
UVM_INFO ./uvm/axi_slave_agent.sv(112) @ 915000: uvm_test_top.env.slv_ag1 [TRACE] S[1] SLV W beat 3 data=0x31781844 last=0
[TRACE_XBAR_B] 915000 M side m=0 m_bvalid=0 m_bready=1
[TRACE_W] 915000 W pre-FIFO HS m=0 last=0 data=0x33646026 strb=0xf
[TRACE_W] 915000 W slave HS s=1 last=0 data=0x31781844
[TRACE_W_FIFO] 915000 W_FIFO_WR m=0 last=0 data=0x61ce9b72
[TRACE_W_FIFO] 915000 W_FIFO_RD m=0 last=0 data=0x33646026
[TRACE_W_XBAR] 915000 W_XBAR_M m=0 last=0 data=0x00000000
[TRACE_W_XBAR] 915000 W_XBAR_S s=1 last=0 data=0x00000000
UVM_INFO ./uvm/axi_slave_agent.sv(112) @ 925000: uvm_test_top.env.slv_ag1 [TRACE] S[1] SLV W beat 4 data=0x2a6e11cb last=0
[TRACE_XBAR_B] 925000 M side m=0 m_bvalid=0 m_bready=1
[TRACE_W] 925000 W pre-FIFO HS m=0 last=0 data=0x61ce9b72 strb=0xf
[TRACE_W] 925000 W slave HS s=1 last=0 data=0x2a6e11cb
[TRACE_W_FIFO] 925000 W_FIFO_WR m=0 last=0 data=0x19184e4e
[TRACE_W_FIFO] 925000 W_FIFO_RD m=0 last=0 data=0x61ce9b72
[TRACE_W_XBAR] 925000 W_XBAR_M m=0 last=0 data=0x00000000
[TRACE_W_XBAR] 925000 W_XBAR_S s=1 last=0 data=0x00000000
UVM_INFO ./uvm/axi_slave_agent.sv(112) @ 935000: uvm_test_top.env.slv_ag1 [TRACE] S[1] SLV W beat 5 data=0x33646026 last=0
[TRACE_XBAR_B] 935000 M side m=0 m_bvalid=0 m_bready=1
[TRACE_W] 935000 W pre-FIFO HS m=0 last=0 data=0x19184e4e strb=0xf
[TRACE_W] 935000 W slave HS s=1 last=0 data=0x33646026
[TRACE_W_FIFO] 935000 W_FIFO_WR m=0 last=0 data=0x1ccf4672
[TRACE_W_FIFO] 935000 W_FIFO_RD m=0 last=0 data=0x19184e4e
[TRACE_W_XBAR] 935000 W_XBAR_M m=0 last=0 data=0x00000000
[TRACE_W_XBAR] 935000 W_XBAR_S s=1 last=0 data=0x00000000
UVM_INFO ./uvm/axi_slave_agent.sv(112) @ 945000: uvm_test_top.env.slv_ag1 [TRACE] S[1] SLV W beat 6 data=0x61ce9b72 last=0
[TRACE_XBAR_B] 945000 M side m=0 m_bvalid=0 m_bready=1
[TRACE_W] 945000 W pre-FIFO HS m=0 last=0 data=0x1ccf4672 strb=0xf
[TRACE_W] 945000 W slave HS s=1 last=0 data=0x61ce9b72
[TRACE_W_FIFO] 945000 W_FIFO_WR m=0 last=0 data=0xae5d2744
[TRACE_W_FIFO] 945000 W_FIFO_RD m=0 last=0 data=0x1ccf4672
[TRACE_W_XBAR] 945000 W_XBAR_M m=0 last=0 data=0x00000000
[TRACE_W_XBAR] 945000 W_XBAR_S s=1 last=0 data=0x00000000
UVM_INFO ./uvm/axi_slave_agent.sv(112) @ 955000: uvm_test_top.env.slv_ag1 [TRACE] S[1] SLV W beat 7 data=0x19184e4e last=0
[TRACE_XBAR_B] 955000 M side m=0 m_bvalid=0 m_bready=1
[TRACE_W] 955000 W pre-FIFO HS m=0 last=0 data=0xae5d2744 strb=0xf
[TRACE_W] 955000 W slave HS s=1 last=0 data=0x19184e4e
[TRACE_W_FIFO] 955000 W_FIFO_WR m=0 last=0 data=0x7d77c379
[TRACE_W_FIFO] 955000 W_FIFO_RD m=0 last=0 data=0xae5d2744
[TRACE_W_XBAR] 955000 W_XBAR_M m=0 last=0 data=0x00000000
[TRACE_W_XBAR] 955000 W_XBAR_S s=1 last=0 data=0x00000000
UVM_INFO ./uvm/axi_slave_agent.sv(112) @ 965000: uvm_test_top.env.slv_ag1 [TRACE] S[1] SLV W beat 8 data=0x1ccf4672 last=0
[TRACE_XBAR_B] 965000 M side m=0 m_bvalid=0 m_bready=1
[TRACE_W] 965000 W pre-FIFO HS m=0 last=0 data=0x7d77c379 strb=0xf
[TRACE_W] 965000 W slave HS s=1 last=0 data=0x1ccf4672
[TRACE_W_FIFO] 965000 W_FIFO_WR m=0 last=0 data=0xad2280f1
[TRACE_W_FIFO] 965000 W_FIFO_RD m=0 last=0 data=0x7d77c379
[TRACE_W_XBAR] 965000 W_XBAR_M m=0 last=0 data=0x00000001
[TRACE_W_XBAR] 965000 W_XBAR_S s=1 last=0 data=0x00000000
UVM_INFO ./uvm/axi_slave_agent.sv(112) @ 975000: uvm_test_top.env.slv_ag1 [TRACE] S[1] SLV W beat 9 data=0xae5d2744 last=0
[TRACE_XBAR_B] 975000 M side m=0 m_bvalid=0 m_bready=1
[TRACE_W] 975000 W pre-FIFO HS m=0 last=0 data=0xad2280f1 strb=0xf
[TRACE_W] 975000 W slave HS s=1 last=0 data=0xae5d2744
[TRACE_W_FIFO] 975000 W_FIFO_WR m=0 last=1 data=0x569b98ff
[TRACE_W_FIFO] 975000 W_FIFO_RD m=0 last=0 data=0xad2280f1
[TRACE_W_XBAR] 975000 W_XBAR_M m=0 last=0 data=0x00000001
[TRACE_W_XBAR] 975000 W_XBAR_S s=1 last=0 data=0x00000000
UVM_INFO ./uvm/axi_slave_agent.sv(112) @ 985000: uvm_test_top.env.slv_ag1 [TRACE] S[1] SLV W beat 10 data=0x7d77c379 last=0
[TRACE_XBAR_B] 985000 M side m=0 m_bvalid=0 m_bready=1
[TRACE_W] 985000 W pre-FIFO HS m=0 last=1 data=0x569b98ff strb=0xf
[TRACE_W] 985000 W slave HS s=1 last=0 data=0x7d77c379
[TRACE_W_FIFO] 985000 W_FIFO_RD m=0 last=1 data=0x569b98ff
[TRACE_W_XBAR] 985000 W_XBAR_M m=0 last=1 data=0x00000001
[TRACE_W_XBAR] 985000 W_XBAR_S s=1 last=0 data=0x00000000
UVM_INFO ./uvm/axi_slave_agent.sv(112) @ 995000: uvm_test_top.env.slv_ag1 [TRACE] S[1] SLV W beat 11 data=0xad2280f1 last=0
[TRACE_XBAR_B] 995000 M side m=0 m_bvalid=0 m_bready=1
[TRACE_W] 995000 W slave HS s=1 last=0 data=0xad2280f1
[TRACE_W_XBAR] 995000 W_XBAR_S s=1 last=1 data=0x00000000
UVM_INFO ./uvm/axi_slave_agent.sv(112) @ 1005000: uvm_test_top.env.slv_ag1 [TRACE] S[1] SLV W beat 12 data=0x569b98ff last=1
[TRACE_XBAR_B] 1005000 M side m=0 m_bvalid=0 m_bready=1
[TRACE_W] 1005000 W slave HS s=1 last=1 data=0x569b98ff
[TRACE_XBAR_B] 1015000 M side m=0 m_bvalid=0 m_bready=1
[TRACE] 1015000 B  from slave s=1
[TRACE_XBAR_B] 1025000 M side m=0 m_bvalid=1 m_bready=1
[TRACE] 1025000 B post-FIFO out m=0 id=0x05
[TRACE] 1025000 B  to master m=0
[1035000] M[0] DRV B Handshake! BID=5 b_pending_size=1
UVM_INFO ./uvm/axi_driver.sv(190) @ 1035000: uvm_test_top.env.mst_ag0.drv_m0 [TRACE] M[0] DRV B resp=0 id=5
[TRACE] 1035000 B merge in m=0 id=0x05 resp=00
[TRACE] 1035000 B merge out m=0 id=0x05 resp=00
[TRACE_XBAR_B] 1035000 M side m=0 m_bvalid=0 m_bready=1
UVM_INFO ./uvm/axi_driver.sv(220) @ 1035000: uvm_test_top.env.mst_ag0.drv_m0 [TRACE] M[0] DRV AR start addr=0x000046e0 len=1 id=13
[TRACE_XBAR_B] 1045000 M side m=0 m_bvalid=0 m_bready=1
[TRACE_XBAR_B] 1055000 M side m=0 m_bvalid=0 m_bready=1
[TRACE] 1055000 AR pre-FIFO vld m=0 vld=1 rdy=1
[TRACE] 1055000 AR pre-FIFO out m=0 addr=0x000046e0
[TRACE] 1055000 AR pre-FIFO m=0 addr=0x000046e0 len=1
UVM_INFO ./uvm/axi_slave_agent.sv(171) @ 1065000: uvm_test_top.env.slv_ag2 [TRACE] S[2] SLV AR handshake id=13 addr=0x000046e0 len=1
[TRACE_XBAR_B] 1065000 M side m=0 m_bvalid=0 m_bready=1
[TRACE] 1065000 AR at slave s=2 addr=0x000046e0
[TRACE] 1065000 AR pre-FIFO vld m=0 vld=0 rdy=0
[TRACE] 1065000 AR at slave s=2 addr=0x000046e0 len=1
UVM_INFO ./uvm/axi_slave_agent.sv(204) @ 1065000: uvm_test_top.env.slv_ag2 [TRACE] S[2] SLV R MISS at addr=0x000046e0
UVM_INFO ./uvm/axi_slave_agent.sv(204) @ 1075000: uvm_test_top.env.slv_ag2 [TRACE] S[2] SLV R MISS at addr=0x000046e4
[TRACE_XBAR_B] 1075000 M side m=0 m_bvalid=0 m_bready=1
[TRACE] 1075000 R  from slave s=2
[TRACE_XBAR_B] 1085000 M side m=0 m_bvalid=0 m_bready=1
[TRACE] 1085000 R  to master m=0
[TRACE] 1085000 R  from slave s=2
[TRACE_XBAR_B] 1095000 M side m=0 m_bvalid=0 m_bready=1
[TRACE] 1095000 R  to master m=0
[TRACE_XBAR_B] 1105000 M side m=0 m_bvalid=0 m_bready=1
UVM_INFO ./uvm/axi_driver.sv(220) @ 1105000: uvm_test_top.env.mst_ag0.drv_m0 [TRACE] M[0] DRV AR start addr=0x000017ac len=10 id=15
[TRACE_XBAR_B] 1115000 M side m=0 m_bvalid=0 m_bready=1
[TRACE_XBAR_B] 1125000 M side m=0 m_bvalid=0 m_bready=1
[TRACE] 1125000 AR pre-FIFO vld m=0 vld=1 rdy=1
[TRACE] 1125000 AR pre-FIFO out m=0 addr=0x000017ac
[TRACE] 1125000 AR pre-FIFO m=0 addr=0x000017ac len=10
UVM_INFO ./uvm/axi_slave_agent.sv(171) @ 1135000: uvm_test_top.env.slv_ag0 [TRACE] S[0] SLV AR handshake id=15 addr=0x000017ac len=10
[TRACE_XBAR_B] 1135000 M side m=0 m_bvalid=0 m_bready=1
[TRACE] 1135000 AR at slave s=0 addr=0x000017ac
[TRACE] 1135000 AR pre-FIFO vld m=0 vld=0 rdy=0
[TRACE] 1135000 AR at slave s=0 addr=0x000017ac len=10
UVM_INFO ./uvm/axi_slave_agent.sv(204) @ 1135000: uvm_test_top.env.slv_ag0 [TRACE] S[0] SLV R MISS at addr=0x000017ac
UVM_INFO ./uvm/axi_slave_agent.sv(204) @ 1145000: uvm_test_top.env.slv_ag0 [TRACE] S[0] SLV R MISS at addr=0x000017b0
[TRACE_XBAR_B] 1145000 M side m=0 m_bvalid=0 m_bready=1
[TRACE] 1145000 R  from slave s=0
UVM_INFO ./uvm/axi_slave_agent.sv(204) @ 1155000: uvm_test_top.env.slv_ag0 [TRACE] S[0] SLV R MISS at addr=0x000017b4
[TRACE_XBAR_B] 1155000 M side m=0 m_bvalid=0 m_bready=1
[TRACE] 1155000 R  to master m=0
[TRACE] 1155000 R  from slave s=0
UVM_INFO ./uvm/axi_slave_agent.sv(204) @ 1165000: uvm_test_top.env.slv_ag0 [TRACE] S[0] SLV R MISS at addr=0x000017b8
[TRACE_XBAR_B] 1165000 M side m=0 m_bvalid=0 m_bready=1
[TRACE] 1165000 R  to master m=0
[TRACE] 1165000 R  from slave s=0
UVM_INFO ./uvm/axi_slave_agent.sv(204) @ 1175000: uvm_test_top.env.slv_ag0 [TRACE] S[0] SLV R MISS at addr=0x000017bc
[TRACE_XBAR_B] 1175000 M side m=0 m_bvalid=0 m_bready=1
[TRACE] 1175000 R  to master m=0
[TRACE] 1175000 R  from slave s=0
UVM_INFO ./uvm/axi_slave_agent.sv(204) @ 1185000: uvm_test_top.env.slv_ag0 [TRACE] S[0] SLV R MISS at addr=0x000017c0
[TRACE_XBAR_B] 1185000 M side m=0 m_bvalid=0 m_bready=1
[TRACE] 1185000 R  to master m=0
[TRACE] 1185000 R  from slave s=0
UVM_INFO ./uvm/axi_slave_agent.sv(204) @ 1195000: uvm_test_top.env.slv_ag0 [TRACE] S[0] SLV R MISS at addr=0x000017c4
[TRACE_XBAR_B] 1195000 M side m=0 m_bvalid=0 m_bready=1
[TRACE] 1195000 R  to master m=0
[TRACE] 1195000 R  from slave s=0
UVM_INFO ./uvm/axi_slave_agent.sv(204) @ 1205000: uvm_test_top.env.slv_ag0 [TRACE] S[0] SLV R MISS at addr=0x000017c8
[TRACE_XBAR_B] 1205000 M side m=0 m_bvalid=0 m_bready=1
[TRACE] 1205000 R  to master m=0
[TRACE] 1205000 R  from slave s=0
UVM_INFO ./uvm/axi_slave_agent.sv(204) @ 1215000: uvm_test_top.env.slv_ag0 [TRACE] S[0] SLV R MISS at addr=0x000017cc
[TRACE_XBAR_B] 1215000 M side m=0 m_bvalid=0 m_bready=1
[TRACE] 1215000 R  to master m=0
[TRACE] 1215000 R  from slave s=0
UVM_INFO ./uvm/axi_slave_agent.sv(204) @ 1225000: uvm_test_top.env.slv_ag0 [TRACE] S[0] SLV R MISS at addr=0x000017d0
[TRACE_XBAR_B] 1225000 M side m=0 m_bvalid=0 m_bready=1
[TRACE] 1225000 R  to master m=0
[TRACE] 1225000 R  from slave s=0
UVM_INFO ./uvm/axi_slave_agent.sv(204) @ 1235000: uvm_test_top.env.slv_ag0 [TRACE] S[0] SLV R MISS at addr=0x000017d4
[TRACE_XBAR_B] 1235000 M side m=0 m_bvalid=0 m_bready=1
[TRACE] 1235000 R  to master m=0
[TRACE] 1235000 R  from slave s=0
[TRACE_XBAR_B] 1245000 M side m=0 m_bvalid=0 m_bready=1
[TRACE] 1245000 R  to master m=0
[TRACE] 1245000 R  from slave s=0
[TRACE_XBAR_B] 1255000 M side m=0 m_bvalid=0 m_bready=1
[TRACE] 1255000 R  to master m=0
[TRACE_XBAR_B] 1265000 M side m=0 m_bvalid=0 m_bready=1
UVM_INFO ./uvm/axi_driver.sv(220) @ 1265000: uvm_test_top.env.mst_ag0.drv_m0 [TRACE] M[0] DRV AR start addr=0x000014d0 len=2 id=7
[TRACE_XBAR_B] 1275000 M side m=0 m_bvalid=0 m_bready=1
[TRACE_XBAR_B] 1285000 M side m=0 m_bvalid=0 m_bready=1
[TRACE] 1285000 AR pre-FIFO vld m=0 vld=1 rdy=1
[TRACE] 1285000 AR pre-FIFO out m=0 addr=0x000014d0
[TRACE] 1285000 AR pre-FIFO m=0 addr=0x000014d0 len=2
UVM_INFO ./uvm/axi_slave_agent.sv(171) @ 1295000: uvm_test_top.env.slv_ag0 [TRACE] S[0] SLV AR handshake id=7 addr=0x000014d0 len=2
[TRACE_XBAR_B] 1295000 M side m=0 m_bvalid=0 m_bready=1
[TRACE] 1295000 AR at slave s=0 addr=0x000014d0
[TRACE] 1295000 AR pre-FIFO vld m=0 vld=0 rdy=0
[TRACE] 1295000 AR at slave s=0 addr=0x000014d0 len=2
UVM_INFO ./uvm/axi_slave_agent.sv(204) @ 1295000: uvm_test_top.env.slv_ag0 [TRACE] S[0] SLV R MISS at addr=0x000014d0
UVM_INFO ./uvm/axi_slave_agent.sv(204) @ 1305000: uvm_test_top.env.slv_ag0 [TRACE] S[0] SLV R MISS at addr=0x000014d4
[TRACE_XBAR_B] 1305000 M side m=0 m_bvalid=0 m_bready=1
[TRACE] 1305000 R  from slave s=0
UVM_INFO ./uvm/axi_slave_agent.sv(204) @ 1315000: uvm_test_top.env.slv_ag0 [TRACE] S[0] SLV R MISS at addr=0x000014d8
[TRACE_XBAR_B] 1315000 M side m=0 m_bvalid=0 m_bready=1
[TRACE] 1315000 R  to master m=0
[TRACE] 1315000 R  from slave s=0
[TRACE_XBAR_B] 1325000 M side m=0 m_bvalid=0 m_bready=1
[TRACE] 1325000 R  to master m=0
[TRACE] 1325000 R  from slave s=0
[TRACE_XBAR_B] 1335000 M side m=0 m_bvalid=0 m_bready=1
[TRACE] 1335000 R  to master m=0
[TRACE_XBAR_B] 1345000 M side m=0 m_bvalid=0 m_bready=1
UVM_INFO ./uvm/axi_driver.sv(126) @ 1345000: uvm_test_top.env.mst_ag0.drv_m0 [TRACE] M[0] DRV AW start addr=0x00006ce4 id=15
[TRACE_XBAR_B] 1355000 M side m=0 m_bvalid=0 m_bready=1
[TRACE_W_FIFO] 1355000 W_FIFO_WR m=0 last=0 data=0xd636fcfb
[TRACE_XBAR_B] 1365000 M side m=0 m_bvalid=0 m_bready=1
[TRACE] 1365000 AW pre-FIFO m=0 addr=0x00006ce4 len=8
[TRACE_W] 1365000 W pre-FIFO HS m=0 last=0 data=0xd636fcfb strb=0xf
[TRACE_W_FIFO] 1365000 W_FIFO_WR m=0 last=0 data=0xcb3d8b57
[TRACE_W_FIFO] 1365000 W_FIFO_RD m=0 last=0 data=0xd636fcfb
[TRACE_W_XBAR] 1365000 W_XBAR_M m=0 last=0 data=0x00000001
UVM_INFO ./uvm/axi_slave_agent.sv(84) @ 1375000: uvm_test_top.env.slv_ag3 [TRACE] S[3] SLV AW handshake id=15 addr=0x00006ce4 len=8
[TRACE_XBAR_B] 1375000 M side m=0 m_bvalid=0 m_bready=1
[TRACE_W] 1375000 W pre-FIFO HS m=0 last=0 data=0xcb3d8b57 strb=0xf
[TRACE] 1375000 AW at slave s=3 addr=0x00006ce4 len=8
[TRACE_W_FIFO] 1375000 W_FIFO_WR m=0 last=0 data=0xac3338cc
[TRACE_W_FIFO] 1375000 W_FIFO_RD m=0 last=0 data=0xcb3d8b57
[TRACE_W_XBAR] 1375000 W_XBAR_M m=0 last=0 data=0x00000001
[TRACE_W_XBAR] 1375000 W_XBAR_S s=3 last=0 data=0x00000000
UVM_INFO ./uvm/axi_slave_agent.sv(112) @ 1385000: uvm_test_top.env.slv_ag3 [TRACE] S[3] SLV W beat 0 data=0xd636fcfb last=0
[TRACE_XBAR_B] 1385000 M side m=0 m_bvalid=0 m_bready=1
[TRACE_W] 1385000 W pre-FIFO HS m=0 last=0 data=0xac3338cc strb=0xf
[TRACE_W] 1385000 W slave HS s=3 last=0 data=0xd636fcfb
[TRACE_W_FIFO] 1385000 W_FIFO_WR m=0 last=0 data=0x6bd407cd
[TRACE_W_FIFO] 1385000 W_FIFO_RD m=0 last=0 data=0xac3338cc
[TRACE_W_XBAR] 1385000 W_XBAR_M m=0 last=0 data=0x00000000
[TRACE_W_XBAR] 1385000 W_XBAR_S s=3 last=0 data=0x00000000
UVM_INFO ./uvm/axi_slave_agent.sv(112) @ 1395000: uvm_test_top.env.slv_ag3 [TRACE] S[3] SLV W beat 1 data=0xcb3d8b57 last=0
[TRACE_XBAR_B] 1395000 M side m=0 m_bvalid=0 m_bready=1
[TRACE_W] 1395000 W pre-FIFO HS m=0 last=0 data=0x6bd407cd strb=0xf
[TRACE_W] 1395000 W slave HS s=3 last=0 data=0xcb3d8b57
[TRACE_W_FIFO] 1395000 W_FIFO_WR m=0 last=0 data=0x66a24473
[TRACE_W_FIFO] 1395000 W_FIFO_RD m=0 last=0 data=0x6bd407cd
[TRACE_W_XBAR] 1395000 W_XBAR_M m=0 last=0 data=0x00000001
[TRACE_W_XBAR] 1395000 W_XBAR_S s=3 last=0 data=0x00000000
UVM_INFO ./uvm/axi_slave_agent.sv(112) @ 1405000: uvm_test_top.env.slv_ag3 [TRACE] S[3] SLV W beat 2 data=0xac3338cc last=0
[TRACE_XBAR_B] 1405000 M side m=0 m_bvalid=0 m_bready=1
[TRACE_W] 1405000 W pre-FIFO HS m=0 last=0 data=0x66a24473 strb=0xf
[TRACE_W] 1405000 W slave HS s=3 last=0 data=0xac3338cc
[TRACE_W_FIFO] 1405000 W_FIFO_WR m=0 last=0 data=0x3f39117f
[TRACE_W_FIFO] 1405000 W_FIFO_RD m=0 last=0 data=0x66a24473
[TRACE_W_XBAR] 1405000 W_XBAR_M m=0 last=0 data=0x00000001
[TRACE_W_XBAR] 1405000 W_XBAR_S s=3 last=0 data=0x00000000
UVM_INFO ./uvm/axi_slave_agent.sv(112) @ 1415000: uvm_test_top.env.slv_ag3 [TRACE] S[3] SLV W beat 3 data=0x6bd407cd last=0
[TRACE_XBAR_B] 1415000 M side m=0 m_bvalid=0 m_bready=1
[TRACE_W] 1415000 W pre-FIFO HS m=0 last=0 data=0x3f39117f strb=0xf
[TRACE_W] 1415000 W slave HS s=3 last=0 data=0x6bd407cd
[TRACE_W_FIFO] 1415000 W_FIFO_WR m=0 last=0 data=0x560de1aa
[TRACE_W_FIFO] 1415000 W_FIFO_RD m=0 last=0 data=0x3f39117f
[TRACE_W_XBAR] 1415000 W_XBAR_M m=0 last=0 data=0x00000001
[TRACE_W_XBAR] 1415000 W_XBAR_S s=3 last=0 data=0x00000000
UVM_INFO ./uvm/axi_slave_agent.sv(112) @ 1425000: uvm_test_top.env.slv_ag3 [TRACE] S[3] SLV W beat 4 data=0x66a24473 last=0
[TRACE_XBAR_B] 1425000 M side m=0 m_bvalid=0 m_bready=1
[TRACE_W] 1425000 W pre-FIFO HS m=0 last=0 data=0x560de1aa strb=0xf
[TRACE_W] 1425000 W slave HS s=3 last=0 data=0x66a24473
[TRACE_W_FIFO] 1425000 W_FIFO_WR m=0 last=0 data=0x24054377
[TRACE_W_FIFO] 1425000 W_FIFO_RD m=0 last=0 data=0x560de1aa
[TRACE_W_XBAR] 1425000 W_XBAR_M m=0 last=0 data=0x00000000
[TRACE_W_XBAR] 1425000 W_XBAR_S s=3 last=0 data=0x00000000
UVM_INFO ./uvm/axi_slave_agent.sv(112) @ 1435000: uvm_test_top.env.slv_ag3 [TRACE] S[3] SLV W beat 5 data=0x3f39117f last=0
[TRACE_XBAR_B] 1435000 M side m=0 m_bvalid=0 m_bready=1
[TRACE_W] 1435000 W pre-FIFO HS m=0 last=0 data=0x24054377 strb=0xf
[TRACE_W] 1435000 W slave HS s=3 last=0 data=0x3f39117f
[TRACE_W_FIFO] 1435000 W_FIFO_WR m=0 last=1 data=0x3b535809
[TRACE_W_FIFO] 1435000 W_FIFO_RD m=0 last=0 data=0x24054377
[TRACE_W_XBAR] 1435000 W_XBAR_M m=0 last=0 data=0x00000001
[TRACE_W_XBAR] 1435000 W_XBAR_S s=3 last=0 data=0x00000000
UVM_INFO ./uvm/axi_slave_agent.sv(112) @ 1445000: uvm_test_top.env.slv_ag3 [TRACE] S[3] SLV W beat 6 data=0x560de1aa last=0
[TRACE_XBAR_B] 1445000 M side m=0 m_bvalid=0 m_bready=1
[TRACE_W] 1445000 W pre-FIFO HS m=0 last=1 data=0x3b535809 strb=0xf
[TRACE_W] 1445000 W slave HS s=3 last=0 data=0x560de1aa
[TRACE_W_FIFO] 1445000 W_FIFO_RD m=0 last=1 data=0x3b535809
[TRACE_W_XBAR] 1445000 W_XBAR_M m=0 last=1 data=0x00000001
[TRACE_W_XBAR] 1445000 W_XBAR_S s=3 last=0 data=0x00000000
UVM_INFO ./uvm/axi_slave_agent.sv(112) @ 1455000: uvm_test_top.env.slv_ag3 [TRACE] S[3] SLV W beat 7 data=0x24054377 last=0
[TRACE_XBAR_B] 1455000 M side m=0 m_bvalid=0 m_bready=1
[TRACE_W] 1455000 W slave HS s=3 last=0 data=0x24054377
[TRACE_W_XBAR] 1455000 W_XBAR_S s=3 last=1 data=0x00000000
UVM_INFO ./uvm/axi_slave_agent.sv(112) @ 1465000: uvm_test_top.env.slv_ag3 [TRACE] S[3] SLV W beat 8 data=0x3b535809 last=1
[TRACE_XBAR_B] 1465000 M side m=0 m_bvalid=0 m_bready=1
[TRACE_W] 1465000 W slave HS s=3 last=1 data=0x3b535809
[TRACE_XBAR_B] 1475000 M side m=0 m_bvalid=0 m_bready=1
[TRACE] 1475000 B  from slave s=3
[TRACE_XBAR_B] 1485000 M side m=0 m_bvalid=1 m_bready=1
[TRACE] 1485000 B post-FIFO out m=0 id=0x0f
[TRACE] 1485000 B  to master m=0
[1495000] M[0] DRV B Handshake! BID=15 b_pending_size=1
UVM_INFO ./uvm/axi_driver.sv(190) @ 1495000: uvm_test_top.env.mst_ag0.drv_m0 [TRACE] M[0] DRV B resp=0 id=15
[TRACE] 1495000 B merge in m=0 id=0x0f resp=00
[TRACE] 1495000 B merge out m=0 id=0x0f resp=00
[TRACE_XBAR_B] 1495000 M side m=0 m_bvalid=0 m_bready=1
UVM_INFO ./uvm/axi_driver.sv(126) @ 1495000: uvm_test_top.env.mst_ag0.drv_m0 [TRACE] M[0] DRV AW start addr=0x00006228 id=7
[TRACE_XBAR_B] 1505000 M side m=0 m_bvalid=0 m_bready=1
[TRACE_W_FIFO] 1505000 W_FIFO_WR m=0 last=0 data=0x248f1ed8
[TRACE_XBAR_B] 1515000 M side m=0 m_bvalid=0 m_bready=1
[TRACE] 1515000 AW pre-FIFO m=0 addr=0x00006228 len=12
[TRACE_W] 1515000 W pre-FIFO HS m=0 last=0 data=0x248f1ed8 strb=0xf
[TRACE_W_FIFO] 1515000 W_FIFO_WR m=0 last=0 data=0xfe854360
[TRACE_W_FIFO] 1515000 W_FIFO_RD m=0 last=0 data=0x248f1ed8
[TRACE_W_XBAR] 1515000 W_XBAR_M m=0 last=0 data=0x00000000
UVM_INFO ./uvm/axi_slave_agent.sv(84) @ 1525000: uvm_test_top.env.slv_ag3 [TRACE] S[3] SLV AW handshake id=7 addr=0x00006228 len=12
[TRACE_XBAR_B] 1525000 M side m=0 m_bvalid=0 m_bready=1
[TRACE_W] 1525000 W pre-FIFO HS m=0 last=0 data=0xfe854360 strb=0xf
[TRACE] 1525000 AW at slave s=3 addr=0x00006228 len=12
[TRACE_W_FIFO] 1525000 W_FIFO_WR m=0 last=0 data=0x55ca88e6
[TRACE_W_FIFO] 1525000 W_FIFO_RD m=0 last=0 data=0xfe854360
[TRACE_W_XBAR] 1525000 W_XBAR_M m=0 last=0 data=0x00000000
[TRACE_W_XBAR] 1525000 W_XBAR_S s=3 last=0 data=0x00000000
UVM_INFO ./uvm/axi_slave_agent.sv(112) @ 1535000: uvm_test_top.env.slv_ag3 [TRACE] S[3] SLV W beat 0 data=0x248f1ed8 last=0
[TRACE_XBAR_B] 1535000 M side m=0 m_bvalid=0 m_bready=1
[TRACE_W] 1535000 W pre-FIFO HS m=0 last=0 data=0x55ca88e6 strb=0xf
[TRACE_W] 1535000 W slave HS s=3 last=0 data=0x248f1ed8
[TRACE_W_FIFO] 1535000 W_FIFO_WR m=0 last=0 data=0x0fefff06
[TRACE_W_FIFO] 1535000 W_FIFO_RD m=0 last=0 data=0x55ca88e6
[TRACE_W_XBAR] 1535000 W_XBAR_M m=0 last=0 data=0x00000000
[TRACE_W_XBAR] 1535000 W_XBAR_S s=3 last=0 data=0x00000000
UVM_INFO ./uvm/axi_slave_agent.sv(112) @ 1545000: uvm_test_top.env.slv_ag3 [TRACE] S[3] SLV W beat 1 data=0xfe854360 last=0
[TRACE_XBAR_B] 1545000 M side m=0 m_bvalid=0 m_bready=1
[TRACE_W] 1545000 W pre-FIFO HS m=0 last=0 data=0x0fefff06 strb=0xf
[TRACE_W] 1545000 W slave HS s=3 last=0 data=0xfe854360
[TRACE_W_FIFO] 1545000 W_FIFO_WR m=0 last=0 data=0xb5465684
[TRACE_W_FIFO] 1545000 W_FIFO_RD m=0 last=0 data=0x0fefff06
[TRACE_W_XBAR] 1545000 W_XBAR_M m=0 last=0 data=0x00000000
[TRACE_W_XBAR] 1545000 W_XBAR_S s=3 last=0 data=0x00000000
UVM_INFO ./uvm/axi_slave_agent.sv(112) @ 1555000: uvm_test_top.env.slv_ag3 [TRACE] S[3] SLV W beat 2 data=0x55ca88e6 last=0
[TRACE_XBAR_B] 1555000 M side m=0 m_bvalid=0 m_bready=1
[TRACE_W] 1555000 W pre-FIFO HS m=0 last=0 data=0xb5465684 strb=0xf
[TRACE_W] 1555000 W slave HS s=3 last=0 data=0x55ca88e6
[TRACE_W_FIFO] 1555000 W_FIFO_WR m=0 last=0 data=0xb7503e46
[TRACE_W_FIFO] 1555000 W_FIFO_RD m=0 last=0 data=0xb5465684
[TRACE_W_XBAR] 1555000 W_XBAR_M m=0 last=0 data=0x00000000
[TRACE_W_XBAR] 1555000 W_XBAR_S s=3 last=0 data=0x00000000
UVM_INFO ./uvm/axi_slave_agent.sv(112) @ 1565000: uvm_test_top.env.slv_ag3 [TRACE] S[3] SLV W beat 3 data=0x0fefff06 last=0
[TRACE_XBAR_B] 1565000 M side m=0 m_bvalid=0 m_bready=1
[TRACE_W] 1565000 W pre-FIFO HS m=0 last=0 data=0xb7503e46 strb=0xf
[TRACE_W] 1565000 W slave HS s=3 last=0 data=0x0fefff06
[TRACE_W_FIFO] 1565000 W_FIFO_WR m=0 last=0 data=0x54f568eb
[TRACE_W_FIFO] 1565000 W_FIFO_RD m=0 last=0 data=0xb7503e46
[TRACE_W_XBAR] 1565000 W_XBAR_M m=0 last=0 data=0x00000000
[TRACE_W_XBAR] 1565000 W_XBAR_S s=3 last=0 data=0x00000000
UVM_INFO ./uvm/axi_slave_agent.sv(112) @ 1575000: uvm_test_top.env.slv_ag3 [TRACE] S[3] SLV W beat 4 data=0xb5465684 last=0
[TRACE_XBAR_B] 1575000 M side m=0 m_bvalid=0 m_bready=1
[TRACE_W] 1575000 W pre-FIFO HS m=0 last=0 data=0x54f568eb strb=0xf
[TRACE_W] 1575000 W slave HS s=3 last=0 data=0xb5465684
[TRACE_W_FIFO] 1575000 W_FIFO_WR m=0 last=0 data=0xc7244ea1
[TRACE_W_FIFO] 1575000 W_FIFO_RD m=0 last=0 data=0x54f568eb
[TRACE_W_XBAR] 1575000 W_XBAR_M m=0 last=0 data=0x00000001
[TRACE_W_XBAR] 1575000 W_XBAR_S s=3 last=0 data=0x00000000
UVM_INFO ./uvm/axi_slave_agent.sv(112) @ 1585000: uvm_test_top.env.slv_ag3 [TRACE] S[3] SLV W beat 5 data=0xb7503e46 last=0
[TRACE_XBAR_B] 1585000 M side m=0 m_bvalid=0 m_bready=1
[TRACE_W] 1585000 W pre-FIFO HS m=0 last=0 data=0xc7244ea1 strb=0xf
[TRACE_W] 1585000 W slave HS s=3 last=0 data=0xb7503e46
[TRACE_W_FIFO] 1585000 W_FIFO_WR m=0 last=0 data=0x57395911
[TRACE_W_FIFO] 1585000 W_FIFO_RD m=0 last=0 data=0xc7244ea1
[TRACE_W_XBAR] 1585000 W_XBAR_M m=0 last=0 data=0x00000001
[TRACE_W_XBAR] 1585000 W_XBAR_S s=3 last=0 data=0x00000000
UVM_INFO ./uvm/axi_slave_agent.sv(112) @ 1595000: uvm_test_top.env.slv_ag3 [TRACE] S[3] SLV W beat 6 data=0x54f568eb last=0
[TRACE_XBAR_B] 1595000 M side m=0 m_bvalid=0 m_bready=1
[TRACE_W] 1595000 W pre-FIFO HS m=0 last=0 data=0x57395911 strb=0xf
[TRACE_W] 1595000 W slave HS s=3 last=0 data=0x54f568eb
[TRACE_W_FIFO] 1595000 W_FIFO_WR m=0 last=0 data=0xf22dbe35
[TRACE_W_FIFO] 1595000 W_FIFO_RD m=0 last=0 data=0x57395911
[TRACE_W_XBAR] 1595000 W_XBAR_M m=0 last=0 data=0x00000001
[TRACE_W_XBAR] 1595000 W_XBAR_S s=3 last=0 data=0x00000000
UVM_INFO ./uvm/axi_slave_agent.sv(112) @ 1605000: uvm_test_top.env.slv_ag3 [TRACE] S[3] SLV W beat 7 data=0xc7244ea1 last=0
[TRACE_XBAR_B] 1605000 M side m=0 m_bvalid=0 m_bready=1
[TRACE_W] 1605000 W pre-FIFO HS m=0 last=0 data=0xf22dbe35 strb=0xf
[TRACE_W] 1605000 W slave HS s=3 last=0 data=0xc7244ea1
[TRACE_W_FIFO] 1605000 W_FIFO_WR m=0 last=0 data=0x06588212
[TRACE_W_FIFO] 1605000 W_FIFO_RD m=0 last=0 data=0xf22dbe35
[TRACE_W_XBAR] 1605000 W_XBAR_M m=0 last=0 data=0x00000001
[TRACE_W_XBAR] 1605000 W_XBAR_S s=3 last=0 data=0x00000000
UVM_INFO ./uvm/axi_slave_agent.sv(112) @ 1615000: uvm_test_top.env.slv_ag3 [TRACE] S[3] SLV W beat 8 data=0x57395911 last=0
[TRACE_XBAR_B] 1615000 M side m=0 m_bvalid=0 m_bready=1
[TRACE_W] 1615000 W pre-FIFO HS m=0 last=0 data=0x06588212 strb=0xf
[TRACE_W] 1615000 W slave HS s=3 last=0 data=0x57395911
[TRACE_W_FIFO] 1615000 W_FIFO_WR m=0 last=0 data=0xe12e8a66
[TRACE_W_FIFO] 1615000 W_FIFO_RD m=0 last=0 data=0x06588212
[TRACE_W_XBAR] 1615000 W_XBAR_M m=0 last=0 data=0x00000000
[TRACE_W_XBAR] 1615000 W_XBAR_S s=3 last=0 data=0x00000000
UVM_INFO ./uvm/axi_slave_agent.sv(112) @ 1625000: uvm_test_top.env.slv_ag3 [TRACE] S[3] SLV W beat 9 data=0xf22dbe35 last=0
[TRACE_XBAR_B] 1625000 M side m=0 m_bvalid=0 m_bready=1
[TRACE_W] 1625000 W pre-FIFO HS m=0 last=0 data=0xe12e8a66 strb=0xf
[TRACE_W] 1625000 W slave HS s=3 last=0 data=0xf22dbe35
[TRACE_W_FIFO] 1625000 W_FIFO_WR m=0 last=1 data=0x0798ab23
[TRACE_W_FIFO] 1625000 W_FIFO_RD m=0 last=0 data=0xe12e8a66
[TRACE_W_XBAR] 1625000 W_XBAR_M m=0 last=0 data=0x00000000
[TRACE_W_XBAR] 1625000 W_XBAR_S s=3 last=0 data=0x00000000
UVM_INFO ./uvm/axi_slave_agent.sv(112) @ 1635000: uvm_test_top.env.slv_ag3 [TRACE] S[3] SLV W beat 10 data=0x06588212 last=0
[TRACE_XBAR_B] 1635000 M side m=0 m_bvalid=0 m_bready=1
[TRACE_W] 1635000 W pre-FIFO HS m=0 last=1 data=0x0798ab23 strb=0xf
[TRACE_W] 1635000 W slave HS s=3 last=0 data=0x06588212
[TRACE_W_FIFO] 1635000 W_FIFO_RD m=0 last=1 data=0x0798ab23
[TRACE_W_XBAR] 1635000 W_XBAR_M m=0 last=1 data=0x00000001
[TRACE_W_XBAR] 1635000 W_XBAR_S s=3 last=0 data=0x00000000
UVM_INFO ./uvm/axi_slave_agent.sv(112) @ 1645000: uvm_test_top.env.slv_ag3 [TRACE] S[3] SLV W beat 11 data=0xe12e8a66 last=0
[TRACE_XBAR_B] 1645000 M side m=0 m_bvalid=0 m_bready=1
[TRACE_W] 1645000 W slave HS s=3 last=0 data=0xe12e8a66
[TRACE_W_XBAR] 1645000 W_XBAR_S s=3 last=1 data=0x00000000
UVM_INFO ./uvm/axi_slave_agent.sv(112) @ 1655000: uvm_test_top.env.slv_ag3 [TRACE] S[3] SLV W beat 12 data=0x0798ab23 last=1
[TRACE_XBAR_B] 1655000 M side m=0 m_bvalid=0 m_bready=1
[TRACE_W] 1655000 W slave HS s=3 last=1 data=0x0798ab23
[TRACE_XBAR_B] 1665000 M side m=0 m_bvalid=0 m_bready=1
[TRACE] 1665000 B  from slave s=3
[TRACE_XBAR_B] 1675000 M side m=0 m_bvalid=1 m_bready=1
[TRACE] 1675000 B post-FIFO out m=0 id=0x07
[TRACE] 1675000 B  to master m=0
[1685000] M[0] DRV B Handshake! BID=7 b_pending_size=1
UVM_INFO ./uvm/axi_driver.sv(190) @ 1685000: uvm_test_top.env.mst_ag0.drv_m0 [TRACE] M[0] DRV B resp=0 id=7
[TRACE] 1685000 B merge in m=0 id=0x07 resp=00
[TRACE] 1685000 B merge out m=0 id=0x07 resp=00
[TRACE_XBAR_B] 1685000 M side m=0 m_bvalid=0 m_bready=1
UVM_INFO ./uvm/axi_driver.sv(220) @ 1685000: uvm_test_top.env.mst_ag0.drv_m0 [TRACE] M[0] DRV AR start addr=0x00003fd4 len=4 id=15
[TRACE_XBAR_B] 1695000 M side m=0 m_bvalid=0 m_bready=1
[TRACE_XBAR_B] 1705000 M side m=0 m_bvalid=0 m_bready=1
[TRACE] 1705000 AR pre-FIFO vld m=0 vld=1 rdy=1
[TRACE] 1705000 AR pre-FIFO out m=0 addr=0x00003fd4
[TRACE] 1705000 AR pre-FIFO m=0 addr=0x00003fd4 len=4
UVM_INFO ./uvm/axi_slave_agent.sv(171) @ 1715000: uvm_test_top.env.slv_ag1 [TRACE] S[1] SLV AR handshake id=15 addr=0x00003fd4 len=4
[TRACE_XBAR_B] 1715000 M side m=0 m_bvalid=0 m_bready=1
[TRACE] 1715000 AR at slave s=1 addr=0x00003fd4
[TRACE] 1715000 AR pre-FIFO vld m=0 vld=0 rdy=0
[TRACE] 1715000 AR at slave s=1 addr=0x00003fd4 len=4
UVM_INFO ./uvm/axi_slave_agent.sv(204) @ 1715000: uvm_test_top.env.slv_ag1 [TRACE] S[1] SLV R MISS at addr=0x00003fd4
UVM_INFO ./uvm/axi_slave_agent.sv(204) @ 1725000: uvm_test_top.env.slv_ag1 [TRACE] S[1] SLV R MISS at addr=0x00003fd8
[TRACE_XBAR_B] 1725000 M side m=0 m_bvalid=0 m_bready=1
[TRACE] 1725000 R  from slave s=1
UVM_INFO ./uvm/axi_slave_agent.sv(204) @ 1735000: uvm_test_top.env.slv_ag1 [TRACE] S[1] SLV R MISS at addr=0x00003fdc
[TRACE_XBAR_B] 1735000 M side m=0 m_bvalid=0 m_bready=1
[TRACE] 1735000 R  to master m=0
[TRACE] 1735000 R  from slave s=1
UVM_INFO ./uvm/axi_slave_agent.sv(204) @ 1745000: uvm_test_top.env.slv_ag1 [TRACE] S[1] SLV R MISS at addr=0x00003fe0
[TRACE_XBAR_B] 1745000 M side m=0 m_bvalid=0 m_bready=1
[TRACE] 1745000 R  to master m=0
[TRACE] 1745000 R  from slave s=1
UVM_INFO ./uvm/axi_slave_agent.sv(204) @ 1755000: uvm_test_top.env.slv_ag1 [TRACE] S[1] SLV R MISS at addr=0x00003fe4
[TRACE_XBAR_B] 1755000 M side m=0 m_bvalid=0 m_bready=1
[TRACE] 1755000 R  to master m=0
[TRACE] 1755000 R  from slave s=1
[TRACE_XBAR_B] 1765000 M side m=0 m_bvalid=0 m_bready=1
[TRACE] 1765000 R  to master m=0
[TRACE] 1765000 R  from slave s=1
[TRACE_XBAR_B] 1775000 M side m=0 m_bvalid=0 m_bready=1
[TRACE] 1775000 R  to master m=0
[TRACE_XBAR_B] 1785000 M side m=0 m_bvalid=0 m_bready=1
UVM_INFO ./uvm/axi_driver.sv(220) @ 1785000: uvm_test_top.env.mst_ag0.drv_m0 [TRACE] M[0] DRV AR start addr=0x000020b4 len=5 id=8
[TRACE_XBAR_B] 1795000 M side m=0 m_bvalid=0 m_bready=1
[TRACE_XBAR_B] 1805000 M side m=0 m_bvalid=0 m_bready=1
[TRACE] 1805000 AR pre-FIFO vld m=0 vld=1 rdy=1
[TRACE] 1805000 AR pre-FIFO out m=0 addr=0x000020b4
[TRACE] 1805000 AR pre-FIFO m=0 addr=0x000020b4 len=5
UVM_INFO ./uvm/axi_slave_agent.sv(171) @ 1815000: uvm_test_top.env.slv_ag1 [TRACE] S[1] SLV AR handshake id=8 addr=0x000020b4 len=5
[TRACE_XBAR_B] 1815000 M side m=0 m_bvalid=0 m_bready=1
[TRACE] 1815000 AR at slave s=1 addr=0x000020b4
[TRACE] 1815000 AR pre-FIFO vld m=0 vld=0 rdy=0
[TRACE] 1815000 AR at slave s=1 addr=0x000020b4 len=5
UVM_INFO ./uvm/axi_slave_agent.sv(204) @ 1815000: uvm_test_top.env.slv_ag1 [TRACE] S[1] SLV R MISS at addr=0x000020b4
UVM_INFO ./uvm/axi_slave_agent.sv(204) @ 1825000: uvm_test_top.env.slv_ag1 [TRACE] S[1] SLV R MISS at addr=0x000020b8
[TRACE_XBAR_B] 1825000 M side m=0 m_bvalid=0 m_bready=1
[TRACE] 1825000 R  from slave s=1
UVM_INFO ./uvm/axi_slave_agent.sv(204) @ 1835000: uvm_test_top.env.slv_ag1 [TRACE] S[1] SLV R MISS at addr=0x000020bc
[TRACE_XBAR_B] 1835000 M side m=0 m_bvalid=0 m_bready=1
[TRACE] 1835000 R  to master m=0
[TRACE] 1835000 R  from slave s=1
UVM_INFO ./uvm/axi_slave_agent.sv(204) @ 1845000: uvm_test_top.env.slv_ag1 [TRACE] S[1] SLV R MISS at addr=0x000020c0
[TRACE_XBAR_B] 1845000 M side m=0 m_bvalid=0 m_bready=1
[TRACE] 1845000 R  to master m=0
[TRACE] 1845000 R  from slave s=1
UVM_INFO ./uvm/axi_slave_agent.sv(204) @ 1855000: uvm_test_top.env.slv_ag1 [TRACE] S[1] SLV R MISS at addr=0x000020c4
[TRACE_XBAR_B] 1855000 M side m=0 m_bvalid=0 m_bready=1
[TRACE] 1855000 R  to master m=0
[TRACE] 1855000 R  from slave s=1
UVM_INFO ./uvm/axi_slave_agent.sv(204) @ 1865000: uvm_test_top.env.slv_ag1 [TRACE] S[1] SLV R MISS at addr=0x000020c8
[TRACE_XBAR_B] 1865000 M side m=0 m_bvalid=0 m_bready=1
[TRACE] 1865000 R  to master m=0
[TRACE] 1865000 R  from slave s=1
[TRACE_XBAR_B] 1875000 M side m=0 m_bvalid=0 m_bready=1
[TRACE] 1875000 R  to master m=0
[TRACE] 1875000 R  from slave s=1
[TRACE_XBAR_B] 1885000 M side m=0 m_bvalid=0 m_bready=1
[TRACE] 1885000 R  to master m=0
[TRACE_XBAR_B] 1895000 M side m=0 m_bvalid=0 m_bready=1
UVM_INFO ./uvm/axi_driver.sv(220) @ 1895000: uvm_test_top.env.mst_ag0.drv_m0 [TRACE] M[0] DRV AR start addr=0x00000d3c len=4 id=13
[TRACE_XBAR_B] 1905000 M side m=0 m_bvalid=0 m_bready=1
[TRACE_XBAR_B] 1915000 M side m=0 m_bvalid=0 m_bready=1
[TRACE] 1915000 AR pre-FIFO vld m=0 vld=1 rdy=1
[TRACE] 1915000 AR pre-FIFO out m=0 addr=0x00000d3c
[TRACE] 1915000 AR pre-FIFO m=0 addr=0x00000d3c len=4
UVM_INFO ./uvm/axi_slave_agent.sv(171) @ 1925000: uvm_test_top.env.slv_ag0 [TRACE] S[0] SLV AR handshake id=13 addr=0x00000d3c len=4
[TRACE_XBAR_B] 1925000 M side m=0 m_bvalid=0 m_bready=1
[TRACE] 1925000 AR at slave s=0 addr=0x00000d3c
[TRACE] 1925000 AR pre-FIFO vld m=0 vld=0 rdy=0
[TRACE] 1925000 AR at slave s=0 addr=0x00000d3c len=4
UVM_INFO ./uvm/axi_slave_agent.sv(204) @ 1925000: uvm_test_top.env.slv_ag0 [TRACE] S[0] SLV R MISS at addr=0x00000d3c
UVM_INFO ./uvm/axi_slave_agent.sv(204) @ 1935000: uvm_test_top.env.slv_ag0 [TRACE] S[0] SLV R MISS at addr=0x00000d40
[TRACE_XBAR_B] 1935000 M side m=0 m_bvalid=0 m_bready=1
[TRACE] 1935000 R  from slave s=0
UVM_INFO ./uvm/axi_slave_agent.sv(204) @ 1945000: uvm_test_top.env.slv_ag0 [TRACE] S[0] SLV R MISS at addr=0x00000d44
[TRACE_XBAR_B] 1945000 M side m=0 m_bvalid=0 m_bready=1
[TRACE] 1945000 R  to master m=0
[TRACE] 1945000 R  from slave s=0
UVM_INFO ./uvm/axi_slave_agent.sv(204) @ 1955000: uvm_test_top.env.slv_ag0 [TRACE] S[0] SLV R MISS at addr=0x00000d48
[TRACE_XBAR_B] 1955000 M side m=0 m_bvalid=0 m_bready=1
[TRACE] 1955000 R  to master m=0
[TRACE] 1955000 R  from slave s=0
UVM_INFO ./uvm/axi_slave_agent.sv(204) @ 1965000: uvm_test_top.env.slv_ag0 [TRACE] S[0] SLV R MISS at addr=0x00000d4c
[TRACE_XBAR_B] 1965000 M side m=0 m_bvalid=0 m_bready=1
[TRACE] 1965000 R  to master m=0
[TRACE] 1965000 R  from slave s=0
[TRACE_XBAR_B] 1975000 M side m=0 m_bvalid=0 m_bready=1
[TRACE] 1975000 R  to master m=0
[TRACE] 1975000 R  from slave s=0
[TRACE_XBAR_B] 1985000 M side m=0 m_bvalid=0 m_bready=1
[TRACE] 1985000 R  to master m=0
[TRACE_XBAR_B] 1995000 M side m=0 m_bvalid=0 m_bready=1
UVM_INFO ./uvm/axi_driver.sv(126) @ 1995000: uvm_test_top.env.mst_ag0.drv_m0 [TRACE] M[0] DRV AW start addr=0x00000e8c id=1
[TRACE_XBAR_B] 2005000 M side m=0 m_bvalid=0 m_bready=1
[TRACE_W_FIFO] 2005000 W_FIFO_WR m=0 last=0 data=0x33d50711
[TRACE_XBAR_B] 2015000 M side m=0 m_bvalid=0 m_bready=1
[TRACE] 2015000 AW pre-FIFO m=0 addr=0x00000e8c len=2
[TRACE_W] 2015000 W pre-FIFO HS m=0 last=0 data=0x33d50711 strb=0xf
[TRACE_W_FIFO] 2015000 W_FIFO_WR m=0 last=0 data=0xd8f385c6
[TRACE_W_FIFO] 2015000 W_FIFO_RD m=0 last=0 data=0x33d50711
[TRACE_W_XBAR] 2015000 W_XBAR_M m=0 last=0 data=0x00000001
UVM_INFO ./uvm/axi_slave_agent.sv(84) @ 2025000: uvm_test_top.env.slv_ag0 [TRACE] S[0] SLV AW handshake id=1 addr=0x00000e8c len=2
[TRACE_XBAR_B] 2025000 M side m=0 m_bvalid=0 m_bready=1
[TRACE_W] 2025000 W pre-FIFO HS m=0 last=0 data=0xd8f385c6 strb=0xf
[TRACE] 2025000 AW at slave s=0 addr=0x00000e8c len=2
[TRACE_W_FIFO] 2025000 W_FIFO_WR m=0 last=1 data=0xa5ef36a2
[TRACE_W_FIFO] 2025000 W_FIFO_RD m=0 last=0 data=0xd8f385c6
[TRACE_W_XBAR] 2025000 W_XBAR_M m=0 last=0 data=0x00000000
[TRACE_W_XBAR] 2025000 W_XBAR_S s=0 last=0 data=0x00000001
UVM_INFO ./uvm/axi_slave_agent.sv(112) @ 2035000: uvm_test_top.env.slv_ag0 [TRACE] S[0] SLV W beat 0 data=0x33d50711 last=0
[TRACE_XBAR_B] 2035000 M side m=0 m_bvalid=0 m_bready=1
[TRACE_W] 2035000 W pre-FIFO HS m=0 last=1 data=0xa5ef36a2 strb=0xf
[TRACE_W] 2035000 W slave HS s=0 last=0 data=0x33d50711
[TRACE_W_FIFO] 2035000 W_FIFO_RD m=0 last=1 data=0xa5ef36a2
[TRACE_W_XBAR] 2035000 W_XBAR_M m=0 last=1 data=0x00000000
[TRACE_W_XBAR] 2035000 W_XBAR_S s=0 last=0 data=0x00000000
UVM_INFO ./uvm/axi_slave_agent.sv(112) @ 2045000: uvm_test_top.env.slv_ag0 [TRACE] S[0] SLV W beat 1 data=0xd8f385c6 last=0
[TRACE_XBAR_B] 2045000 M side m=0 m_bvalid=0 m_bready=1
[TRACE_W] 2045000 W slave HS s=0 last=0 data=0xd8f385c6
[TRACE_W_XBAR] 2045000 W_XBAR_S s=0 last=1 data=0x00000000
UVM_INFO ./uvm/axi_slave_agent.sv(112) @ 2055000: uvm_test_top.env.slv_ag0 [TRACE] S[0] SLV W beat 2 data=0xa5ef36a2 last=1
[TRACE_XBAR_B] 2055000 M side m=0 m_bvalid=0 m_bready=1
[TRACE_W] 2055000 W slave HS s=0 last=1 data=0xa5ef36a2
[TRACE_XBAR_B] 2065000 M side m=0 m_bvalid=0 m_bready=1
[TRACE] 2065000 B slave handshake s=0 id=0x01
[TRACE] 2065000 B  from slave s=0
[TRACE_XBAR_B] 2075000 S side s=0 s_bvalid=1 s_bready=1
[TRACE_XBAR_B] 2075000 M side m=0 m_bvalid=1 m_bready=1
[TRACE] 2075000 B pre-FIFO out s=0 id=0x01
[TRACE] 2075000 B post-FIFO out m=0 id=0x01
[TRACE] 2075000 B  to master m=0
[2085000] M[0] DRV B Handshake! BID=1 b_pending_size=1
UVM_INFO ./uvm/axi_driver.sv(190) @ 2085000: uvm_test_top.env.mst_ag0.drv_m0 [TRACE] M[0] DRV B resp=0 id=1
[TRACE] 2085000 B merge in m=0 id=0x01 resp=00
[TRACE] 2085000 B merge out m=0 id=0x01 resp=00
[TRACE_XBAR_B] 2085000 M side m=0 m_bvalid=0 m_bready=1
UVM_INFO ./uvm/axi_driver.sv(220) @ 2085000: uvm_test_top.env.mst_ag1.drv_m1 [TRACE] M[1] DRV AR start addr=0x00006904 len=3 id=7
[TRACE_XBAR_B] 2095000 M side m=0 m_bvalid=0 m_bready=1
[TRACE_XBAR_B] 2105000 M side m=0 m_bvalid=0 m_bready=1
[TRACE] 2105000 AR pre-FIFO vld m=1 vld=1 rdy=1
[TRACE] 2105000 AR pre-FIFO out m=1 addr=0x00006904
[TRACE] 2105000 AR pre-FIFO m=1 addr=0x00006904 len=3
UVM_INFO ./uvm/axi_slave_agent.sv(171) @ 2115000: uvm_test_top.env.slv_ag3 [TRACE] S[3] SLV AR handshake id=71 addr=0x00006904 len=3
[TRACE_XBAR_B] 2115000 M side m=0 m_bvalid=0 m_bready=1
[TRACE] 2115000 AR at slave s=3 addr=0x00006904
[TRACE] 2115000 AR pre-FIFO vld m=1 vld=0 rdy=0
[TRACE] 2115000 AR at slave s=3 addr=0x00006904 len=3
UVM_INFO ./uvm/axi_slave_agent.sv(204) @ 2115000: uvm_test_top.env.slv_ag3 [TRACE] S[3] SLV R MISS at addr=0x00006904
UVM_INFO ./uvm/axi_slave_agent.sv(204) @ 2125000: uvm_test_top.env.slv_ag3 [TRACE] S[3] SLV R MISS at addr=0x00006908
[TRACE_XBAR_B] 2125000 M side m=0 m_bvalid=0 m_bready=1
[TRACE] 2125000 R  from slave s=3
UVM_INFO ./uvm/axi_slave_agent.sv(204) @ 2135000: uvm_test_top.env.slv_ag3 [TRACE] S[3] SLV R MISS at addr=0x0000690c
[TRACE_XBAR_B] 2135000 M side m=0 m_bvalid=0 m_bready=1
[TRACE] 2135000 R  to master m=1
[TRACE] 2135000 R  from slave s=3
UVM_INFO ./uvm/axi_slave_agent.sv(204) @ 2145000: uvm_test_top.env.slv_ag3 [TRACE] S[3] SLV R MISS at addr=0x00006910
[TRACE_XBAR_B] 2145000 M side m=0 m_bvalid=0 m_bready=1
[TRACE] 2145000 R  to master m=1
[TRACE] 2145000 R  from slave s=3
[TRACE_XBAR_B] 2155000 M side m=0 m_bvalid=0 m_bready=1
[TRACE] 2155000 R  to master m=1
[TRACE] 2155000 R  from slave s=3
[TRACE_XBAR_B] 2165000 M side m=0 m_bvalid=0 m_bready=1
[TRACE] 2165000 R  to master m=1
[TRACE_XBAR_B] 2175000 M side m=0 m_bvalid=0 m_bready=1
UVM_INFO ./uvm/axi_driver.sv(126) @ 2175000: uvm_test_top.env.mst_ag1.drv_m1 [TRACE] M[1] DRV AW start addr=0x0000327c id=13
[TRACE_XBAR_B] 2185000 M side m=0 m_bvalid=0 m_bready=1
[TRACE_W_FIFO] 2185000 W_FIFO_WR m=1 last=1 data=0xff5d2fb0
[TRACE_XBAR_B] 2195000 M side m=0 m_bvalid=0 m_bready=1
[TRACE] 2195000 AW pre-FIFO m=1 addr=0x0000327c len=0
[TRACE_W] 2195000 W pre-FIFO HS m=1 last=1 data=0xff5d2fb0 strb=0xf
[TRACE_W_FIFO] 2195000 W_FIFO_RD m=1 last=1 data=0xff5d2fb0
[TRACE_W_XBAR] 2195000 W_XBAR_M m=1 last=1 data=0x00000000
UVM_INFO ./uvm/axi_slave_agent.sv(84) @ 2205000: uvm_test_top.env.slv_ag1 [TRACE] S[1] SLV AW handshake id=77 addr=0x0000327c len=0
[TRACE_XBAR_B] 2205000 M side m=0 m_bvalid=0 m_bready=1
[TRACE] 2205000 AW at slave s=1 addr=0x0000327c len=0
[TRACE_W_XBAR] 2205000 W_XBAR_S s=1 last=1 data=0x00000000
UVM_INFO ./uvm/axi_slave_agent.sv(112) @ 2215000: uvm_test_top.env.slv_ag1 [TRACE] S[1] SLV W beat 0 data=0xff5d2fb0 last=1
[TRACE_XBAR_B] 2215000 M side m=0 m_bvalid=0 m_bready=1
[TRACE_W] 2215000 W slave HS s=1 last=1 data=0xff5d2fb0
[TRACE_XBAR_B] 2225000 M side m=0 m_bvalid=0 m_bready=1
[TRACE] 2225000 B  from slave s=1
[TRACE_XBAR_B] 2235000 M side m=0 m_bvalid=0 m_bready=1
[TRACE] 2235000 B  to master m=1
[2245000] M[1] DRV B Handshake! BID=13 b_pending_size=1
UVM_INFO ./uvm/axi_driver.sv(190) @ 2245000: uvm_test_top.env.mst_ag1.drv_m1 [TRACE] M[1] DRV B resp=0 id=13
[TRACE_XBAR_B] 2245000 M side m=0 m_bvalid=0 m_bready=1
UVM_INFO ./uvm/axi_driver.sv(126) @ 2245000: uvm_test_top.env.mst_ag1.drv_m1 [TRACE] M[1] DRV AW start addr=0x00001498 id=0
[TRACE_XBAR_B] 2255000 M side m=0 m_bvalid=0 m_bready=1
[TRACE_W_FIFO] 2255000 W_FIFO_WR m=1 last=0 data=0x80ad1f42
[TRACE_XBAR_B] 2265000 M side m=0 m_bvalid=0 m_bready=1
[TRACE] 2265000 AW pre-FIFO m=1 addr=0x00001498 len=2
[TRACE_W] 2265000 W pre-FIFO HS m=1 last=0 data=0x80ad1f42 strb=0xf
[TRACE_W_FIFO] 2265000 W_FIFO_WR m=1 last=0 data=0x55386df8
[TRACE_W_FIFO] 2265000 W_FIFO_RD m=1 last=0 data=0x80ad1f42
[TRACE_W_XBAR] 2265000 W_XBAR_M m=1 last=0 data=0x00000000
UVM_INFO ./uvm/axi_slave_agent.sv(84) @ 2275000: uvm_test_top.env.slv_ag0 [TRACE] S[0] SLV AW handshake id=64 addr=0x00001498 len=2
[TRACE_XBAR_B] 2275000 M side m=0 m_bvalid=0 m_bready=1
[TRACE_W] 2275000 W pre-FIFO HS m=1 last=0 data=0x55386df8 strb=0xf
[TRACE] 2275000 AW at slave s=0 addr=0x00001498 len=2
[TRACE_W_FIFO] 2275000 W_FIFO_WR m=1 last=1 data=0x89c0caa5
[TRACE_W_FIFO] 2275000 W_FIFO_RD m=1 last=0 data=0x55386df8
[TRACE_W_XBAR] 2275000 W_XBAR_M m=1 last=0 data=0x00000000
[TRACE_W_XBAR] 2275000 W_XBAR_S s=0 last=0 data=0x00000000
UVM_INFO ./uvm/axi_slave_agent.sv(112) @ 2285000: uvm_test_top.env.slv_ag0 [TRACE] S[0] SLV W beat 0 data=0x80ad1f42 last=0
[TRACE_XBAR_B] 2285000 M side m=0 m_bvalid=0 m_bready=1
[TRACE_W] 2285000 W pre-FIFO HS m=1 last=1 data=0x89c0caa5 strb=0xf
[TRACE_W] 2285000 W slave HS s=0 last=0 data=0x80ad1f42
[TRACE_W_FIFO] 2285000 W_FIFO_RD m=1 last=1 data=0x89c0caa5
[TRACE_W_XBAR] 2285000 W_XBAR_M m=1 last=1 data=0x00000000
[TRACE_W_XBAR] 2285000 W_XBAR_S s=0 last=0 data=0x00000000
UVM_INFO ./uvm/axi_slave_agent.sv(112) @ 2295000: uvm_test_top.env.slv_ag0 [TRACE] S[0] SLV W beat 1 data=0x55386df8 last=0
[TRACE_XBAR_B] 2295000 M side m=0 m_bvalid=0 m_bready=1
[TRACE_W] 2295000 W slave HS s=0 last=0 data=0x55386df8
[TRACE_W_XBAR] 2295000 W_XBAR_S s=0 last=1 data=0x00000001
UVM_INFO ./uvm/axi_slave_agent.sv(112) @ 2305000: uvm_test_top.env.slv_ag0 [TRACE] S[0] SLV W beat 2 data=0x89c0caa5 last=1
[TRACE_XBAR_B] 2305000 M side m=0 m_bvalid=0 m_bready=1
[TRACE_W] 2305000 W slave HS s=0 last=1 data=0x89c0caa5
[TRACE_XBAR_B] 2315000 M side m=0 m_bvalid=0 m_bready=1
[TRACE] 2315000 B slave handshake s=0 id=0x40
[TRACE] 2315000 B  from slave s=0
[TRACE_XBAR_B] 2325000 S side s=0 s_bvalid=1 s_bready=1
[TRACE_XBAR_B] 2325000 M side m=0 m_bvalid=0 m_bready=1
[TRACE] 2325000 B pre-FIFO out s=0 id=0x40
[TRACE] 2325000 B  to master m=1
[2335000] M[1] DRV B Handshake! BID=0 b_pending_size=1
UVM_INFO ./uvm/axi_driver.sv(190) @ 2335000: uvm_test_top.env.mst_ag1.drv_m1 [TRACE] M[1] DRV B resp=0 id=0
[TRACE_XBAR_B] 2335000 M side m=0 m_bvalid=0 m_bready=1
UVM_INFO ./uvm/axi_driver.sv(126) @ 2335000: uvm_test_top.env.mst_ag1.drv_m1 [TRACE] M[1] DRV AW start addr=0x00005be0 id=11
[TRACE_XBAR_B] 2345000 M side m=0 m_bvalid=0 m_bready=1
[TRACE_W_FIFO] 2345000 W_FIFO_WR m=1 last=0 data=0x81cee596
[TRACE_XBAR_B] 2355000 M side m=0 m_bvalid=0 m_bready=1
[TRACE] 2355000 AW pre-FIFO m=1 addr=0x00005be0 len=8
[TRACE_W] 2355000 W pre-FIFO HS m=1 last=0 data=0x81cee596 strb=0xf
[TRACE_W_FIFO] 2355000 W_FIFO_WR m=1 last=0 data=0xbd56737f
[TRACE_W_FIFO] 2355000 W_FIFO_RD m=1 last=0 data=0x81cee596
[TRACE_W_XBAR] 2355000 W_XBAR_M m=1 last=0 data=0x00000000
UVM_INFO ./uvm/axi_slave_agent.sv(84) @ 2365000: uvm_test_top.env.slv_ag2 [TRACE] S[2] SLV AW handshake id=75 addr=0x00005be0 len=8
[TRACE_XBAR_B] 2365000 M side m=0 m_bvalid=0 m_bready=1
[TRACE_W] 2365000 W pre-FIFO HS m=1 last=0 data=0xbd56737f strb=0xf
[TRACE] 2365000 AW at slave s=2 addr=0x00005be0 len=8
[TRACE_W_FIFO] 2365000 W_FIFO_WR m=1 last=0 data=0x9ae7f589
[TRACE_W_FIFO] 2365000 W_FIFO_RD m=1 last=0 data=0xbd56737f
[TRACE_W_XBAR] 2365000 W_XBAR_M m=1 last=0 data=0x00000000
[TRACE_W_XBAR] 2365000 W_XBAR_S s=2 last=0 data=0x00000000
UVM_INFO ./uvm/axi_slave_agent.sv(112) @ 2375000: uvm_test_top.env.slv_ag2 [TRACE] S[2] SLV W beat 0 data=0x81cee596 last=0
[TRACE_XBAR_B] 2375000 M side m=0 m_bvalid=0 m_bready=1
[TRACE_W] 2375000 W pre-FIFO HS m=1 last=0 data=0x9ae7f589 strb=0xf
[TRACE_W] 2375000 W slave HS s=2 last=0 data=0x81cee596
[TRACE_W_FIFO] 2375000 W_FIFO_WR m=1 last=0 data=0xb70c93c7
[TRACE_W_FIFO] 2375000 W_FIFO_RD m=1 last=0 data=0x9ae7f589
[TRACE_W_XBAR] 2375000 W_XBAR_M m=1 last=0 data=0x00000000
[TRACE_W_XBAR] 2375000 W_XBAR_S s=2 last=0 data=0x00000000
UVM_INFO ./uvm/axi_slave_agent.sv(112) @ 2385000: uvm_test_top.env.slv_ag2 [TRACE] S[2] SLV W beat 1 data=0xbd56737f last=0
[TRACE_XBAR_B] 2385000 M side m=0 m_bvalid=0 m_bready=1
[TRACE_W] 2385000 W pre-FIFO HS m=1 last=0 data=0xb70c93c7 strb=0xf
[TRACE_W] 2385000 W slave HS s=2 last=0 data=0xbd56737f
[TRACE_W_FIFO] 2385000 W_FIFO_WR m=1 last=0 data=0x462bddb4
[TRACE_W_FIFO] 2385000 W_FIFO_RD m=1 last=0 data=0xb70c93c7
[TRACE_W_XBAR] 2385000 W_XBAR_M m=1 last=0 data=0x00000000
[TRACE_W_XBAR] 2385000 W_XBAR_S s=2 last=0 data=0x00000000
UVM_INFO ./uvm/axi_slave_agent.sv(112) @ 2395000: uvm_test_top.env.slv_ag2 [TRACE] S[2] SLV W beat 2 data=0x9ae7f589 last=0
[TRACE_XBAR_B] 2395000 M side m=0 m_bvalid=0 m_bready=1
[TRACE_W] 2395000 W pre-FIFO HS m=1 last=0 data=0x462bddb4 strb=0xf
[TRACE_W] 2395000 W slave HS s=2 last=0 data=0x9ae7f589
[TRACE_W_FIFO] 2395000 W_FIFO_WR m=1 last=0 data=0xb08aac74
[TRACE_W_FIFO] 2395000 W_FIFO_RD m=1 last=0 data=0x462bddb4
[TRACE_W_XBAR] 2395000 W_XBAR_M m=1 last=0 data=0x00000000
[TRACE_W_XBAR] 2395000 W_XBAR_S s=2 last=0 data=0x00000000
UVM_INFO ./uvm/axi_slave_agent.sv(112) @ 2405000: uvm_test_top.env.slv_ag2 [TRACE] S[2] SLV W beat 3 data=0xb70c93c7 last=0
[TRACE_XBAR_B] 2405000 M side m=0 m_bvalid=0 m_bready=1
[TRACE_W] 2405000 W pre-FIFO HS m=1 last=0 data=0xb08aac74 strb=0xf
[TRACE_W] 2405000 W slave HS s=2 last=0 data=0xb70c93c7
[TRACE_W_FIFO] 2405000 W_FIFO_WR m=1 last=0 data=0x45dada81
[TRACE_W_FIFO] 2405000 W_FIFO_RD m=1 last=0 data=0xb08aac74
[TRACE_W_XBAR] 2405000 W_XBAR_M m=1 last=0 data=0x00000000
[TRACE_W_XBAR] 2405000 W_XBAR_S s=2 last=0 data=0x00000000
UVM_INFO ./uvm/axi_slave_agent.sv(112) @ 2415000: uvm_test_top.env.slv_ag2 [TRACE] S[2] SLV W beat 4 data=0x462bddb4 last=0
[TRACE_XBAR_B] 2415000 M side m=0 m_bvalid=0 m_bready=1
[TRACE_W] 2415000 W pre-FIFO HS m=1 last=0 data=0x45dada81 strb=0xf
[TRACE_W] 2415000 W slave HS s=2 last=0 data=0x462bddb4
[TRACE_W_FIFO] 2415000 W_FIFO_WR m=1 last=0 data=0x008c992d
[TRACE_W_FIFO] 2415000 W_FIFO_RD m=1 last=0 data=0x45dada81
[TRACE_W_XBAR] 2415000 W_XBAR_M m=1 last=0 data=0x00000000
[TRACE_W_XBAR] 2415000 W_XBAR_S s=2 last=0 data=0x00000000
UVM_INFO ./uvm/axi_slave_agent.sv(112) @ 2425000: uvm_test_top.env.slv_ag2 [TRACE] S[2] SLV W beat 5 data=0xb08aac74 last=0
[TRACE_XBAR_B] 2425000 M side m=0 m_bvalid=0 m_bready=1
[TRACE_W] 2425000 W pre-FIFO HS m=1 last=0 data=0x008c992d strb=0xf
[TRACE_W] 2425000 W slave HS s=2 last=0 data=0xb08aac74
[TRACE_W_FIFO] 2425000 W_FIFO_WR m=1 last=1 data=0x9c6d30a4
[TRACE_W_FIFO] 2425000 W_FIFO_RD m=1 last=0 data=0x008c992d
[TRACE_W_XBAR] 2425000 W_XBAR_M m=1 last=0 data=0x00000000
[TRACE_W_XBAR] 2425000 W_XBAR_S s=2 last=0 data=0x00000000
UVM_INFO ./uvm/axi_slave_agent.sv(112) @ 2435000: uvm_test_top.env.slv_ag2 [TRACE] S[2] SLV W beat 6 data=0x45dada81 last=0
[TRACE_XBAR_B] 2435000 M side m=0 m_bvalid=0 m_bready=1
[TRACE_W] 2435000 W pre-FIFO HS m=1 last=1 data=0x9c6d30a4 strb=0xf
[TRACE_W] 2435000 W slave HS s=2 last=0 data=0x45dada81
[TRACE_W_FIFO] 2435000 W_FIFO_RD m=1 last=1 data=0x9c6d30a4
[TRACE_W_XBAR] 2435000 W_XBAR_M m=1 last=1 data=0x00000000
[TRACE_W_XBAR] 2435000 W_XBAR_S s=2 last=0 data=0x00000000
UVM_INFO ./uvm/axi_slave_agent.sv(112) @ 2445000: uvm_test_top.env.slv_ag2 [TRACE] S[2] SLV W beat 7 data=0x008c992d last=0
[TRACE_XBAR_B] 2445000 M side m=0 m_bvalid=0 m_bready=1
[TRACE_W] 2445000 W slave HS s=2 last=0 data=0x008c992d
[TRACE_W_XBAR] 2445000 W_XBAR_S s=2 last=1 data=0x00000000
UVM_INFO ./uvm/axi_slave_agent.sv(112) @ 2455000: uvm_test_top.env.slv_ag2 [TRACE] S[2] SLV W beat 8 data=0x9c6d30a4 last=1
[TRACE_XBAR_B] 2455000 M side m=0 m_bvalid=0 m_bready=1
[TRACE_W] 2455000 W slave HS s=2 last=1 data=0x9c6d30a4
[TRACE_XBAR_B] 2465000 M side m=0 m_bvalid=0 m_bready=1
[TRACE] 2465000 B  from slave s=2
[TRACE_XBAR_B] 2475000 M side m=0 m_bvalid=0 m_bready=1
[TRACE] 2475000 B  to master m=1
[2485000] M[1] DRV B Handshake! BID=11 b_pending_size=1
UVM_INFO ./uvm/axi_driver.sv(190) @ 2485000: uvm_test_top.env.mst_ag1.drv_m1 [TRACE] M[1] DRV B resp=0 id=11
[TRACE_XBAR_B] 2485000 M side m=0 m_bvalid=0 m_bready=1
UVM_INFO ./uvm/axi_driver.sv(126) @ 2485000: uvm_test_top.env.mst_ag1.drv_m1 [TRACE] M[1] DRV AW start addr=0x00001670 id=13
[TRACE_XBAR_B] 2495000 M side m=0 m_bvalid=0 m_bready=1
[TRACE_W_FIFO] 2495000 W_FIFO_WR m=1 last=1 data=0x9c4b63b7
[TRACE_XBAR_B] 2505000 M side m=0 m_bvalid=0 m_bready=1
[TRACE] 2505000 AW pre-FIFO m=1 addr=0x00001670 len=0
[TRACE_W] 2505000 W pre-FIFO HS m=1 last=1 data=0x9c4b63b7 strb=0xf
[TRACE_W_FIFO] 2505000 W_FIFO_RD m=1 last=1 data=0x9c4b63b7
[TRACE_W_XBAR] 2505000 W_XBAR_M m=1 last=1 data=0x00000000
UVM_INFO ./uvm/axi_slave_agent.sv(84) @ 2515000: uvm_test_top.env.slv_ag0 [TRACE] S[0] SLV AW handshake id=77 addr=0x00001670 len=0
[TRACE_XBAR_B] 2515000 M side m=0 m_bvalid=0 m_bready=1
[TRACE] 2515000 AW at slave s=0 addr=0x00001670 len=0
[TRACE_W_XBAR] 2515000 W_XBAR_S s=0 last=1 data=0x00000001
UVM_INFO ./uvm/axi_slave_agent.sv(112) @ 2525000: uvm_test_top.env.slv_ag0 [TRACE] S[0] SLV W beat 0 data=0x9c4b63b7 last=1
[TRACE_XBAR_B] 2525000 M side m=0 m_bvalid=0 m_bready=1
[TRACE_W] 2525000 W slave HS s=0 last=1 data=0x9c4b63b7
[TRACE_XBAR_B] 2535000 M side m=0 m_bvalid=0 m_bready=1
[TRACE] 2535000 B slave handshake s=0 id=0x4d
[TRACE] 2535000 B  from slave s=0
[TRACE_XBAR_B] 2545000 S side s=0 s_bvalid=1 s_bready=1
[TRACE_XBAR_B] 2545000 M side m=0 m_bvalid=0 m_bready=1
[TRACE] 2545000 B pre-FIFO out s=0 id=0x4d
[TRACE] 2545000 B  to master m=1
[2555000] M[1] DRV B Handshake! BID=13 b_pending_size=1
UVM_INFO ./uvm/axi_driver.sv(190) @ 2555000: uvm_test_top.env.mst_ag1.drv_m1 [TRACE] M[1] DRV B resp=0 id=13
[TRACE_XBAR_B] 2555000 M side m=0 m_bvalid=0 m_bready=1
UVM_INFO ./uvm/axi_driver.sv(126) @ 2555000: uvm_test_top.env.mst_ag1.drv_m1 [TRACE] M[1] DRV AW start addr=0x00001c7c id=9
[TRACE_XBAR_B] 2565000 M side m=0 m_bvalid=0 m_bready=1
[TRACE_W_FIFO] 2565000 W_FIFO_WR m=1 last=0 data=0xec9caf19
[TRACE_XBAR_B] 2575000 M side m=0 m_bvalid=0 m_bready=1
[TRACE] 2575000 AW pre-FIFO m=1 addr=0x00001c7c len=7
[TRACE_W] 2575000 W pre-FIFO HS m=1 last=0 data=0xec9caf19 strb=0xf
[TRACE_W_FIFO] 2575000 W_FIFO_WR m=1 last=0 data=0xddadd782
[TRACE_W_FIFO] 2575000 W_FIFO_RD m=1 last=0 data=0xec9caf19
[TRACE_W_XBAR] 2575000 W_XBAR_M m=1 last=0 data=0x00000000
UVM_INFO ./uvm/axi_slave_agent.sv(84) @ 2585000: uvm_test_top.env.slv_ag0 [TRACE] S[0] SLV AW handshake id=73 addr=0x00001c7c len=7
[TRACE_XBAR_B] 2585000 M side m=0 m_bvalid=0 m_bready=1
[TRACE_W] 2585000 W pre-FIFO HS m=1 last=0 data=0xddadd782 strb=0xf
[TRACE] 2585000 AW at slave s=0 addr=0x00001c7c len=7
[TRACE_W_FIFO] 2585000 W_FIFO_WR m=1 last=0 data=0xc843f914
[TRACE_W_FIFO] 2585000 W_FIFO_RD m=1 last=0 data=0xddadd782
[TRACE_W_XBAR] 2585000 W_XBAR_M m=1 last=0 data=0x00000000
[TRACE_W_XBAR] 2585000 W_XBAR_S s=0 last=0 data=0x00000001
UVM_INFO ./uvm/axi_slave_agent.sv(112) @ 2595000: uvm_test_top.env.slv_ag0 [TRACE] S[0] SLV W beat 0 data=0xec9caf19 last=0
[TRACE_XBAR_B] 2595000 M side m=0 m_bvalid=0 m_bready=1
[TRACE_W] 2595000 W pre-FIFO HS m=1 last=0 data=0xc843f914 strb=0xf
[TRACE_W] 2595000 W slave HS s=0 last=0 data=0xec9caf19
[TRACE_W_FIFO] 2595000 W_FIFO_WR m=1 last=0 data=0x7ce03eea
[TRACE_W_FIFO] 2595000 W_FIFO_RD m=1 last=0 data=0xc843f914
[TRACE_W_XBAR] 2595000 W_XBAR_M m=1 last=0 data=0x00000000
[TRACE_W_XBAR] 2595000 W_XBAR_S s=0 last=0 data=0x00000000
UVM_INFO ./uvm/axi_slave_agent.sv(112) @ 2605000: uvm_test_top.env.slv_ag0 [TRACE] S[0] SLV W beat 1 data=0xddadd782 last=0
[TRACE_XBAR_B] 2605000 M side m=0 m_bvalid=0 m_bready=1
[TRACE_W] 2605000 W pre-FIFO HS m=1 last=0 data=0x7ce03eea strb=0xf
[TRACE_W] 2605000 W slave HS s=0 last=0 data=0xddadd782
[TRACE_W_FIFO] 2605000 W_FIFO_WR m=1 last=0 data=0xf40bc7a4
[TRACE_W_FIFO] 2605000 W_FIFO_RD m=1 last=0 data=0x7ce03eea
[TRACE_W_XBAR] 2605000 W_XBAR_M m=1 last=0 data=0x00000000
[TRACE_W_XBAR] 2605000 W_XBAR_S s=0 last=0 data=0x00000000
UVM_INFO ./uvm/axi_slave_agent.sv(112) @ 2615000: uvm_test_top.env.slv_ag0 [TRACE] S[0] SLV W beat 2 data=0xc843f914 last=0
[TRACE_XBAR_B] 2615000 M side m=0 m_bvalid=0 m_bready=1
[TRACE_W] 2615000 W pre-FIFO HS m=1 last=0 data=0xf40bc7a4 strb=0xf
[TRACE_W] 2615000 W slave HS s=0 last=0 data=0xc843f914
[TRACE_W_FIFO] 2615000 W_FIFO_WR m=1 last=0 data=0x68d4d21e
[TRACE_W_FIFO] 2615000 W_FIFO_RD m=1 last=0 data=0xf40bc7a4
[TRACE_W_XBAR] 2615000 W_XBAR_M m=1 last=0 data=0x00000000
[TRACE_W_XBAR] 2615000 W_XBAR_S s=0 last=0 data=0x00000000
UVM_INFO ./uvm/axi_slave_agent.sv(112) @ 2625000: uvm_test_top.env.slv_ag0 [TRACE] S[0] SLV W beat 3 data=0x7ce03eea last=0
[TRACE_XBAR_B] 2625000 M side m=0 m_bvalid=0 m_bready=1
[TRACE_W] 2625000 W pre-FIFO HS m=1 last=0 data=0x68d4d21e strb=0xf
[TRACE_W] 2625000 W slave HS s=0 last=0 data=0x7ce03eea
[TRACE_W_FIFO] 2625000 W_FIFO_WR m=1 last=0 data=0xded74c0f
[TRACE_W_FIFO] 2625000 W_FIFO_RD m=1 last=0 data=0x68d4d21e
[TRACE_W_XBAR] 2625000 W_XBAR_M m=1 last=0 data=0x00000000
[TRACE_W_XBAR] 2625000 W_XBAR_S s=0 last=0 data=0x00000000
