// ========== c:/Users/22612/Desktop/AXI4/rtl/aw_order_fifo.v ==========
module aw_order_fifo
#(
    parameter DATA_WIDTH  = 11,   // {MST_ID_W, ALEN_W} width
    parameter FIFO_DEPTH  = 8,    // Number of entries (power of 2 recommended)
    parameter PTR_W       = $clog2(FIFO_DEPTH)
)
(
    input  wire                   clk,
    input  wire                   rst_n,
    
    // Write port
    input  wire                   wr_en,
    input  wire [DATA_WIDTH-1:0]  wr_data,
    output wire                   wr_full,
    
    // Read port
    input  wire                   rd_en,
    output wire [DATA_WIDTH-1:0]  rd_data,
    output wire                   rd_empty,
    
    // Status
    output wire [PTR_W:0]         item_cnt
);

// Internal registers
reg  [PTR_W-1:0]  wr_ptr;
reg  [PTR_W-1:0]  rd_ptr;
reg  [PTR_W:0]    fill_cnt;

// Memory array
reg [DATA_WIDTH-1:0] mem [0:FIFO_DEPTH-1];

// Read data output (combinational)
assign rd_data = mem[rd_ptr];

// Full/Empty flags
assign wr_full  = (fill_cnt == FIFO_DEPTH);
assign rd_empty = (fill_cnt == 0);
assign item_cnt = fill_cnt;

// Write pointer & data storage
always @(posedge clk) begin
    if (!rst_n) begin
        wr_ptr   <= '0;
        fill_cnt <= '0;
    end else begin
        if (wr_en && !wr_full) begin
            mem[wr_ptr] <= wr_data;
            wr_ptr      <= wr_ptr + 1'b1;
        end
        // Update fill_cnt for write
        if (wr_en && !wr_full) begin
            fill_cnt <= fill_cnt + 1'b1;
        end
        // Update fill_cnt for read
        if (rd_en && !rd_empty) begin
            fill_cnt <= fill_cnt - 1'b1;
        end
    end
end

// Read pointer
always @(posedge clk) begin
    if (!rst_n) begin
        rd_ptr   <= '0;
    end else if (rd_en && !rd_empty) begin
        rd_ptr   <= rd_ptr + 1'b1;
    end
end

endmodule

// ========== c:/Users/22612/Desktop/AXI4/rtl/axi_arbiter_m2s_m_amt.v ==========
module axi_arbiter_m2s_m_amt #(
    parameter W_CID = 4,
    parameter W_ID  = 4,
    parameter NUM   = 3          // Number of requesters (parameterized)
)(
    input  wire                  AXI_RSTn,
    input  wire                  AXI_CLK,
    
    // AW channel arbitration
    input  wire  [NUM-1:0]       AWSELECT, AWVALID, AWREADY,
    output wire  [NUM-1:0]       AWGRANT,
    input  wire                  S_AWREADY,
    
    // AR channel arbitration
    input  wire  [NUM-1:0]       ARSELECT, ARVALID, ARREADY,
    output wire  [NUM-1:0]       ARGRANT,
    input  wire                  S_ARREADY,
    
    input  wire                  arbiter_type    // 0: RR, 1: Fixed
);
    //=========================================================================
    // AW Arbitration Logic
    //=========================================================================
    localparam STAW_RUN = 1'b0, STAW_WAIT = 1'b1;
    reg [NUM-1:0] awgrant_reg;
    reg         stateAW = STAW_RUN;
    wire [NUM-1:0] aw_sel;

    // Parameterized RR/Fixed Arbiter Instance
    axi_arbiter_param_rr #(
        .NUM(NUM)
    ) u_arbiter_aw (
        .clk          (AXI_CLK),
        .rst_n        (AXI_RSTn),
        .arbiter_type (arbiter_type),
        .req          (AWSELECT & AWVALID),
        .grant        (aw_sel)
    );

    // Handshake Hold State Machine
    always @(posedge AXI_CLK) begin
        if (!AXI_RSTn) begin
            awgrant_reg <= '0;
            stateAW     <= STAW_RUN;
        end else begin
            case (stateAW)
                STAW_RUN: begin
                    if (|AWGRANT) begin
                        // Hold grant if slave not ready (use S_AWREADY to avoid race)
                        if (!S_AWREADY) begin
                            awgrant_reg <= AWGRANT;
                            stateAW     <= STAW_WAIT;
                        end
                    end
                end
                STAW_WAIT: begin
                    if (S_AWREADY) begin
                        stateAW <= STAW_RUN;
                    end
                end
            endcase
        end
    end
    assign AWGRANT = (stateAW == STAW_RUN) ? aw_sel : awgrant_reg;

    //=========================================================================
    // AR Arbitration Logic (Mirrors AW)
    //=========================================================================
    localparam STAR_RUN = 1'b0, STAR_WAIT = 1'b1;
    reg [NUM-1:0] argrant_reg;
    reg         stateAR = STAR_RUN;
    wire [NUM-1:0] ar_sel;

    axi_arbiter_param_rr #(
        .NUM(NUM)
    ) u_arbiter_ar (
        .clk          (AXI_CLK),
        .rst_n        (AXI_RSTn),
        .arbiter_type (arbiter_type),
        .req          (ARSELECT & ARVALID),
        .grant        (ar_sel)
    );

    always @(posedge AXI_CLK) begin
        if (!AXI_RSTn) begin
            argrant_reg <= '0;
            stateAR     <= STAR_RUN;
        end else begin
            case (stateAR)
                STAR_RUN: begin
                    if (|ARGRANT) begin
                        // Hold grant if slave not ready (use S_ARREADY to avoid race)
                        if (!S_ARREADY) begin
                            argrant_reg <= ARGRANT;
                            stateAR     <= STAR_WAIT;
                        end
                    end
                end
                STAR_WAIT: begin
                    if (S_ARREADY) begin
                        stateAR <= STAR_RUN;
                    end
                end
            endcase
        end
    end
    assign ARGRANT = (stateAR == STAR_RUN) ? ar_sel : argrant_reg;

endmodule

// ========== c:/Users/22612/Desktop/AXI4/rtl/axi_arbiter_param_rr.v ==========
module axi_arbiter_param_rr #(
    parameter NUM = 4
)(
    input  wire              clk,
    input  wire              rst_n,
    input  wire              arbiter_type, // 0: RR, 1: Fixed
    input  wire [NUM-1:0]    req,
    output wire [NUM-1:0]    grant
);
    localparam PTR_W = (NUM > 1) ? $clog2(NUM) : 1;

    reg  [PTR_W-1:0] rr_ptr;      // Points to next priority start index
    wire [NUM-1:0]   grant_nxt;
    wire [NUM-1:0]   fixed_grant;

    // ---------------------------------------------------------
    // Priority Encoder: Returns one-hot of the lowest index '1'
    // ---------------------------------------------------------
    function automatic [NUM-1:0] pri_enc;
        input [NUM-1:0] mask;
        integer i;
        begin
            pri_enc = {NUM{1'b0}};
            for(i = 0; i < NUM; i = i + 1) begin
                if(mask[i]) begin
                    pri_enc = 1'b1 << i;
                    break;
                end
            end
        end
    endfunction

    // ---------------------------------------------------------
    // Fixed Priority
    // ---------------------------------------------------------
    assign fixed_grant = pri_enc(req);

    // ---------------------------------------------------------
    // Round Robin Logic (if NUM > 1)
    // ---------------------------------------------------------
    generate
        if (NUM > 1) begin : rr_gen
            // Rotate request vector so that rr_ptr becomes logical index 0
            wire [2*NUM-1:0] req_rot = {req, req} >> rr_ptr;
            wire [NUM-1:0]   pri_rot = pri_enc(req_rot[NUM-1:0]);

            // Convert rotated one-hot back to absolute winner index
            reg [PTR_W-1:0] winner_idx;
            always @(*) begin
                winner_idx = 0;
                for(int i = 0; i < NUM; i = i + 1) begin
                    if(pri_rot[i]) begin
                        winner_idx = i[PTR_W-1:0];
                        break;
                    end
                end
            end

            // Map back to absolute one-hot grant
            assign grant_nxt = (|req) ? (1'b1 << ((winner_idx + rr_ptr) % NUM)) : {NUM{1'b0}};

            // RR Pointer Update
            always @(posedge clk) begin
                if(!rst_n) begin
                    rr_ptr <= {PTR_W{1'b0}};
                end else if(grant != 0) begin
                    rr_ptr <= (winner_idx + 1'b1) % NUM;
                end
            end
        end else begin : single_requester
            // When only one requester, grant is simply the request
            assign grant_nxt = req;
            // rr_ptr unused, tie to 0
            always @(posedge clk) begin
                if(!rst_n) rr_ptr <= 0;
                else rr_ptr <= 0;
            end
        end
    endgenerate

    // Output MUX
    assign grant = (arbiter_type) ? fixed_grant : grant_nxt;

endmodule

// ========== c:/Users/22612/Desktop/AXI4/rtl/axi_crossbar.v ==========
module axi_crossbar
#(
    // ========== 互连配置 ==========
    parameter MST_AMT               = 4,              // 主设备数量
    parameter SLV_AMT               = 4,              // 从设备数量
    parameter OUTSTANDING_AMT       = 8,              // 每主设备最大未完成事务数

    // ========== 事务配置 ==========
    parameter W_ID        = 4,              // 主设备事务 ID 位宽
    parameter TRANS_BURST_W         = 2,              // xBURST 字段位宽
    parameter TRANS_DATA_LEN_W      = 8,              // xLEN 字段位宽
    parameter TRANS_DATA_SIZE_W     = 3,              // xSIZE 字段位宽
    parameter TRANS_WR_RESP_W       = 2,              // xRESP 字段位宽
    parameter DATA_WIDTH            = 32,             // 数据总线位宽
    parameter ADDR_WIDTH            = 32,             // 地址总线位宽

    // ========== 派生参数 ==========
    parameter MST_ID_W              = $clog2(MST_AMT),           // 主设备索引编码位宽
    parameter SLV_ID_W              = 2,           // 从设备索引编码位宽
    parameter W_STRB                = DATA_WIDTH / 8,            // 字节使能位宽
    parameter W_MID                 = SLV_ID_W + W_ID, // master-side ID width after cross_4k_if extension
    parameter W_SID                 = MST_ID_W + SLV_ID_W + W_ID, // 从设备侧 ID 位宽 (MST_IDX + C4K_PREFIX + ORIG_ID)

    // ========== 地址映射配置 ==========
    // 默认: 地址高位用于选择从设备
    parameter SLV_ID_MSB_IDX        = ADDR_WIDTH - 1,
    parameter SLV_ID_LSB_IDX        = ADDR_WIDTH - SLV_ID_W,

    // ========== 从设备地址基址数组 ==========
    // 格式: {SLV_AMT{ADDR_WIDTH{1'b0}}} - 用户需按从设备逐一覆写
    parameter [(SLV_AMT*ADDR_WIDTH)-1:0] SLV_ADDR_BASE = 'b0,
    parameter [(SLV_AMT*8)-1:0]          SLV_ADDR_LEN  = {SLV_AMT{8'd12}}, // 默认 12 位译码

    // ========== 默认从设备配置 ==========
    parameter DEFAULT_SLV_IDX       = 0,              // 默认从设备索引 (未命中地址空间的访问)
    parameter DEFAULT_SLV_EN        = 1'b1,           // 使能默认从设备路由
    parameter [SLV_AMT-1:0] SLV_DEFAULT_MASK = ((DEFAULT_SLV_EN) ? (1 << DEFAULT_SLV_IDX) : '0)  // bit[s]=1 表示 slave s 为默认设备
)
(
    // ========== 全局信号 ==========
    input   wire                      AXI_RSTn,
    input   wire                      AXI_CLK,

    // ========== 主设备侧接口 (扁平化) ==========
    // -- 写地址通道 (AW)
    input   wire  [W_MID*MST_AMT-1              : 0]  m_AWID_i,
    input   wire  [ADDR_WIDTH*MST_AMT-1         : 0]  m_AWADDR_i,
    input   wire  [TRANS_BURST_W*MST_AMT-1      : 0]  m_AWBURST_i,
    input   wire  [TRANS_DATA_LEN_W*MST_AMT-1   : 0]  m_AWLEN_i,
    input   wire  [TRANS_DATA_SIZE_W*MST_AMT-1  : 0]  m_AWSIZE_i,
    input   wire  [MST_AMT-1                    : 0]  m_AWVALID_i,
    output  wire  [MST_AMT-1                    : 0]  m_AWREADY_o,

    // -- 写数据通道 (W)
    input   wire  [DATA_WIDTH*MST_AMT-1         : 0]  m_WDATA_i,
    input   wire  [W_STRB*MST_AMT-1             : 0]  m_WSTRB_i,
    input   wire  [MST_AMT-1                    : 0]  m_WLAST_i,
    input   wire  [MST_AMT-1                    : 0]  m_WVALID_i,
    output  wire  [MST_AMT-1                    : 0]  m_WREADY_o,

    // -- 写响应通道 (B)
    output  wire  [W_SID*MST_AMT-1              : 0]  m_BID_o,
    output  wire  [TRANS_WR_RESP_W*MST_AMT-1    : 0]  m_BRESP_o,
    output  wire  [MST_AMT-1                    : 0]  m_BVALID_o,
    input   wire  [MST_AMT-1                    : 0]  m_BREADY_i,

    // -- 读地址通道 (AR)
    input   wire  [W_MID*MST_AMT-1              : 0]  m_ARID_i,
    input   wire  [ADDR_WIDTH*MST_AMT-1         : 0]  m_ARADDR_i,
    input   wire  [TRANS_BURST_W*MST_AMT-1      : 0]  m_ARBURST_i,
    input   wire  [TRANS_DATA_LEN_W*MST_AMT-1   : 0]  m_ARLEN_i,
    input   wire  [TRANS_DATA_SIZE_W*MST_AMT-1  : 0]  m_ARSIZE_i,
    input   wire  [MST_AMT-1                    : 0]  m_ARVALID_i,
    output  wire  [MST_AMT-1                    : 0]  m_ARREADY_o,

    // -- 读数据通道 (R)
    output  wire  [W_SID*MST_AMT-1              : 0]  m_RID_o,
    output  wire  [DATA_WIDTH*MST_AMT-1         : 0]  m_RDATA_o,
    output  wire  [TRANS_WR_RESP_W*MST_AMT-1    : 0]  m_RRESP_o,
    output  wire  [MST_AMT-1                    : 0]  m_RLAST_o,
    output  wire  [MST_AMT-1                    : 0]  m_RVALID_o,
    input   wire  [MST_AMT-1                    : 0]  m_RREADY_i,

    // -- 主设备侧 R SID 输出 (完整 W_SID，用于 reorder/sid_buffer)
    output  wire  [W_SID*MST_AMT-1              : 0]  m_RSID_o,

    // ========== 从设备侧接口 (扁平化) ==========
    // -- 写地址通道 (AW)
    output  wire  [W_SID*SLV_AMT-1              : 0]  s_AWID_o,
    output  wire  [ADDR_WIDTH*SLV_AMT-1         : 0]  s_AWADDR_o,
    output  wire  [TRANS_BURST_W*SLV_AMT-1      : 0]  s_AWBURST_o,
    output  wire  [TRANS_DATA_LEN_W*SLV_AMT-1   : 0]  s_AWLEN_o,
    output  wire  [TRANS_DATA_SIZE_W*SLV_AMT-1  : 0]  s_AWSIZE_o,
    output  wire  [SLV_AMT-1                    : 0]  s_AWVALID_o,
    input   wire  [SLV_AMT-1                    : 0]  s_AWREADY_i,

    // -- 写数据通道 (W)
    output  wire  [DATA_WIDTH*SLV_AMT-1         : 0]  s_WDATA_o,
    output  wire  [W_STRB*SLV_AMT-1             : 0]  s_WSTRB_o,
    output  wire  [SLV_AMT-1                    : 0]  s_WLAST_o,
    output  wire  [SLV_AMT-1                    : 0]  s_WVALID_o,
    input   wire  [SLV_AMT-1                    : 0]  s_WREADY_i,

    // -- 写响应通道 (B)
    input   wire  [W_SID*SLV_AMT-1              : 0]  s_BID_i,
    input   wire  [TRANS_WR_RESP_W*SLV_AMT-1    : 0]  s_BRESP_i,
    input   wire  [SLV_AMT-1                    : 0]  s_BVALID_i,
    output  wire  [SLV_AMT-1                    : 0]  s_BREADY_o,

    // -- 读地址通道 (AR)
    output  wire  [W_SID*SLV_AMT-1              : 0]  s_ARID_o,
    output  wire  [ADDR_WIDTH*SLV_AMT-1         : 0]  s_ARADDR_o,
    output  wire  [TRANS_BURST_W*SLV_AMT-1      : 0]  s_ARBURST_o,
    output  wire  [TRANS_DATA_LEN_W*SLV_AMT-1   : 0]  s_ARLEN_o,
    output  wire  [TRANS_DATA_SIZE_W*SLV_AMT-1  : 0]  s_ARSIZE_o,
    output  wire  [SLV_AMT-1                    : 0]  s_ARVALID_o,
    input   wire  [SLV_AMT-1                    : 0]  s_ARREADY_i,

    // -- 读数据通道 (R)
    input   wire  [W_SID*SLV_AMT-1              : 0]  s_RID_i,
    input   wire  [DATA_WIDTH*SLV_AMT-1         : 0]  s_RDATA_i,
    input   wire  [TRANS_WR_RESP_W*SLV_AMT-1    : 0]  s_RRESP_i,
    input   wire  [SLV_AMT-1                    : 0]  s_RLAST_i,
    input   wire  [SLV_AMT-1                    : 0]  s_RVALID_i,
    output  wire  [SLV_AMT-1                    : 0]  s_RREADY_o,

    // ========== 控制 / 状态端口 ==========
    input   wire                      arbiter_type,           // 0: 轮询 (Round-Robin), 1: 固定优先级 (Fixed-Priority)

    // 可选: 从设备使能掩码
    input   wire  [SLV_AMT-1          : 0]  slv_en_i
);

//=============================================================================
// 本地参数与内部信号声明
//=============================================================================
localparam ADDR_DECODE_W = SLV_ID_MSB_IDX - SLV_ID_LSB_IDX + 1;

// ========== 扁平化内部数组 (主设备侧) ==========
wire [W_MID-1:0]             m_awid      [0:MST_AMT-1];
wire [ADDR_WIDTH-1:0]        m_awaddr    [0:MST_AMT-1];
wire [TRANS_BURST_W-1:0]     m_awburst   [0:MST_AMT-1];
wire [TRANS_DATA_LEN_W-1:0]  m_awlen     [0:MST_AMT-1];
wire [TRANS_DATA_SIZE_W-1:0] m_awsize    [0:MST_AMT-1];
wire                         m_awvalid   [0:MST_AMT-1];
wire                         m_awready   [0:MST_AMT-1];

wire [DATA_WIDTH-1:0]        m_wdata     [0:MST_AMT-1];
wire [W_STRB-1:0]            m_wstrb     [0:MST_AMT-1];
wire                         m_wlast     [0:MST_AMT-1];
wire                         m_wvalid    [0:MST_AMT-1];
wire                         m_wready    [0:MST_AMT-1];

wire [W_SID-1:0]              m_bid       [0:MST_AMT-1];
wire [TRANS_WR_RESP_W-1:0]   m_bresp     [0:MST_AMT-1];
wire                         m_bvalid    [0:MST_AMT-1];
wire                         m_bready    [0:MST_AMT-1];

wire [W_MID-1:0]             m_arid      [0:MST_AMT-1];
wire [ADDR_WIDTH-1:0]        m_araddr    [0:MST_AMT-1];
wire [TRANS_BURST_W-1:0]     m_arburst   [0:MST_AMT-1];
wire [TRANS_DATA_LEN_W-1:0]  m_arlen     [0:MST_AMT-1];
wire [TRANS_DATA_SIZE_W-1:0] m_arsize    [0:MST_AMT-1];
wire                         m_arvalid   [0:MST_AMT-1];
wire                         m_arready   [0:MST_AMT-1];

wire [W_SID-1:0]             m_rid       [0:MST_AMT-1];
wire [DATA_WIDTH-1:0]        m_rdata     [0:MST_AMT-1];
wire [TRANS_WR_RESP_W-1:0]   m_rresp     [0:MST_AMT-1];
wire                         m_rlast     [0:MST_AMT-1];
wire                         m_rvalid    [0:MST_AMT-1];
wire                         m_rready    [0:MST_AMT-1];

wire [W_SID-1:0]             m_rsid      [0:MST_AMT-1];   // 来自 S2M 的完整从设备侧 RID

// ========== 扁平化内部数组 (从设备侧) ==========
wire [W_SID-1:0]             s_awid      [0:SLV_AMT-1];
wire [ADDR_WIDTH-1:0]        s_awaddr    [0:SLV_AMT-1];
wire [TRANS_BURST_W-1:0]     s_awburst   [0:SLV_AMT-1];
wire [TRANS_DATA_LEN_W-1:0]  s_awlen     [0:SLV_AMT-1];
wire [TRANS_DATA_SIZE_W-1:0] s_awsize    [0:SLV_AMT-1];
wire                         s_awvalid   [0:SLV_AMT-1];
wire                         s_awready   [0:SLV_AMT-1];

wire [DATA_WIDTH-1:0]        s_wdata     [0:SLV_AMT-1];
wire [W_STRB-1:0]            s_wstrb     [0:SLV_AMT-1];
wire                         s_wlast     [0:SLV_AMT-1];
wire                         s_wvalid    [0:SLV_AMT-1];
wire                         s_wready    [0:SLV_AMT-1];

wire [W_SID-1:0]             s_bid       [0:SLV_AMT-1];
wire [TRANS_WR_RESP_W-1:0]   s_bresp     [0:SLV_AMT-1];
wire                         s_bvalid    [0:SLV_AMT-1];
wire                         s_bready    [0:SLV_AMT-1];

wire [W_SID-1:0]             s_arid      [0:SLV_AMT-1];
wire [ADDR_WIDTH-1:0]        s_araddr    [0:SLV_AMT-1];
wire [TRANS_BURST_W-1:0]     s_arburst   [0:SLV_AMT-1];
wire [TRANS_DATA_LEN_W-1:0]  s_arlen     [0:SLV_AMT-1];
wire [TRANS_DATA_SIZE_W-1:0] s_arsize    [0:SLV_AMT-1];
wire                         s_arvalid   [0:SLV_AMT-1];
wire                         s_arready   [0:SLV_AMT-1];

wire [W_SID-1:0]             s_rid       [0:SLV_AMT-1];
wire [DATA_WIDTH-1:0]        s_rdata     [0:SLV_AMT-1];
wire [TRANS_WR_RESP_W-1:0]   s_rresp     [0:SLV_AMT-1];
wire                         s_rlast     [0:SLV_AMT-1];
wire                         s_rvalid    [0:SLV_AMT-1];
wire                         s_rready    [0:SLV_AMT-1];

// ========== M2S 互连信号 ==========
// AWSELECT/ARSELECT: 每从设备的地址译码结果 [MST_AMT-1:0]
wire [MST_AMT-1:0]           awselect_out [0:SLV_AMT-1];
wire [MST_AMT-1:0]           arselect_out [0:SLV_AMT-1];

// 默认从设备 M2S 的 AWSELECT_IN = OR(所有非默认从设备的 awselect_out)
wire [MST_AMT-1:0]           awselect_or_nondefault;
wire [MST_AMT-1:0]           arselect_or_nondefault;

// Ready 聚合: 收集每个 (从设备, 主设备) 对的 M2S ready，然后按主设备 OR 归约
wire                         m_awready_m2s [0:SLV_AMT-1][0:MST_AMT-1];
wire                         m_wready_m2s  [0:SLV_AMT-1][0:MST_AMT-1];
wire                         m_arready_m2s [0:SLV_AMT-1][0:MST_AMT-1];

// ========== S2M 互连信号 ==========
// 收集每个 (主设备, 从设备) 对的 S2M ready，然后按从设备 OR 归约
wire                         s_bready_s2m [0:MST_AMT-1][0:SLV_AMT-1];
wire                         s_rready_s2m [0:MST_AMT-1][0:SLV_AMT-1];

//=============================================================================
// 端口扁平化: 主设备侧 (解包)
//=============================================================================
genvar m, s;
generate
    for(m = 0; m < MST_AMT; m = m + 1) begin : UNPACK_MASTER
        // AW 通道
        assign m_awid[m]     = m_AWID_i[W_MID*(m+1)-1 -: W_MID];
        assign m_awaddr[m]   = m_AWADDR_i[ADDR_WIDTH*(m+1)-1 -: ADDR_WIDTH];
        assign m_awburst[m]  = m_AWBURST_i[TRANS_BURST_W*(m+1)-1 -: TRANS_BURST_W];
        assign m_awlen[m]    = m_AWLEN_i[TRANS_DATA_LEN_W*(m+1)-1 -: TRANS_DATA_LEN_W];
        assign m_awsize[m]   = m_AWSIZE_i[TRANS_DATA_SIZE_W*(m+1)-1 -: TRANS_DATA_SIZE_W];
        assign m_awvalid[m]  = m_AWVALID_i[m];
        assign m_AWREADY_o[m] = m_awready[m];
        
        // W 通道
        assign m_wdata[m]    = m_WDATA_i[DATA_WIDTH*(m+1)-1 -: DATA_WIDTH];
        assign m_wstrb[m]    = m_WSTRB_i[W_STRB*(m+1)-1 -: W_STRB];
        assign m_wlast[m]    = m_WLAST_i[m];
        assign m_wvalid[m]   = m_WVALID_i[m];
        assign m_WREADY_o[m] = m_wready[m];
        
        // B 通道
        assign m_BID_o[W_SID*(m+1)-1 -: W_SID] = m_bid[m];
        assign m_BRESP_o[TRANS_WR_RESP_W*(m+1)-1 -: TRANS_WR_RESP_W] = m_bresp[m];
        assign m_BVALID_o[m] = m_bvalid[m];
        assign m_bready[m]   = m_BREADY_i[m];
        
        // AR 通道
        assign m_arid[m]     = m_ARID_i[W_MID*(m+1)-1 -: W_MID];
        assign m_araddr[m]   = m_ARADDR_i[ADDR_WIDTH*(m+1)-1 -: ADDR_WIDTH];
        assign m_arburst[m]  = m_ARBURST_i[TRANS_BURST_W*(m+1)-1 -: TRANS_BURST_W];
        assign m_arlen[m]    = m_ARLEN_i[TRANS_DATA_LEN_W*(m+1)-1 -: TRANS_DATA_LEN_W];
        assign m_arsize[m]   = m_ARSIZE_i[TRANS_DATA_SIZE_W*(m+1)-1 -: TRANS_DATA_SIZE_W];
        assign m_arvalid[m]  = m_ARVALID_i[m];
        assign m_ARREADY_o[m] = m_arready[m];
        // TRACE
        always @(posedge AXI_CLK) begin
            if (m == 0 && m_ARREADY_o[m])
                $display("[TRACE] %0t XBAR M_ARREADY m=%0d", $time, m);
        end
        
        // R 通道
        assign m_rid[m]    = m_rsid[m];                // pass full W_SID, no stripping
        assign m_RSID_o[W_SID*(m+1)-1 -: W_SID] = m_rsid[m];
        assign m_RID_o[W_SID*(m+1)-1 -: W_SID] = m_rid[m];
        assign m_RDATA_o[DATA_WIDTH*(m+1)-1 -: DATA_WIDTH] = m_rdata[m];
        assign m_RRESP_o[TRANS_WR_RESP_W*(m+1)-1 -: TRANS_WR_RESP_W] = m_rresp[m];
        assign m_RLAST_o[m] = m_rlast[m];
        assign m_RVALID_o[m] = m_rvalid[m];
        assign m_rready[m]   = m_RREADY_i[m];
    end
endgenerate

//=============================================================================
// 端口扁平化: 从设备侧 (打包)
// 默认从设备 (SLV_DEFAULT_MASK[s]==1) 的外部端口被 tie-off,
// 其 s_awready / s_wready / s_arready / B / R 信号由 INST_M2S 中的
// axi_default_slave 驱动
//=============================================================================
generate
    for(s = 0; s < SLV_AMT; s = s + 1) begin : PACK_SLAVE
        if (!SLV_DEFAULT_MASK[s]) begin : NORMAL_SLV
            // AW 通道
            assign s_AWID_o[W_SID*(s+1)-1 -: W_SID]       = s_awid[s];
            assign s_AWADDR_o[ADDR_WIDTH*(s+1)-1 -: ADDR_WIDTH] = s_awaddr[s];
            assign s_AWBURST_o[TRANS_BURST_W*(s+1)-1 -: TRANS_BURST_W] = s_awburst[s];
            assign s_AWLEN_o[TRANS_DATA_LEN_W*(s+1)-1 -: TRANS_DATA_LEN_W] = s_awlen[s];
            assign s_AWSIZE_o[TRANS_DATA_SIZE_W*(s+1)-1 -: TRANS_DATA_SIZE_W] = s_awsize[s];
            assign s_AWVALID_o[s] = s_awvalid[s];
            assign s_awready[s]   = s_AWREADY_i[s];

            // W 通道
            assign s_WDATA_o[DATA_WIDTH*(s+1)-1 -: DATA_WIDTH] = s_wdata[s];
            assign s_WSTRB_o[W_STRB*(s+1)-1 -: W_STRB] = s_wstrb[s];
            assign s_WLAST_o[s] = s_wlast[s];
            assign s_WVALID_o[s] = s_wvalid[s];
            assign s_wready[s]   = s_WREADY_i[s];

            // B 通道
            assign s_bid[s]      = s_BID_i[W_SID*(s+1)-1 -: W_SID];
            assign s_bresp[s]    = s_BRESP_i[TRANS_WR_RESP_W*(s+1)-1 -: TRANS_WR_RESP_W];
            assign s_bvalid[s]   = s_BVALID_i[s];
            assign s_BREADY_o[s] = s_bready[s];

            // AR 通道
            assign s_ARID_o[W_SID*(s+1)-1 -: W_SID]       = s_arid[s];
        // TRACE
        always @(posedge AXI_CLK) begin
            if (s_ARVALID_o[s])
                $display("[TRACE] %0t XBAR S_ARVALID s=%0d addr=0x%08h", $time, s, s_ARADDR_o[ADDR_WIDTH*(s+1)-1 -: ADDR_WIDTH]);
        end
            assign s_ARADDR_o[ADDR_WIDTH*(s+1)-1 -: ADDR_WIDTH] = s_araddr[s];
            assign s_ARBURST_o[TRANS_BURST_W*(s+1)-1 -: TRANS_BURST_W] = s_arburst[s];
            assign s_ARLEN_o[TRANS_DATA_LEN_W*(s+1)-1 -: TRANS_DATA_LEN_W] = s_arlen[s];
            assign s_ARSIZE_o[TRANS_DATA_SIZE_W*(s+1)-1 -: TRANS_DATA_SIZE_W] = s_arsize[s];
            assign s_ARVALID_o[s] = s_arvalid[s];
            assign s_arready[s]   = s_ARREADY_i[s];

            // R 通道
            assign s_rid[s]      = s_RID_i[W_SID*(s+1)-1 -: W_SID];
            assign s_rdata[s]    = s_RDATA_i[DATA_WIDTH*(s+1)-1 -: DATA_WIDTH];
            assign s_rresp[s]    = s_RRESP_i[TRANS_WR_RESP_W*(s+1)-1 -: TRANS_WR_RESP_W];
            assign s_rlast[s]    = s_RLAST_i[s];
            assign s_rvalid[s]   = s_RVALID_i[s];
            assign s_RREADY_o[s] = s_rready[s];
        end else begin : DEFAULT_SLV
            // 默认从设备: 外部 AW/W/AR 端口 tie-off
            assign s_AWID_o[W_SID*(s+1)-1 -: W_SID]       = {W_SID{1'b0}};
            assign s_AWADDR_o[ADDR_WIDTH*(s+1)-1 -: ADDR_WIDTH] = {ADDR_WIDTH{1'b0}};
            assign s_AWBURST_o[TRANS_BURST_W*(s+1)-1 -: TRANS_BURST_W] = {TRANS_BURST_W{1'b0}};
            assign s_AWLEN_o[TRANS_DATA_LEN_W*(s+1)-1 -: TRANS_DATA_LEN_W] = {TRANS_DATA_LEN_W{1'b0}};
            assign s_AWSIZE_o[TRANS_DATA_SIZE_W*(s+1)-1 -: TRANS_DATA_SIZE_W] = {TRANS_DATA_SIZE_W{1'b0}};
            assign s_AWVALID_o[s] = 1'b0;
            // s_awready[s] 由 INST_M2S 中的 axi_default_slave 驱动

            assign s_WDATA_o[DATA_WIDTH*(s+1)-1 -: DATA_WIDTH] = {DATA_WIDTH{1'b0}};
            assign s_WSTRB_o[W_STRB*(s+1)-1 -: W_STRB] = {W_STRB{1'b0}};
            assign s_WLAST_o[s] = 1'b0;
            assign s_WVALID_o[s] = 1'b0;
            // s_wready[s] 由 INST_M2S 中的 axi_default_slave 驱动

            // B 通道输入由 INST_M2S 中的 axi_default_slave 驱动
            assign s_BREADY_o[s] = 1'b0;

            assign s_ARID_o[W_SID*(s+1)-1 -: W_SID]       = {W_SID{1'b0}};
            assign s_ARADDR_o[ADDR_WIDTH*(s+1)-1 -: ADDR_WIDTH] = {ADDR_WIDTH{1'b0}};
            assign s_ARBURST_o[TRANS_BURST_W*(s+1)-1 -: TRANS_BURST_W] = {TRANS_BURST_W{1'b0}};
            assign s_ARLEN_o[TRANS_DATA_LEN_W*(s+1)-1 -: TRANS_DATA_LEN_W] = {TRANS_DATA_LEN_W{1'b0}};
            assign s_ARSIZE_o[TRANS_DATA_SIZE_W*(s+1)-1 -: TRANS_DATA_SIZE_W] = {TRANS_DATA_SIZE_W{1'b0}};
            assign s_ARVALID_o[s] = 1'b0;
            // s_arready[s] 由 INST_M2S 中的 axi_default_slave 驱动

            // R 通道输入由 INST_M2S 中的 axi_default_slave 驱动
            assign s_RREADY_o[s] = 1'b0;
        end
    end
endgenerate

//=============================================================================
// 默认从设备 AWSELECT_IN/ARSELECT_IN 归约
// awselect_or_nondefault = bitwise OR(所有非默认从设备的 awselect_out)
// 默认从设备 M2S 内部做 ~AWSELECT_IN, 实现 "未被任何其他从设备选中" 的译码
//=============================================================================
generate
    if (|SLV_DEFAULT_MASK) begin : DEFAULT_OR
        wire [MST_AMT-1:0] aw_chain [0:SLV_AMT];
        wire [MST_AMT-1:0] ar_chain [0:SLV_AMT];
        assign aw_chain[0] = {MST_AMT{1'b0}};
        assign ar_chain[0] = {MST_AMT{1'b0}};
        for (s = 0; s < SLV_AMT; s = s + 1) begin
            if (!SLV_DEFAULT_MASK[s]) begin
                assign aw_chain[s+1] = aw_chain[s] | awselect_out[s];
                assign ar_chain[s+1] = ar_chain[s] | arselect_out[s];
            end else begin
                assign aw_chain[s+1] = aw_chain[s];
                assign ar_chain[s+1] = ar_chain[s];
            end
        end
        assign awselect_or_nondefault = aw_chain[SLV_AMT];
        assign arselect_or_nondefault = ar_chain[SLV_AMT];
    end else begin
        assign awselect_or_nondefault = {MST_AMT{1'b0}};
        assign arselect_or_nondefault = {MST_AMT{1'b0}};
    end
endgenerate

//=============================================================================
// Ready 聚合: 主设备侧 (M2S OR 归约)
// 对于每个主设备 m，只要存在任意一个从设备 s 的 M2S 返回 ready，则该主设备 ready
//=============================================================================
generate
    for(m = 0; m < MST_AMT; m = m + 1) begin : READY_AGG_M
        wire [SLV_AMT-1:0] aw_rdy_vec, w_rdy_vec, ar_rdy_vec;
        for(s = 0; s < SLV_AMT; s = s + 1) begin : AGG_SLV
            assign aw_rdy_vec[s] = m_awready_m2s[s][m];
            assign w_rdy_vec[s]  = m_wready_m2s[s][m];
        // TRACE
        always @(posedge AXI_CLK) begin
            if (m_arready[0])
                $display("[TRACE] %0t XBAR m_arready[0]=1 ar_rdy_vec=%b", $time, ar_rdy_vec);
        end
            assign ar_rdy_vec[s] = m_arready_m2s[s][m];
        end
        assign m_awready[m] = |aw_rdy_vec;
        assign m_wready[m]  = |w_rdy_vec;
        assign m_arready[m] = |ar_rdy_vec;
    end
endgenerate

//=============================================================================
// Ready 聚合: 从设备侧 (S2M OR 归约)
// 对于每个从设备 s，只要存在任意一个主设备 m 的 S2M 返回 ready，则该从设备 ready
//=============================================================================
generate
    for(s = 0; s < SLV_AMT; s = s + 1) begin : READY_AGG_S
        wire [MST_AMT-1:0] b_rdy_vec, r_rdy_vec;
        for(m = 0; m < MST_AMT; m = m + 1) begin : AGG_MST
            assign b_rdy_vec[m] = s_bready_s2m[m][s];
            assign r_rdy_vec[m] = s_rready_s2m[m][s];
        end
        assign s_bready[s] = |b_rdy_vec;
        assign s_rready[s] = |r_rdy_vec;
    end
endgenerate

//=============================================================================
// M2S 模块实例化: 每个从设备一个 (axi_m2s_m_amt)
//=============================================================================
wire [MST_AMT-1:0] m_w_busy;                          // per-master W busy (aggregated)
wire [MST_AMT-1:0] m2s_w_busy_arr [0:SLV_AMT-1];      // per-slave W busy vectors
generate
    for(s = 0; s < SLV_AMT; s = s + 1) begin : INST_M2S
        // 构造打包的主设备数组以连接 M2S 模块
        wire [W_MID*MST_AMT-1:0] m_awid_packed;
        wire [ADDR_WIDTH*MST_AMT-1:0]     m_awaddr_packed;
        wire [TRANS_DATA_LEN_W*MST_AMT-1:0] m_awlen_packed;
        wire [TRANS_DATA_SIZE_W*MST_AMT-1:0] m_awsize_packed;
        wire [TRANS_BURST_W*MST_AMT-1:0] m_awburst_packed;
        wire [MST_AMT-1:0] m_awvalid_packed;
        wire [MST_AMT-1:0] m_awready_packed;
        
        wire [DATA_WIDTH*MST_AMT-1:0] m_wdata_packed;
        wire [W_STRB*MST_AMT-1:0]     m_wstrb_packed;
        wire [MST_AMT-1:0] m_wlast_packed;
        wire [MST_AMT-1:0] m_wvalid_packed;
        wire [MST_AMT-1:0] m_wready_packed;
        
        wire [W_MID*MST_AMT-1:0] m_arid_packed;
        wire [ADDR_WIDTH*MST_AMT-1:0]     m_araddr_packed;
        wire [TRANS_DATA_LEN_W*MST_AMT-1:0] m_arlen_packed;
        wire [TRANS_DATA_SIZE_W*MST_AMT-1:0] m_arsize_packed;
        wire [TRANS_BURST_W*MST_AMT-1:0] m_arburst_packed;
        wire [MST_AMT-1:0] m_arvalid_packed;
        wire [MST_AMT-1:0] m_arready_packed;

        // W routing control: signals from M2S (declared before use in PACK_M2S)
        wire [MST_AMT-1:0] m2s_w_accept;  // per-master: this M2S is receiving W beats
        wire [MST_AMT-1:0] m2s_w_busy;    // per-master: this M2S has pending W

        // 将内部解包数组重新打包为扁平化向量
        for(m = 0; m < MST_AMT; m = m + 1) begin : PACK_M2S
            assign m_awid_packed[W_MID*m +: W_MID] = m_awid[m];
            assign m_awaddr_packed[ADDR_WIDTH*m +: ADDR_WIDTH] = m_awaddr[m];
            assign m_awlen_packed[TRANS_DATA_LEN_W*m +: TRANS_DATA_LEN_W] = m_awlen[m];
            assign m_awsize_packed[TRANS_DATA_SIZE_W*m +: TRANS_DATA_SIZE_W] = m_awsize[m];
            assign m_awburst_packed[TRANS_BURST_W*m +: TRANS_BURST_W] = m_awburst[m];
            // AW: stalled if this master has pending W anywhere (same-slave pipeline via AW-order FIFO)
            assign m_awvalid_packed[m] = m_awvalid[m] && !m_w_busy[m];
            assign m_wdata_packed[DATA_WIDTH*m +: DATA_WIDTH] = m_wdata[m];
            assign m_wstrb_packed[W_STRB*m +: W_STRB] = m_wstrb[m];
            assign m_wlast_packed[m] = m_wlast[m];
            // W: only accepted by the slave currently processing this master's W
            assign m_wvalid_packed[m] = m_wvalid[m] && m2s_w_accept[m];
            assign m_arid_packed[W_MID*m +: W_MID] = m_arid[m];
            assign m_araddr_packed[ADDR_WIDTH*m +: ADDR_WIDTH] = m_araddr[m];
            assign m_arlen_packed[TRANS_DATA_LEN_W*m +: TRANS_DATA_LEN_W] = m_arlen[m];
            assign m_arsize_packed[TRANS_DATA_SIZE_W*m +: TRANS_DATA_SIZE_W] = m_arsize[m];
            assign m_arburst_packed[TRANS_BURST_W*m +: TRANS_BURST_W] = m_arburst[m];
            assign m_arvalid_packed[m] = m_arvalid[m];
            
            // Ready 输出: 将 M2S 实例 s 对主设备 m 的 ready 写入 2D 数组
            assign m_awready_m2s[s][m] = m_awready_packed[m];
            assign m_wready_m2s[s][m]  = m_wready_packed[m];
            assign m_arready_m2s[s][m] = m_arready_packed[m];
        end

        // M2S 输出的中间信号 (所有从设备的 awselect_out/arselect_out 均由 M2S 驱动)
        wire [MST_AMT-1:0] m2s_awsel, m2s_arsel;

        axi_m2s_m_amt #(
            .ADDR_BASE(SLV_ADDR_BASE[ADDR_WIDTH*(s+1)-1 -: ADDR_WIDTH]),
            .ADDR_LENGTH(SLV_ADDR_LEN[8*(s+1)-1 -: 8]),
            .M_ID_W(MST_ID_W),
            .W_ID(W_MID),
            .W_ADDR(ADDR_WIDTH),
            .W_DATA(DATA_WIDTH),
            .W_STRB(W_STRB),
            .W_SID(W_SID),
            .MST_AMT(MST_AMT),
            .OUTSTANDING_AMT(OUTSTANDING_AMT),
            .ALEN_W(TRANS_DATA_LEN_W),
            .ASIZE_W(TRANS_DATA_SIZE_W),
            .ABURST_W(TRANS_BURST_W),
            .SLAVE_DEFAULT(SLV_DEFAULT_MASK[s])
        ) u_axi_m2s (
            .AXI_RSTn(AXI_RSTn),
            .AXI_CLK(AXI_CLK),

            .M_AWID(m_awid_packed),
            .M_AWADDR(m_awaddr_packed),
            .M_AWLEN(m_awlen_packed),
            .M_AWSIZE(m_awsize_packed),
            .M_AWBURST(m_awburst_packed),
            .M_AWVALID(m_awvalid_packed),
            .M_AWREADY(m_awready_packed),

            .M_WDATA(m_wdata_packed),
            .M_WSTRB(m_wstrb_packed),
            .M_WLAST(m_wlast_packed),
            .M_WVALID(m_wvalid_packed),
            .M_WREADY(m_wready_packed),

            .M_ARID(m_arid_packed),
            .M_ARADDR(m_araddr_packed),
            .M_ARLEN(m_arlen_packed),
            .M_ARSIZE(m_arsize_packed),
            .M_ARBURST(m_arburst_packed),
            .M_ARVALID(m_arvalid_packed),
            .M_ARREADY(m_arready_packed),

            .S_AWID(s_awid[s]),
            .S_AWADDR(s_awaddr[s]),
            .S_AWLEN(s_awlen[s]),
            .S_AWSIZE(s_awsize[s]),
            .S_AWBURST(s_awburst[s]),
            .S_AWVALID(s_awvalid[s]),
            .S_AWREADY(s_awready[s]),

            .S_WDATA(s_wdata[s]),
            .S_WSTRB(s_wstrb[s]),
            .S_WLAST(s_wlast[s]),
            .S_WVALID(s_wvalid[s]),
            .S_WREADY(s_wready[s]),

            .S_ARID(s_arid[s]),
            .S_ARADDR(s_araddr[s]),
            .S_ARLEN(s_arlen[s]),
            .S_ARSIZE(s_arsize[s]),
            .S_ARBURST(s_arburst[s]),
            .S_ARVALID(s_arvalid[s]),
            .S_ARREADY(s_arready[s]),

            .AWSELECT_OUT(m2s_awsel),
            .ARSELECT_OUT(m2s_arsel),
            .AWSELECT_IN(awselect_or_nondefault),
            .ARSELECT_IN(arselect_or_nondefault),
            .arbiter_type(arbiter_type),
            .slv_en(slv_en_i[s]),

            .W_ACCEPT(m2s_w_accept),
            .W_BUSY(m2s_w_busy)
        );

        // Export per-slave W busy for crossbar-level aggregation
        assign m2s_w_busy_arr[s] = m2s_w_busy;

        // 默认从设备: 例化 axi_default_slave 驱动 ready / B / R 信号
        if (SLV_DEFAULT_MASK[s]) begin : GEN_DEFAULT_SLV
            axi_default_slave #(
                .W_CID(SLV_ID_W),
                .W_ID(W_MID),
                .W_ADDR(ADDR_WIDTH),
                .W_DATA(DATA_WIDTH),
                .W_STRB(W_STRB),
                .W_SID(W_SID)
            ) u_axi_default_slave (
                .AXI_RSTn(AXI_RSTn),
                .AXI_CLK (AXI_CLK),

                .AWID    (s_awid[s]),
                .AWADDR  (s_awaddr[s]),
                .AWLEN   (s_awlen[s]),
                .AWSIZE  (s_awsize[s]),
                .AWBURST (s_awburst[s]),
                .AWVALID (s_awvalid[s]),
                .AWREADY (s_awready[s]),

                .WDATA   (s_wdata[s]),
                .WSTRB   (s_wstrb[s]),
                .WLAST   (s_wlast[s]),
                .WVALID  (s_wvalid[s]),
                .WREADY  (s_wready[s]),

                .BID     (s_bid[s]),
                .BRESP   (s_bresp[s]),
                .BVALID  (s_bvalid[s]),
                .BREADY  (s_bready[s]),

                .ARID    (s_arid[s]),
                .ARADDR  (s_araddr[s]),
                .ARLEN   (s_arlen[s]),
                .ARSIZE  (s_arsize[s]),
                .ARBURST (s_arburst[s]),
                .ARVALID (s_arvalid[s]),
                .ARREADY (s_arready[s]),

                .RID     (s_rid[s]),
                .RDATA   (s_rdata[s]),
                .RRESP   (s_rresp[s]),
                .RLAST   (s_rlast[s]),
                .RVALID  (s_rvalid[s]),
                .RREADY  (s_rready[s])
            );
        end

        assign awselect_out[s] = m2s_awsel;
        assign arselect_out[s] = m2s_arsel;
    end
endgenerate

//=============================================================================
// Per-master W busy aggregation: any slave has pending W for this master
//=============================================================================
genvar mb;
generate
    for (mb = 0; mb < MST_AMT; mb = mb + 1) begin : GEN_M_W_BUSY
        wire [SLV_AMT-1:0] busy_or;
        for (s = 0; s < SLV_AMT; s = s + 1) begin : BUSY_SLV
            assign busy_or[s] = m2s_w_busy_arr[s][mb];
        end
        assign m_w_busy[mb] = |busy_or;
    end
endgenerate

//=============================================================================
// S2M 模块实例化: 每个主设备一个 (axi_s2m_s_amt)
//=============================================================================
generate
    for(m = 0; m < MST_AMT; m = m + 1) begin : INST_S2M
        // 构造打包的从设备数组以连接 S2M 模块
        wire [W_SID*SLV_AMT-1:0] s_bid_packed;
        wire [TRANS_WR_RESP_W*SLV_AMT-1:0] s_bresp_packed;
        wire [SLV_AMT-1:0] s_bvalid_packed;
        wire [SLV_AMT-1:0] s_bready_packed;
        
        wire [W_SID*SLV_AMT-1:0] s_rid_packed;
        wire [DATA_WIDTH*SLV_AMT-1:0] s_rdata_packed;
        wire [TRANS_WR_RESP_W*SLV_AMT-1:0] s_rresp_packed;
        wire [SLV_AMT-1:0] s_rlast_packed;
        wire [SLV_AMT-1:0] s_rvalid_packed;
        wire [SLV_AMT-1:0] s_rready_packed;
        
        for(s = 0; s < SLV_AMT; s = s + 1) begin : PACK_S2M
            assign s_bid_packed[W_SID*s +: W_SID] = s_bid[s];
            assign s_bresp_packed[TRANS_WR_RESP_W*s +: TRANS_WR_RESP_W] = s_bresp[s];
            assign s_bvalid_packed[s] = s_bvalid[s];
            assign s_rid_packed[W_SID*s +: W_SID] = s_rid[s];
            assign s_rdata_packed[DATA_WIDTH*s +: DATA_WIDTH] = s_rdata[s];
            assign s_rresp_packed[TRANS_WR_RESP_W*s +: TRANS_WR_RESP_W] = s_rresp[s];
            assign s_rlast_packed[s] = s_rlast[s];
            assign s_rvalid_packed[s] = s_rvalid[s];
            
            assign s_bready_s2m[m][s] = s_bready_packed[s];
            assign s_rready_s2m[m][s] = s_rready_packed[s];
        end

        axi_s2m_s_amt #(
            .MASTER_ID(m),
            .W_CID(MST_ID_W),
            .W_ID(W_MID),
            .W_ADDR(ADDR_WIDTH),
            .W_DATA(DATA_WIDTH),
            .W_STRB(W_STRB),
            .W_SID(W_SID),
            .SLV_AMT(SLV_AMT),
            .MST_ID_FIELD_MSB(MST_ID_W + W_MID - 1),
            .MST_ID_FIELD_LSB(W_MID)
        ) u_axi_s2m (
            .AXI_RSTn(AXI_RSTn),
            .AXI_CLK(AXI_CLK),
            
            .M_BID(m_bid[m]),
            .M_BRESP(m_bresp[m]),
            .M_BVALID(m_bvalid[m]),
            .M_BREADY(m_bready[m]),
            
            .M_RSID(m_rsid[m]),
            .M_RDATA(m_rdata[m]),
            .M_RRESP(m_rresp[m]),
            .M_RLAST(m_rlast[m]),
            .M_RVALID(m_rvalid[m]),
            .M_RREADY(m_rready[m]),
            
            .S_BID(s_bid_packed),
            .S_BRESP(s_bresp_packed),
            .S_BVALID(s_bvalid_packed),
            .S_BREADY(s_bready_packed),
            
            .S_RID(s_rid_packed),
            .S_RDATA(s_rdata_packed),
            .S_RRESP(s_rresp_packed),
            .S_RLAST(s_rlast_packed),
            .S_RVALID(s_rvalid_packed),
            .S_RREADY(s_rready_packed),
            
            .arbiter_type(arbiter_type)
        );
    end
endgenerate

endmodule

// ========== c:/Users/22612/Desktop/AXI4/rtl/axi_default_slave.v ==========
module axi_default_slave
     #(parameter W_CID  = 4        // Channel ID width
               , W_ID   = 4        // ID width
               , W_ADDR = 32       // address width
               , W_DATA = 32       // data width
               , W_STRB = W_DATA/8 // data strobe width
               , W_SID  = W_CID+W_ID
      )
(
       input  wire                  AXI_RSTn
     , input  wire                  AXI_CLK
     , input  wire [W_SID-1:0]      AWID
     , input  wire [W_ADDR-1:0]     AWADDR
     , input  wire [ 7:0]           AWLEN
     , input  wire [ 2:0]           AWSIZE
     , input  wire [ 1:0]           AWBURST
     , input  wire                  AWVALID
     , output reg                   AWREADY

     , input  wire [W_DATA-1:0]     WDATA
     , input  wire [W_STRB-1:0]     WSTRB
     , input  wire                  WLAST
     , input  wire                  WVALID
     , output reg                   WREADY

     , output reg  [W_SID-1:0]      BID
     , output wire [ 1:0]           BRESP
     , output reg                   BVALID
     , input  wire                  BREADY

     , input  wire [W_SID-1:0]      ARID
     , input  wire [W_ADDR-1:0]     ARADDR
     , input  wire [ 7:0]           ARLEN
     , input  wire [ 2:0]           ARSIZE
     , input  wire [ 1:0]           ARBURST
     , input  wire                  ARVALID
     , output reg                   ARREADY

     , output reg  [W_SID-1:0]      RID
     , output wire [W_DATA-1:0]     RDATA
     , output wire [ 1:0]           RRESP
     , output reg                   RLAST
     , output reg                   RVALID
     , input  wire                  RREADY
);
     //-----------------------------------------------------------
     // write case
     assign BRESP = 2'b11; // DECERR: decode error
     reg [W_SID-1:0] awid_reg;
     reg [8:0] countW, awlen_reg;

     localparam STW_IDLE   = 'h0,
                STW_RUN    = 'h1,
                STW_WAIT   = 'h2,
                STW_RSP    = 'h3;
     reg [1:0] stateW=STW_IDLE;
     always @ (posedge AXI_CLK) begin
         if (!AXI_RSTn) begin
             AWREADY   <= 1'b0;
             WREADY    <= 1'b0;
             BID       <=  'h0;
             BVALID    <= 1'b0;
             countW    <=  'h0;
             awlen_reg <=  'h0;
             awid_reg  <=  'h0;
             stateW    <= STW_IDLE;
         end else begin
             case (stateW)
             STW_IDLE: begin
                 if (AWVALID==1'b1) begin
                     AWREADY <= 1'b1;
                     stateW  <= STW_RUN;
                 end
                 end // STW_IDLE
             STW_RUN: begin
                 if ((AWVALID==1'b1)&&(AWREADY==1'b1)) begin
                      AWREADY   <= 1'b0;
                      WREADY    <= 1'b1;
                      awlen_reg <= {1'b0,AWLEN};
                      awid_reg  <= AWID;
                      stateW    <= STW_WAIT;
                 end else begin
                 end
                 end // STW_IDLE
             STW_WAIT: begin
                 if (WVALID==1'b1) begin
                     if ((countW>=awlen_reg)||(WLAST==1'b1)) begin
                         BID    <= awid_reg;
                         BVALID <= 1'b1;
                         WREADY <= 1'b0;
                         countW <= 'h0;
                         stateW <= STW_RSP;
                         // synopsys translate_off
                         if (WLAST==1'b0) begin
                             $display("%04d %m Error expecting WLAST", $time);
                         end
                         // synopsys translate_on
                     end else begin
                         countW <= countW + 1;
                     end
                 end
                 end // STW_WAIT
             STW_RSP: begin
                 if (BREADY==1'b1) begin
                     BVALID  <= 1'b0;
                     if (AWVALID==1'b1) begin
                         AWREADY <= 1'b1;
                         stateW  <= STW_RUN;
                     end else begin
                         stateW  <= STW_IDLE;
                     end
                 end
                 end // STW_RSP
             endcase
         end
     end
     
     //-----------------------------------------------------------
     // read case
     assign RRESP = 2'b11; // DECERR; decode error
     assign RDATA = ~'h0;
     reg [W_SID-1:0] arid_reg;
     reg [8:0] countR, arlen_reg;

     localparam STR_IDLE   = 'h0,
                STR_RUN    = 'h1,
                STR_WAIT   = 'h2,
                STR_END    = 'h3;
     reg [1:0] stateR=STR_IDLE;
     always @ (posedge AXI_CLK) begin
         if (!AXI_RSTn) begin
             ARREADY   <= 1'b0;
             RID       <=  'h0;
             RLAST     <= 1'b0;
             RVALID    <= 1'b0;
             arid_reg  <=  'h0;
             arlen_reg <=  'h0;
             countR    <=  'h0;
             stateR    <= STR_IDLE;
         end else begin
             case (stateR)
             STR_IDLE: begin
                 if (ARVALID==1'b1) begin
                      ARREADY   <= 1'b1;
                      stateR    <= STR_RUN;
                 end
                 end // STR_IDLE
             STR_RUN: begin
                 if ((ARVALID==1'b1)&&(ARREADY==1'b1)) begin
                      ARREADY   <= 1'b0;
                      arlen_reg <= ARLEN+1;
                      arid_reg  <= ARID;
                      RID       <= ARID;
                      RVALID    <= 1'b1;
                      RLAST     <= (ARLEN=='h0) ? 1'b1 : 1'b0;
                      countR    <=  'h2;
                      stateR    <= STR_WAIT;
                 end
                 end // STR_IDLE
             STR_WAIT: begin
                 if (RREADY==1'b1) begin
                     if (countR>=(arlen_reg+1)) begin
                         RVALID  <= 1'b0;
                         RLAST   <= 1'b0;
                         countR  <= 'h0;
                         stateR  <= STR_END;
                     end else begin
                         if (countR==arlen_reg) RLAST  <= 1'b1;
                         countR <= countR + 1;
                     end
                 end
                 end // STR_WAIT
             STR_END: begin
                 if (ARVALID==1'b1) begin
                      ARREADY   <= 1'b1;
                      stateR    <= STR_RUN;
                 end else begin
                      stateR    <= STR_IDLE;
                 end
                 end // STR_END
             endcase
         end
     end
endmodule

// ========== c:/Users/22612/Desktop/AXI4/rtl/axi_fifo_sync.v ==========
// Synchronous FIFO
//----------------------------------------------------------------
// MACROS and PARAMETERS
//     FDW: bit-width of data
//     FAW: num of entries in power of 2
//----------------------------------------------------------------
// Features
//    * ready-valid handshake protocol
//    * First-Word Fall-Through, but rd_vld indicates its validity
//----------------------------------------------------------------
//    * data moves when both ready(rdy) and valid(vld) is high.
//    * ready(rdy) means the receiver is ready to accept data.
//    * valid(vld) means the data is valid on 'data'.
//----------------------------------------------------------------

module axi_fifo_sync
     #(parameter FDW =32, // fifof data width
                 FAW =5   // num of entries in 2 to the power FAW
                 )
(
       input   wire           rstn
     , input   wire           clr 
     , input   wire           clk

     , output  wire           wr_rdy
     , input   wire           wr_vld
     , input   wire [FDW-1:0] wr_din
     , input   wire           rd_rdy
     , output  wire           rd_vld
     , output  wire [FDW-1:0] rd_dout
);
    
   localparam FDT = 1 << FAW;

   wire           full     ;
   wire           empty    ;
   reg  [FAW:0]   item_cnt ;
   reg  [FAW:0]   fifo_head; // where data to be read
   reg  [FAW:0]   fifo_tail; // where data to be written
   reg  [FAW:0]   next_tail;
   reg  [FAW:0]   next_head;

   //---------------------------------------------------
   // synopsys translate_off
   initial fifo_head = 'h0;
   initial fifo_tail = 'h0;
   initial next_head = 'h0;
   initial next_tail = 'h0;
   // synopsys translate_on
   //---------------------------------------------------

   // push data item into the entry pointed by fifo_tail
   always @(posedge clk) begin
      if (!rstn) begin
          fifo_tail <= 0;
          next_tail <= 1;
      end else if (clr) begin
          fifo_tail <= 0;
          next_tail <= 1;
      end else begin
          if (!full && wr_vld) begin
              fifo_tail <= next_tail;
              next_tail <= next_tail + 1;
          end 
      end
   end

   // pop data item from the entry pointed by fifo_head
   always @(posedge clk) begin
      if (!rstn) begin
          fifo_head <= 0;
          next_head <= 1;
      end else if (clr) begin
          fifo_head <= 0;
          next_head <= 1;
      end else begin
          if (!empty && rd_rdy) begin
              fifo_head <= next_head;
              next_head <= next_head + 1;
          end
      end
   end

   always @(posedge clk) begin
      if (!rstn) begin
         item_cnt <= 0;
      end else if (clr) begin
         item_cnt <= 0;
      end else begin
         if (wr_vld && !full && (!rd_rdy || (rd_rdy && empty))) begin
             item_cnt <= item_cnt + 1;
         end else
         if (rd_rdy && !empty && (!wr_vld || (wr_vld && full))) begin
             item_cnt <= item_cnt - 1;
         end
      end
   end
   
   assign rd_vld = ~empty;
   assign wr_rdy = ~full;
   assign empty  = (fifo_head == fifo_tail);
   assign full   = (item_cnt >= FDT);

   reg [FDW-1:0] Mem [0:FDT-1];

   // synopsys translate_off
   integer i, j;
   initial begin
        for (i = 0; i < FDT; i++) begin
            for (j = 0; j < FDW; j++) begin
                Mem[i][j] = 'd0;
            end
            
        end
   end
   // synopsys translate_on

   assign rd_dout  = empty ? {FDW{1'b0}} : Mem[fifo_head[FAW-1:0]];

   always @(posedge clk) begin
       if (!full && wr_vld) begin
           Mem[fifo_tail[FAW-1:0]] <= wr_din;
       end
   end

   // TRACE: FIFO internal state — only on handshake or backpressure
   /*
   always @(posedge clk) begin
       if (rstn) begin
           // write or read handshake completed
           if ((wr_vld && wr_rdy) || (rd_vld && rd_rdy))
               $display("[TRACE_FIFO] %0t %m wr_vld=%b wr_rdy=%b rd_vld=%b rd_rdy=%b cnt=%0d full=%b empty=%b",
                        $time, wr_vld, wr_rdy, rd_vld, rd_rdy, item_cnt, full, empty);
           // backpressure: valid asserted but not ready
           if ((wr_vld && !wr_rdy) || (rd_vld && !rd_rdy))
               $display("[TRACE_FIFO] %0t %m STUCK wr_vld=%b wr_rdy=%b rd_vld=%b rd_rdy=%b cnt=%0d full=%b empty=%b",
                        $time, wr_vld, wr_rdy, rd_vld, rd_rdy, item_cnt, full, empty);
       end
   end
   */

endmodule

// ========== c:/Users/22612/Desktop/AXI4/rtl/axi_interconnect.v ==========
//=============================================================================
// Module: axi_interconnect
// Desc  : Top-level AXI Interconnect Wrapper with symmetric FIFOs on both sides
//         of the crossbar.
//         - Master side: pre-FIFO for AW/AR/W, post-FIFO for B/R
//         - Slave side:  post-FIFO for AW/AR/W, pre-FIFO for B/R
//=============================================================================
module axi_interconnect
#(
    parameter MST_AMT           = 4,
    parameter SLV_AMT           = 4,
    parameter OUTSTANDING_AMT   = 8,
    parameter W_ID              = 4,
    parameter DATA_WIDTH        = 32,
    parameter ADDR_WIDTH        = 32,
    parameter LEN_W             = 8,
    parameter SIZE_W            = 3,
    parameter BURST_W           = 2,
    parameter RESP_W            = 2,
    parameter W_STRB            = DATA_WIDTH / 8,
    parameter W_CID             = 2,               // cross_4k_if ID extension width
    parameter W_MID             = W_CID + W_ID,          // master-side ID width after cross_4k_if
    parameter W_SID             = $clog2(MST_AMT) + W_CID + W_ID,  // slave-side ID width

    // Address mapping (default: upper bits select slave)
    parameter [(SLV_AMT*ADDR_WIDTH)-1:0]  SLV_ADDR_BASE = '0,
    parameter [(SLV_AMT*8)-1:0]           SLV_ADDR_LEN  = {SLV_AMT{8'd12}}
)
(
    input   wire                      AXI_CLK,
    input   wire                      AXI_RSTn,

    // ========== Master Flattened Interface ==========
    // AW
    input   wire  [W_ID*MST_AMT-1             : 0]  M_AXI_AWID_i,
    input   wire  [ADDR_WIDTH*MST_AMT-1       : 0]  M_AXI_AWADDR_i,
    input   wire  [LEN_W*MST_AMT-1            : 0]  M_AXI_AWLEN_i,
    input   wire  [SIZE_W*MST_AMT-1           : 0]  M_AXI_AWSIZE_i,
    input   wire  [BURST_W*MST_AMT-1          : 0]  M_AXI_AWBURST_i,
    input   wire  [MST_AMT-1                  : 0]  M_AXI_AWVALID_i,
    output  wire  [MST_AMT-1                  : 0]  M_AXI_AWREADY_o,
    // W
    input   wire  [DATA_WIDTH*MST_AMT-1       : 0]  M_AXI_WDATA_i,
    input   wire  [W_STRB*MST_AMT-1           : 0]  M_AXI_WSTRB_i,
    input   wire  [MST_AMT-1                  : 0]  M_AXI_WLAST_i,
    input   wire  [MST_AMT-1                  : 0]  M_AXI_WVALID_i,
    output  wire  [MST_AMT-1                  : 0]  M_AXI_WREADY_o,
    // B
    output  wire  [W_ID*MST_AMT-1             : 0]  M_AXI_BID_o,
    output  wire  [RESP_W*MST_AMT-1           : 0]  M_AXI_BRESP_o,
    output  wire  [MST_AMT-1                  : 0]  M_AXI_BVALID_o,
    input   wire  [MST_AMT-1                  : 0]  M_AXI_BREADY_i,
    // AR
    input   wire  [W_ID*MST_AMT-1             : 0]  M_AXI_ARID_i,
    input   wire  [ADDR_WIDTH*MST_AMT-1       : 0]  M_AXI_ARADDR_i,
    input   wire  [LEN_W*MST_AMT-1            : 0]  M_AXI_ARLEN_i,
    input   wire  [SIZE_W*MST_AMT-1           : 0]  M_AXI_ARSIZE_i,
    input   wire  [BURST_W*MST_AMT-1          : 0]  M_AXI_ARBURST_i,
    input   wire  [MST_AMT-1                  : 0]  M_AXI_ARVALID_i,
    output  wire  [MST_AMT-1                  : 0]  M_AXI_ARREADY_o,
    // R
    output  wire  [W_ID*MST_AMT-1             : 0]  M_AXI_RID_o,
    output  wire  [DATA_WIDTH*MST_AMT-1       : 0]  M_AXI_RDATA_o,
    output  wire  [RESP_W*MST_AMT-1           : 0]  M_AXI_RRESP_o,
    output  wire  [MST_AMT-1                  : 0]  M_AXI_RLAST_o,
    output  wire  [MST_AMT-1                  : 0]  M_AXI_RVALID_o,
    input   wire  [MST_AMT-1                  : 0]  M_AXI_RREADY_i,

    // ========== Slave Flattened Interface ==========
    // AW
    output  wire  [W_SID*SLV_AMT-1            : 0]  S_AXI_AWID_o,
    output  wire  [ADDR_WIDTH*SLV_AMT-1       : 0]  S_AXI_AWADDR_o,
    output  wire  [LEN_W*SLV_AMT-1            : 0]  S_AXI_AWLEN_o,
    output  wire  [SIZE_W*SLV_AMT-1           : 0]  S_AXI_AWSIZE_o,
    output  wire  [BURST_W*SLV_AMT-1          : 0]  S_AXI_AWBURST_o,
    output  wire  [SLV_AMT-1                  : 0]  S_AXI_AWVALID_o,
    input   wire  [SLV_AMT-1                  : 0]  S_AXI_AWREADY_i,
    // W
    output  wire  [DATA_WIDTH*SLV_AMT-1       : 0]  S_AXI_WDATA_o,
    output  wire  [W_STRB*SLV_AMT-1           : 0]  S_AXI_WSTRB_o,
    output  wire  [SLV_AMT-1                  : 0]  S_AXI_WLAST_o,
    output  wire  [SLV_AMT-1                  : 0]  S_AXI_WVALID_o,
    input   wire  [SLV_AMT-1                  : 0]  S_AXI_WREADY_i,
    // B
    input   wire  [W_SID*SLV_AMT-1            : 0]  S_AXI_BID_i,
    input   wire  [RESP_W*SLV_AMT-1           : 0]  S_AXI_BRESP_i,
    input   wire  [SLV_AMT-1                  : 0]  S_AXI_BVALID_i,
    output  wire  [SLV_AMT-1                  : 0]  S_AXI_BREADY_o,
    // AR
    output  wire  [W_SID*SLV_AMT-1            : 0]  S_AXI_ARID_o,
    output  wire  [ADDR_WIDTH*SLV_AMT-1       : 0]  S_AXI_ARADDR_o,
    output  wire  [LEN_W*SLV_AMT-1            : 0]  S_AXI_ARLEN_o,
    output  wire  [SIZE_W*SLV_AMT-1           : 0]  S_AXI_ARSIZE_o,
    output  wire  [BURST_W*SLV_AMT-1          : 0]  S_AXI_ARBURST_o,
    output  wire  [SLV_AMT-1                  : 0]  S_AXI_ARVALID_o,
    input   wire  [SLV_AMT-1                  : 0]  S_AXI_ARREADY_i,
    // R
    input   wire  [W_SID*SLV_AMT-1            : 0]  S_AXI_RID_i,
    input   wire  [DATA_WIDTH*SLV_AMT-1       : 0]  S_AXI_RDATA_i,
    input   wire  [RESP_W*SLV_AMT-1           : 0]  S_AXI_RRESP_i,
    input   wire  [SLV_AMT-1                  : 0]  S_AXI_RLAST_i,
    input   wire  [SLV_AMT-1                  : 0]  S_AXI_RVALID_i,
    output  wire  [SLV_AMT-1                  : 0]  S_AXI_RREADY_o,

    // ========== Control Ports ==========
    input   wire                      arbiter_type
);

//=============================================================================
// Internal Arrays: Unpacked per Master
//=============================================================================
wire [W_ID-1:0]             m_awid      [0:MST_AMT-1];
wire [ADDR_WIDTH-1:0]       m_awaddr    [0:MST_AMT-1];
wire [LEN_W-1:0]            m_awlen     [0:MST_AMT-1];
wire [SIZE_W-1:0]           m_awsize    [0:MST_AMT-1];
wire [BURST_W-1:0]          m_awburst   [0:MST_AMT-1];
wire                        m_awvalid   [0:MST_AMT-1];
wire                        m_awready   [0:MST_AMT-1];

wire [DATA_WIDTH-1:0]       m_wdata     [0:MST_AMT-1];
wire [W_STRB-1:0]           m_wstrb     [0:MST_AMT-1];
wire                        m_wlast     [0:MST_AMT-1];
wire                        m_wvalid    [0:MST_AMT-1];
wire                        m_wready    [0:MST_AMT-1];

wire [W_ID-1:0]             m_bid       [0:MST_AMT-1];
wire [RESP_W-1:0]           m_bresp     [0:MST_AMT-1];
wire                        m_bvalid    [0:MST_AMT-1];
wire                        m_bready    [0:MST_AMT-1];

wire [W_ID-1:0]             m_arid      [0:MST_AMT-1];
wire [ADDR_WIDTH-1:0]       m_araddr    [0:MST_AMT-1];
wire [LEN_W-1:0]            m_arlen     [0:MST_AMT-1];
wire [SIZE_W-1:0]           m_arsize    [0:MST_AMT-1];
wire [BURST_W-1:0]          m_arburst   [0:MST_AMT-1];
wire                        m_arvalid   [0:MST_AMT-1];
wire                        m_arready   [0:MST_AMT-1];

wire [W_ID-1:0]             m_rid       [0:MST_AMT-1];
wire [DATA_WIDTH-1:0]       m_rdata     [0:MST_AMT-1];
wire [RESP_W-1:0]           m_rresp     [0:MST_AMT-1];
wire                        m_rlast     [0:MST_AMT-1];
wire                        m_rvalid    [0:MST_AMT-1];
wire                        m_rready    [0:MST_AMT-1];

// R channel: between R post-FIFO and axi_split_r_merge
wire [W_SID-1:0]            r_fifo_rid   [0:MST_AMT-1];
wire [DATA_WIDTH-1:0]       r_fifo_rdata [0:MST_AMT-1];
wire [RESP_W-1:0]           r_fifo_rresp [0:MST_AMT-1];
wire                        r_fifo_rlast [0:MST_AMT-1];
wire                        r_fifo_rvalid [0:MST_AMT-1];
wire                        r_fifo_rready [0:MST_AMT-1];

//=============================================================================
// Pre-FIFO buses: between cross_4k_if (or master for W) and pre-FIFO input
//=============================================================================
wire [W_MID-1:0]            c4k_awid    [0:MST_AMT-1];
wire [ADDR_WIDTH-1:0]       c4k_awaddr  [0:MST_AMT-1];
wire [LEN_W-1:0]            c4k_awlen   [0:MST_AMT-1];
wire [SIZE_W-1:0]           c4k_awsize  [0:MST_AMT-1];
wire [BURST_W-1:0]          c4k_awburst [0:MST_AMT-1];
wire                        c4k_awvalid [0:MST_AMT-1];
wire                        c4k_awready [0:MST_AMT-1];

wire [W_MID-1:0]            c4k_arid    [0:MST_AMT-1];
wire [ADDR_WIDTH-1:0]       c4k_araddr  [0:MST_AMT-1];
wire [LEN_W-1:0]            c4k_arlen   [0:MST_AMT-1];
wire [SIZE_W-1:0]           c4k_arsize  [0:MST_AMT-1];
wire [BURST_W-1:0]          c4k_arburst [0:MST_AMT-1];
wire                        c4k_arvalid [0:MST_AMT-1];
wire                        c4k_arready [0:MST_AMT-1];

wire [DATA_WIDTH-1:0]       c4k_wdata   [0:MST_AMT-1];
wire [W_STRB-1:0]           c4k_wstrb   [0:MST_AMT-1];
wire                        c4k_wlast   [0:MST_AMT-1];
wire                        c4k_wvalid  [0:MST_AMT-1];
wire                        c4k_wready  [0:MST_AMT-1];

wire [W_SID-1:0]            c4k_bid     [0:MST_AMT-1];
wire [RESP_W-1:0]           c4k_bresp   [0:MST_AMT-1];
wire                        c4k_bvalid  [0:MST_AMT-1];
wire                        c4k_bready  [0:MST_AMT-1];

//=============================================================================
// Post-FIFO buses (Master side): between crossbar output and FIFO → master
//=============================================================================
wire [W_MID-1:0]            M_AWID     [0:MST_AMT-1];
wire [ADDR_WIDTH-1:0]       M_AWADDR   [0:MST_AMT-1];
wire [LEN_W-1:0]            M_AWLEN    [0:MST_AMT-1];
wire [SIZE_W-1:0]           M_AWSIZE   [0:MST_AMT-1];
wire [BURST_W-1:0]          M_AWBURST  [0:MST_AMT-1];
wire                        M_AWVALID  [0:MST_AMT-1];
wire                        M_AWREADY  [0:MST_AMT-1];

wire [DATA_WIDTH-1:0]       M_WDATA    [0:MST_AMT-1];
wire [W_STRB-1:0]           M_WSTRB    [0:MST_AMT-1];
wire                        M_WLAST    [0:MST_AMT-1];
wire                        M_WVALID   [0:MST_AMT-1];
wire                        M_WREADY   [0:MST_AMT-1];

wire [W_SID-1:0]            M_BID      [0:MST_AMT-1];
wire [RESP_W-1:0]           M_BRESP    [0:MST_AMT-1];
wire                        M_BVALID   [0:MST_AMT-1];
wire                        M_BREADY   [0:MST_AMT-1];

wire [W_MID-1:0]            M_ARID     [0:MST_AMT-1];
wire [ADDR_WIDTH-1:0]       M_ARADDR   [0:MST_AMT-1];
wire [LEN_W-1:0]            M_ARLEN    [0:MST_AMT-1];
wire [SIZE_W-1:0]           M_ARSIZE   [0:MST_AMT-1];
wire [BURST_W-1:0]          M_ARBURST  [0:MST_AMT-1];
wire                        M_ARVALID  [0:MST_AMT-1];
wire                        M_ARREADY  [0:MST_AMT-1];

wire [W_SID-1:0]            M_RID      [0:MST_AMT-1];
wire [DATA_WIDTH-1:0]       M_RDATA    [0:MST_AMT-1];
wire [RESP_W-1:0]           M_RRESP    [0:MST_AMT-1];
wire                        M_RLAST    [0:MST_AMT-1];
wire                        M_RVALID   [0:MST_AMT-1];
wire                        M_RREADY   [0:MST_AMT-1];
wire                        M_RREADY_FIFO [0:MST_AMT-1];  // R FIFO wr_rdy before clear-gate

wire [W_SID*MST_AMT-1:0]    M_RSID_PACKED;
wire [W_SID-1:0]            M_RSID     [0:MST_AMT-1];

//=============================================================================
// NEW: Slave side internal signals (crossbar output → slave FIFO input)
//=============================================================================
wire [W_SID-1:0]            S_AWID     [0:SLV_AMT-1];
wire [ADDR_WIDTH-1:0]       S_AWADDR   [0:SLV_AMT-1];
wire [LEN_W-1:0]            S_AWLEN    [0:SLV_AMT-1];
wire [SIZE_W-1:0]           S_AWSIZE   [0:SLV_AMT-1];
wire [BURST_W-1:0]          S_AWBURST  [0:SLV_AMT-1];
wire                        S_AWVALID  [0:SLV_AMT-1];
wire                        S_AWREADY  [0:SLV_AMT-1];

wire [DATA_WIDTH-1:0]       S_WDATA    [0:SLV_AMT-1];
wire [W_STRB-1:0]           S_WSTRB    [0:SLV_AMT-1];
wire                        S_WLAST    [0:SLV_AMT-1];
wire                        S_WVALID   [0:SLV_AMT-1];
wire                        S_WREADY   [0:SLV_AMT-1];

wire [W_SID-1:0]            S_ARID     [0:SLV_AMT-1];
wire [ADDR_WIDTH-1:0]       S_ARADDR   [0:SLV_AMT-1];
wire [LEN_W-1:0]            S_ARLEN    [0:SLV_AMT-1];
wire [SIZE_W-1:0]           S_ARSIZE   [0:SLV_AMT-1];
wire [BURST_W-1:0]          S_ARBURST  [0:SLV_AMT-1];
wire                        S_ARVALID  [0:SLV_AMT-1];
wire                        S_ARREADY  [0:SLV_AMT-1];

// Slave side B/R pre-FIFO (slave → crossbar)
wire [W_SID-1:0]            s_bid_fifo      [0:SLV_AMT-1];
wire [RESP_W-1:0]           s_bresp_fifo    [0:SLV_AMT-1];
wire                        s_bvalid_fifo   [0:SLV_AMT-1];
wire                        s_bready_fifo   [0:SLV_AMT-1];

wire [W_SID-1:0]            s_rid_fifo      [0:SLV_AMT-1];
wire [DATA_WIDTH-1:0]       s_rdata_fifo    [0:SLV_AMT-1];
wire [RESP_W-1:0]           s_rresp_fifo    [0:SLV_AMT-1];
wire                        s_rlast_fifo    [0:SLV_AMT-1];
wire                        s_rvalid_fifo   [0:SLV_AMT-1];
wire                        s_rready_fifo   [0:SLV_AMT-1];

// Slave side FIFO output to top (or from top for B/R)
wire [W_SID-1:0]            s_awid_out      [0:SLV_AMT-1];
wire [ADDR_WIDTH-1:0]       s_awaddr_out    [0:SLV_AMT-1];
wire [LEN_W-1:0]            s_awlen_out     [0:SLV_AMT-1];
wire [SIZE_W-1:0]           s_awsize_out    [0:SLV_AMT-1];
wire [BURST_W-1:0]          s_awburst_out   [0:SLV_AMT-1];
wire                        s_awvalid_out   [0:SLV_AMT-1];
wire                        s_awready_out   [0:SLV_AMT-1];   // from top

wire [DATA_WIDTH-1:0]       s_wdata_out     [0:SLV_AMT-1];
wire [W_STRB-1:0]           s_wstrb_out     [0:SLV_AMT-1];
wire                        s_wlast_out     [0:SLV_AMT-1];
wire                        s_wvalid_out    [0:SLV_AMT-1];
wire                        s_wready_out    [0:SLV_AMT-1];   // from top

wire [W_SID-1:0]            s_arid_out      [0:SLV_AMT-1];
wire [ADDR_WIDTH-1:0]       s_araddr_out    [0:SLV_AMT-1];
wire [LEN_W-1:0]            s_arlen_out     [0:SLV_AMT-1];
wire [SIZE_W-1:0]           s_arsize_out    [0:SLV_AMT-1];
wire [BURST_W-1:0]          s_arburst_out   [0:SLV_AMT-1];
wire                        s_arvalid_out   [0:SLV_AMT-1];
wire                        s_arready_out   [0:SLV_AMT-1];   // from top

// B/R from top to pre-FIFO
wire [W_SID-1:0]            s_bid_in        [0:SLV_AMT-1];
wire [RESP_W-1:0]           s_bresp_in      [0:SLV_AMT-1];
wire                        s_bvalid_in     [0:SLV_AMT-1];
wire                        s_bready_in     [0:SLV_AMT-1];   // to top

wire [W_SID-1:0]            s_rid_in        [0:SLV_AMT-1];
wire [DATA_WIDTH-1:0]       s_rdata_in      [0:SLV_AMT-1];
wire [RESP_W-1:0]           s_rresp_in      [0:SLV_AMT-1];
wire                        s_rlast_in      [0:SLV_AMT-1];
wire                        s_rvalid_in     [0:SLV_AMT-1];
wire                        s_rready_in     [0:SLV_AMT-1];   // to top

//=============================================================================
// Read Reorder Signals — single shared sid_buffer + reorder
//=============================================================================
wire [W_SID-1:0]            sid_buf_out         [0:3];          // DEPTH=4
wire [SLV_AMT-1:0]          reorder_grant;

// sid_buffer backpressure: s_push_rdy per slave, gated AR ready
wire [SLV_AMT-1:0]          sid_buf_push_rdy;                   // per-slave
wire [SLV_AMT-1:0]          S_ARREADY_FIFO;                // AR FIFO wr_rdy before gate

//=============================================================================
// Port Flattening (Unpack Master Inputs / Pack Master Outputs)
//=============================================================================
genvar m, s;
generate
    for(m = 0; m < MST_AMT; m = m + 1) begin : UNPACK_MST
        assign m_awid[m]    = M_AXI_AWID_i[W_ID*(m+1)-1 -: W_ID];
        assign m_awaddr[m]  = M_AXI_AWADDR_i[ADDR_WIDTH*(m+1)-1 -: ADDR_WIDTH];
        assign m_awlen[m]   = M_AXI_AWLEN_i[LEN_W*(m+1)-1 -: LEN_W];
        assign m_awsize[m]  = M_AXI_AWSIZE_i[SIZE_W*(m+1)-1 -: SIZE_W];
        assign m_awburst[m] = M_AXI_AWBURST_i[BURST_W*(m+1)-1 -: BURST_W];
        assign m_awvalid[m] = M_AXI_AWVALID_i[m];
        assign M_AXI_AWREADY_o[m] = m_awready[m];

        assign m_wdata[m]   = M_AXI_WDATA_i[DATA_WIDTH*(m+1)-1 -: DATA_WIDTH];
        assign m_wstrb[m]   = M_AXI_WSTRB_i[W_STRB*(m+1)-1 -: W_STRB];
        assign m_wlast[m]   = M_AXI_WLAST_i[m];
        assign m_wvalid[m]  = M_AXI_WVALID_i[m];
        assign M_AXI_WREADY_o[m] = m_wready[m];

        assign m_bready[m]  = M_AXI_BREADY_i[m];
        assign M_AXI_BID_o[W_ID*(m+1)-1 -: W_ID] = m_bid[m];
        assign M_AXI_BRESP_o[RESP_W*(m+1)-1 -: RESP_W] = m_bresp[m];
        assign M_AXI_BVALID_o[m] = m_bvalid[m];

        assign m_arid[m]    = M_AXI_ARID_i[W_ID*(m+1)-1 -: W_ID];
        assign m_araddr[m]  = M_AXI_ARADDR_i[ADDR_WIDTH*(m+1)-1 -: ADDR_WIDTH];
        assign m_arlen[m]   = M_AXI_ARLEN_i[LEN_W*(m+1)-1 -: LEN_W];
        assign m_arsize[m]  = M_AXI_ARSIZE_i[SIZE_W*(m+1)-1 -: SIZE_W];
        assign m_arburst[m] = M_AXI_ARBURST_i[BURST_W*(m+1)-1 -: BURST_W];
        assign m_arvalid[m] = M_AXI_ARVALID_i[m];
        assign M_AXI_ARREADY_o[m] = m_arready[m];

        assign m_rready[m]  = M_AXI_RREADY_i[m];
        assign M_AXI_RID_o[W_ID*(m+1)-1 -: W_ID] = m_rid[m];
        assign M_AXI_RDATA_o[DATA_WIDTH*(m+1)-1 -: DATA_WIDTH] = m_rdata[m];
        assign M_AXI_RRESP_o[RESP_W*(m+1)-1 -: RESP_W] = m_rresp[m];
        assign M_AXI_RLAST_o[m] = m_rlast[m];
        assign M_AXI_RVALID_o[m] = m_rvalid[m];

    end
endgenerate

//=============================================================================
// Unpack Slave Flattened Ports (connect to internal FIFO interfaces)
//=============================================================================
generate
    for(s = 0; s < SLV_AMT; s = s + 1) begin : UNPACK_SLV
        // Outputs (from slave FIFO to top)
        assign S_AXI_AWID_o   [W_SID*(s+1)-1 -: W_SID]   = s_awid_out[s];
        assign S_AXI_AWADDR_o [ADDR_WIDTH*(s+1)-1 -: ADDR_WIDTH] = s_awaddr_out[s];
        assign S_AXI_AWLEN_o  [LEN_W*(s+1)-1 -: LEN_W]   = s_awlen_out[s];
        assign S_AXI_AWSIZE_o [SIZE_W*(s+1)-1 -: SIZE_W] = s_awsize_out[s];
        assign S_AXI_AWBURST_o[BURST_W*(s+1)-1 -: BURST_W] = s_awburst_out[s];
        assign S_AXI_AWVALID_o[s] = s_awvalid_out[s];
        assign s_awready_out[s] = S_AXI_AWREADY_i[s];

        assign S_AXI_WDATA_o [DATA_WIDTH*(s+1)-1 -: DATA_WIDTH] = s_wdata_out[s];
        assign S_AXI_WSTRB_o [W_STRB*(s+1)-1 -: W_STRB] = s_wstrb_out[s];
        assign S_AXI_WLAST_o [s] = s_wlast_out[s];
        assign S_AXI_WVALID_o[s] = s_wvalid_out[s];
        assign s_wready_out[s] = S_AXI_WREADY_i[s];

        assign S_AXI_ARID_o    [W_SID*(s+1)-1 -: W_SID]   = s_arid_out[s];
        assign S_AXI_ARADDR_o  [ADDR_WIDTH*(s+1)-1 -: ADDR_WIDTH] = s_araddr_out[s];
        assign S_AXI_ARLEN_o   [LEN_W*(s+1)-1 -: LEN_W]   = s_arlen_out[s];
        assign S_AXI_ARSIZE_o  [SIZE_W*(s+1)-1 -: SIZE_W] = s_arsize_out[s];
        assign S_AXI_ARBURST_o [BURST_W*(s+1)-1 -: BURST_W] = s_arburst_out[s];
        assign S_AXI_ARVALID_o [s] = s_arvalid_out[s];
        assign s_arready_out[s] = S_AXI_ARREADY_i[s];
            // TRACE: slave AR valid
            always @(posedge AXI_CLK) begin
                if (s_arvalid_out[s])
                    $display("[TRACE] %0t AR at slave s=%0d addr=0x%08h", $time, s, s_araddr_out[s]);
            end

        // Inputs (from top to slave pre-FIFO)
        assign s_bid_in[s]   = S_AXI_BID_i[W_SID*(s+1)-1 -: W_SID];
        assign s_bresp_in[s] = S_AXI_BRESP_i[RESP_W*(s+1)-1 -: RESP_W];
        assign s_bvalid_in[s]= S_AXI_BVALID_i[s];
        assign S_AXI_BREADY_o[s] = s_bready_in[s];

        assign s_rid_in[s]   = S_AXI_RID_i[W_SID*(s+1)-1 -: W_SID];
        assign s_rdata_in[s] = S_AXI_RDATA_i[DATA_WIDTH*(s+1)-1 -: DATA_WIDTH];
        assign s_rresp_in[s] = S_AXI_RRESP_i[RESP_W*(s+1)-1 -: RESP_W];
        assign s_rlast_in[s] = S_AXI_RLAST_i[s];
        assign s_rvalid_in[s]= S_AXI_RVALID_i[s];
        assign S_AXI_RREADY_o[s] = s_rready_in[s];
    end
endgenerate

//=============================================================================
// 1. cross_4k_if: 4KB Boundary & WRAP/INCR Splitting (per Master)
//=============================================================================
generate
    for(m = 0; m < MST_AMT; m = m + 1) begin : INST_CROSS_4K
        cross_4k_if #(
            .W_ID   (W_ID),
            .W_ADDR (ADDR_WIDTH),
            .W_LEN  (LEN_W),
            .W_DATA (DATA_WIDTH),
            .W_STRB (W_STRB)
        ) u_cross_4k (
            .clk             (AXI_CLK),
            .rst_n           (AXI_RSTn),
            // AR channel
            .m_axi_arid      (m_arid[m]),
            .m_axi_araddr    (m_araddr[m]),
            .m_axi_arlen     (m_arlen[m]),
            .m_axi_arsize    (m_arsize[m]),
            .m_axi_arburst   (m_arburst[m]),
            .m_axi_arvalid   (m_arvalid[m]),
            .m_axi_arready   (m_arready[m]),
            // AW channel
            .m_axi_awid      (m_awid[m]),
            .m_axi_awaddr    (m_awaddr[m]),
            .m_axi_awlen     (m_awlen[m]),
            .m_axi_awsize    (m_awsize[m]),
            .m_axi_awburst   (m_awburst[m]),
            .m_axi_awvalid   (m_awvalid[m]),
            .m_axi_awready   (m_awready[m]),
            // W channel (WLAST insertion for split transactions)
            .m_axi_wdata     (m_wdata[m]),
            .m_axi_wstrb     (m_wstrb[m]),
            .m_axi_wlast     (m_wlast[m]),
            .m_axi_wvalid    (m_wvalid[m]),
            .m_axi_wready    (m_wready[m]),
            .s_axi_wdata     (c4k_wdata[m]),
            .s_axi_wstrb     (c4k_wstrb[m]),
            .s_axi_wlast     (c4k_wlast[m]),
            .s_axi_wvalid    (c4k_wvalid[m]),
            .s_axi_wready    (c4k_wready[m]),
            // AR slave side
            .s_axi_arid      (c4k_arid[m]),
            .s_axi_araddr    (c4k_araddr[m]),
            .s_axi_arlen     (c4k_arlen[m]),
            .s_axi_arsize    (c4k_arsize[m]),
            .s_axi_arburst   (c4k_arburst[m]),
            .s_axi_arvalid   (c4k_arvalid[m]),
            .s_axi_arready   (c4k_arready[m]),
            // AW slave side
            .s_axi_awid      (c4k_awid[m]),
            .s_axi_awaddr    (c4k_awaddr[m]),
            .s_axi_awlen     (c4k_awlen[m]),
            .s_axi_awsize    (c4k_awsize[m]),
            .s_axi_awburst   (c4k_awburst[m]),
            .s_axi_awvalid   (c4k_awvalid[m]),
            .s_axi_awready   (c4k_awready[m])
        );
    end
endgenerate

//=============================================================================
// 2. Pre-Crossbar FIFOs: Master -> Crossbar (AW/W/AR)
//=============================================================================
generate
    for(m = 0; m < MST_AMT; m = m + 1) begin : INST_FIFO_AW_W_AR
        // AW FIFO: valid from rd_vld only (not stored in data)
        axi_fifo_sync #(
            .FDW(W_MID + ADDR_WIDTH + LEN_W + SIZE_W + BURST_W),
            .FAW(2)
        ) u_fifo_aw (
            .rstn   (AXI_RSTn), .clr(1'b0), .clk(AXI_CLK),
            .wr_rdy (c4k_awready[m]),
            .wr_vld (c4k_awvalid[m]),
            .wr_din ({c4k_awid[m], c4k_awaddr[m], c4k_awlen[m],
                      c4k_awsize[m], c4k_awburst[m]}),
            .rd_rdy (M_AWREADY[m]),
            .rd_vld (M_AWVALID[m]),
            .rd_dout ({M_AWID[m], M_AWADDR[m], M_AWLEN[m],
                       M_AWSIZE[m], M_AWBURST[m]})
        );

        // W FIFO (from cross_4k_if output)
        axi_fifo_sync #(
            .FDW(DATA_WIDTH + W_STRB + 1),
            .FAW(2)
        ) u_fifo_w (
            .rstn   (AXI_RSTn), .clr(1'b0), .clk(AXI_CLK),
            .wr_rdy (c4k_wready[m]),
            .wr_vld (c4k_wvalid[m]),
            .wr_din ({c4k_wdata[m], c4k_wstrb[m], c4k_wlast[m]}),
            .rd_rdy (M_WREADY[m]),
            .rd_vld (M_WVALID[m]),
            .rd_dout ({M_WDATA[m], M_WSTRB[m], M_WLAST[m]})
        );

        // AR FIFO: valid from rd_vld only (not stored in data)
        axi_fifo_sync #(
            .FDW(W_MID + ADDR_WIDTH + LEN_W + SIZE_W + BURST_W),
            .FAW(2)
        ) u_fifo_ar (
            .rstn   (AXI_RSTn), .clr(1'b0), .clk(AXI_CLK),
            .wr_rdy (c4k_arready[m]),
            .wr_vld (c4k_arvalid[m]),
            .wr_din ({c4k_arid[m], c4k_araddr[m], c4k_arlen[m],
                      c4k_arsize[m], c4k_arburst[m]}),
            .rd_rdy (M_ARREADY[m]),
            .rd_vld (M_ARVALID[m]),
            .rd_dout ({M_ARID[m], M_ARADDR[m], M_ARLEN[m],
                       M_ARSIZE[m], M_ARBURST[m]})
        );
            // TRACE: pre-crossbar AR FIFO output
            reg _prev_arv;
            always @(posedge AXI_CLK) begin
                _prev_arv <= M_ARVALID[m];
                if (AXI_RSTn && M_ARVALID[m] !== _prev_arv)
                    $display("[TRACE] %0t AR pre-FIFO vld m=%0d vld=%b rdy=%b", $time, m, M_ARVALID[m], M_ARREADY[m]);
                if (M_ARVALID[m] && M_ARREADY[m])
                    $display("[TRACE] %0t AR pre-FIFO out m=%0d addr=0x%08h", $time, m, M_ARADDR[m]);
            end
    end
endgenerate

//=============================================================================
// 3. New: Post-Crossbar FIFOs: Crossbar -> Slave (AW/W/AR)
//=============================================================================
generate
    for(s = 0; s < SLV_AMT; s = s + 1) begin : INST_POST_FIFO_AW_W_AR
        // AW FIFO
        axi_fifo_sync #(
            .FDW(W_SID + ADDR_WIDTH + LEN_W + SIZE_W + BURST_W),
            .FAW(2)
        ) u_fifo_aw_slv (
            .rstn   (AXI_RSTn), .clr(1'b0), .clk(AXI_CLK),
            .wr_rdy (S_AWREADY[s]),
            .wr_vld (S_AWVALID[s]),
            .wr_din ({S_AWID[s], S_AWADDR[s], S_AWLEN[s],
                      S_AWSIZE[s], S_AWBURST[s]}),
            .rd_rdy (s_awready_out[s]),
            .rd_vld (s_awvalid_out[s]),
            .rd_dout ({s_awid_out[s], s_awaddr_out[s], s_awlen_out[s],
                       s_awsize_out[s], s_awburst_out[s]})
        );

        // W FIFO
        axi_fifo_sync #(
            .FDW(DATA_WIDTH + W_STRB + 1),
            .FAW(2)
        ) u_fifo_w_slv (
            .rstn   (AXI_RSTn), .clr(1'b0), .clk(AXI_CLK),
            .wr_rdy (S_WREADY[s]),
            .wr_vld (S_WVALID[s]),
            .wr_din ({S_WDATA[s], S_WSTRB[s], S_WLAST[s]}),
            .rd_rdy (s_wready_out[s]),
            .rd_vld (s_wvalid_out[s]),
            .rd_dout ({s_wdata_out[s], s_wstrb_out[s], s_wlast_out[s]})
        );

        // AR FIFO: wr_rdy → intermediate, gated by sid_buffer backpressure
        axi_fifo_sync #(
            .FDW(W_SID + ADDR_WIDTH + LEN_W + SIZE_W + BURST_W),
            .FAW(2)
        ) u_fifo_ar_slv (
            .rstn   (AXI_RSTn), .clr(1'b0), .clk(AXI_CLK),
            .wr_rdy (S_ARREADY_FIFO[s]),
            .wr_vld (S_ARVALID[s]),
            .wr_din ({S_ARID[s], S_ARADDR[s], S_ARLEN[s],
                      S_ARSIZE[s], S_ARBURST[s]}),
            .rd_rdy (s_arready_out[s]),
            .rd_vld (s_arvalid_out[s]),
            .rd_dout ({s_arid_out[s], s_araddr_out[s], s_arlen_out[s],
                       s_arsize_out[s], s_arburst_out[s]})
        );
    end
endgenerate

// Gate AR ready to crossbar: use s_push_rdy from shared sid_buffer per slave
// rf-style push_rdy = ~(select ^ grant) & clr_allowed
// When buffer has space: push_rdy[s]=1 → arready passes
// When buffer full or clearing: push_rdy[s]=0 → arready gated
generate
    for(s = 0; s < SLV_AMT; s = s + 1) begin : GEN_ARREADY_GATE
        assign S_ARREADY[s] = S_ARREADY_FIFO[s] & sid_buf_push_rdy[s];
        // TRACE: ARREADY gate (every cycle for s=2)
        //always @(posedge AXI_CLK) begin
            //if (AXI_RSTn)
                //$display("[TRACE] %0t S_ARREADY s=%0d fifo=%b sid=%b final=%b", $time, s, S_ARREADY_FIFO[s], sid_buf_push_rdy[s], S_ARREADY[s]);
        //end
        // TRACE: ARREADY gate
        always @(posedge AXI_CLK) begin
            if (S_ARREADY_FIFO[s] !== sid_buf_push_rdy[s])
                $display("[TRACE] %0t S_ARREADY s=%0d fifo=%b sid=%b final=%b",
                         $time, s, S_ARREADY_FIFO[s], sid_buf_push_rdy[s], S_ARREADY[s]);
        end
    end
endgenerate

//=============================================================================
// 4. New: Pre-Crossbar FIFOs: Slave -> Crossbar (B/R)
//=============================================================================
generate
    for(s = 0; s < SLV_AMT; s = s + 1) begin : INST_PRE_FIFO_B_R
        // B FIFO
        axi_fifo_sync #(
            .FDW(W_SID + RESP_W),
            .FAW(2)
        ) u_fifo_b_slv (
            .rstn   (AXI_RSTn), .clr(1'b0), .clk(AXI_CLK),
            .wr_rdy (s_bready_in[s]),
            .wr_vld (s_bvalid_in[s]),
            .wr_din ({s_bid_in[s], s_bresp_in[s]}),
            .rd_rdy (s_bready_fifo[s]),
            .rd_vld (s_bvalid_fifo[s]),
            .rd_dout ({s_bid_fifo[s], s_bresp_fifo[s]})
        );

        // R FIFO
        axi_fifo_sync #(
            .FDW(W_SID + DATA_WIDTH + RESP_W + 1),
            .FAW(2)
        ) u_fifo_r_slv (
            .rstn   (AXI_RSTn), .clr(1'b0), .clk(AXI_CLK),
            .wr_rdy (s_rready_in[s]),
            .wr_vld (s_rvalid_in[s]),
            .wr_din ({s_rid_in[s], s_rdata_in[s], s_rresp_in[s], s_rlast_in[s]}),
            .rd_rdy (s_rready_fifo[s]),
            .rd_vld (s_rvalid_fifo[s]),
            .rd_dout ({s_rid_fifo[s], s_rdata_fifo[s], s_rresp_fifo[s], s_rlast_fifo[s]})
        );
    end
endgenerate

//=============================================================================
// 5. Post-Crossbar FIFOs: Crossbar -> Master (B/R)
//=============================================================================
generate
    for(m = 0; m < MST_AMT; m = m + 1) begin : INST_FIFO_B_R_MST
        // B FIFO: output to c4k_bid/bresp, then routed to axi_split_b_merge
        axi_fifo_sync #(
            .FDW(W_SID + RESP_W),
            .FAW(2)
        ) u_fifo_b_mst (
            .rstn   (AXI_RSTn), .clr(1'b0), .clk(AXI_CLK),
            .wr_rdy (M_BREADY[m]),
            .wr_vld (M_BVALID[m]),
            .wr_din ({M_BID[m], M_BRESP[m]}),
            .rd_rdy (c4k_bready[m]),
            .rd_vld (c4k_bvalid[m]),
            .rd_dout ({c4k_bid[m], c4k_bresp[m]})
        );

        // R FIFO: widened to carry W_SID RID (includes mst_idx + split_st for r_merge)
        axi_fifo_sync #(
            .FDW(W_SID + DATA_WIDTH + RESP_W + 1),
            .FAW(2)
        ) u_fifo_r_mst (
            .rstn   (AXI_RSTn), .clr(1'b0), .clk(AXI_CLK),
            .wr_rdy (M_RREADY_FIFO[m]),
            .wr_vld (M_RVALID[m]),
            .wr_din ({M_RID[m], M_RDATA[m],
                      M_RRESP[m], M_RLAST[m]}),
            .rd_rdy (r_fifo_rready[m]),
            .rd_vld (r_fifo_rvalid[m]),
            .rd_dout ({r_fifo_rid[m], r_fifo_rdata[m], r_fifo_rresp[m], r_fifo_rlast[m]})
        );
    end
endgenerate

// ----- Clear port packing (one port per master) -----
wire [MST_AMT-1:0]       clr_last_packed;
wire [W_SID*MST_AMT-1:0] clr_sid_packed;
wire [MST_AMT-1:0]       clr_sid_vld_packed;
wire [MST_AMT-1:0]       sid_buf_s_clr_rdy;

// Gate R ready to crossbar: use s_clr_rdy from shared sid_buffer per master
// rf-style s_clr_rdy = ~(clr_select ^ clr_grant)
// When master has no clear request or wins arbitration: s_clr_rdy=1 → rready passes
// When master requests clear but loses arbitration: s_clr_rdy=0 → rready gated → retry
generate
    for(m = 0; m < MST_AMT; m = m + 1) begin : GEN_RREADY_GATE
        assign M_RREADY[m] = M_RREADY_FIFO[m] & sid_buf_s_clr_rdy[m];
    end
endgenerate

//=============================================================================
// 6. B/R Merge Modules: axi_split_b_merge / axi_split_r_merge (per Master)
//    Placed on master side after S2M has stripped mst_idx.
//    BID/RID format: {split_st[1:0], orig_id[W_ID-1:0]} → M_ID_W=0.
//=============================================================================
generate
    for(m = 0; m < MST_AMT; m = m + 1) begin : INST_SPLIT_MERGE
        // B merge: replaces cross_4k_if built-in B merge
        axi_split_b_merge #(
            .W_ID     (W_ID),
            .M_ID_W   ($clog2(MST_AMT)),
            .MAX_SPLIT(4)
        ) u_b_merge (
            .clk            (AXI_CLK),
            .rst_n          (AXI_RSTn),
            .s_axi_bvalid   (c4k_bvalid[m]),
            .s_axi_bid      (c4k_bid[m]),
            .s_axi_bresp    (c4k_bresp[m]),
            .s_axi_bready   (c4k_bready[m]),
            .m_axi_bvalid   (m_bvalid[m]),
            .m_axi_bid      (m_bid[m]),
            .m_axi_bresp    (m_bresp[m]),
            .m_axi_bready   (m_bready[m])
        );

        // R merge: handles split read response merging
        axi_split_r_merge #(
            .W_ID     (W_ID),
            .M_ID_W   ($clog2(MST_AMT)),
            .W_DATA   (DATA_WIDTH),
            .MAX_SPLIT(4)
        ) u_r_merge (
            .clk            (AXI_CLK),
            .rst_n          (AXI_RSTn),
            .s_axi_rvalid   (r_fifo_rvalid[m]),
            .s_axi_rid      (r_fifo_rid[m]),
            .s_axi_rdata    (r_fifo_rdata[m]),
            .s_axi_rresp    (r_fifo_rresp[m]),
            .s_axi_rlast    (r_fifo_rlast[m]),
            .s_axi_rready   (r_fifo_rready[m]),
            .m_axi_rvalid   (m_rvalid[m]),
            .m_axi_rid      (m_rid[m]),
            .m_axi_rdata    (m_rdata[m]),
            .m_axi_rresp    (m_rresp[m]),
            .m_axi_rlast    (m_rlast[m]),
            .m_axi_rready   (m_rready[m])
        );
    end
endgenerate

//=============================================================================
// 7. Read Reorder Logic (sid_buffer write/clear + reorder)
//=============================================================================

//=============================================================================
// 7. Single shared sid_buffer + reorder (not per-master)
//    - Write: per-slave AR handshake captures s_arid
//    - Clear: per-master R completion (one port per master, priority-arbitrated)
//    - reorder: compares S_RID against shared rob_buffer → per-slave order_grant
//    - order_grant shared to ALL S2M instances (each filters by MASTER_ID)
//=============================================================================

// ----- Write port packing (per slave) -----
wire [W_SID*SLV_AMT-1:0] sid_buf_wr_id_packed;
wire [SLV_AMT-1:0]       sid_buf_wr_vld;
wire [SLV_AMT-1:0]       sid_buf_wr_rdy;

genvar si_wr;
generate
    for(si_wr = 0; si_wr < SLV_AMT; si_wr = si_wr + 1) begin : SID_BUF_WR_PACK
        assign sid_buf_wr_id_packed[W_SID*(si_wr+1)-1 -: W_SID] = s_arid_out[si_wr];
        assign sid_buf_wr_vld[si_wr] = s_arvalid_out[si_wr];
        assign sid_buf_wr_rdy[si_wr] = s_arready_out[si_wr];
    end
endgenerate

// ----- Clear port packing (one port per master) -----
// Each master's R completion drives one clear port; priority_sel_clr picks winner

genvar si_clr;
generate
    for(si_clr = 0; si_clr < MST_AMT; si_clr = si_clr + 1) begin : SID_BUF_CLR_PACK
        assign clr_last_packed[si_clr]    = r_fifo_rlast[si_clr];
        assign clr_sid_packed[W_SID*(si_clr+1)-1 -: W_SID] = r_fifo_rid[si_clr];
        assign clr_sid_vld_packed[si_clr] = r_fifo_rvalid[si_clr] & r_fifo_rready[si_clr] & r_fifo_rlast[si_clr];
    end
endgenerate

// ----- Shared sid_buffer -----
sid_buffer #(
    .NUM_WR (SLV_AMT),
    .NUM_CLR(MST_AMT),
    .W_ID   (W_SID),
    .DEPTH  (4)
) u_sid_buffer (
    .clk         (AXI_CLK),
    .rstn        (AXI_RSTn),
    .s_axid      (sid_buf_wr_id_packed),
    .s_axid_vld  (sid_buf_wr_vld),
    .s_fifo_rdy  (sid_buf_wr_rdy),
    .s_push_rdy  (sid_buf_push_rdy),
    .clr_last    (clr_last_packed),
    .clr_sid     (clr_sid_packed),
    .clr_sid_vld (clr_sid_vld_packed),
    .s_clr_rdy   (sid_buf_s_clr_rdy),
    .sid_buffer  (sid_buf_out)
);

// ----- Shared reorder -----
wire [W_SID*SLV_AMT-1:0] reorder_sid_packed;
wire [SLV_AMT-1:0]       reorder_sid_vld;

genvar si_ro;
generate
    for(si_ro = 0; si_ro < SLV_AMT; si_ro = si_ro + 1) begin : REORDER_IN_PACK
        assign reorder_sid_packed[W_SID*(si_ro+1)-1 -: W_SID] = s_rid_fifo[si_ro];
        assign reorder_sid_vld[si_ro] = s_rvalid_fifo[si_ro];
    end
endgenerate

reorder #(
    .NUM    (SLV_AMT),
    .M_ID_W ($clog2(MST_AMT)),
    .W_ID   (W_MID),
    .DEPTH  (4)
) u_reorder (
    .clk         (AXI_CLK),
    .rstn        (AXI_RSTn),
    .s_sid       (reorder_sid_packed),
    .s_sid_vld   (reorder_sid_vld),
    .rob_buffer  (sid_buf_out),
    .order_grant (reorder_grant)
);


//=============================================================================
// Unpack crossbar M_RSID output
//=============================================================================
generate
    for(m = 0; m < MST_AMT; m = m + 1) begin : UNPACK_RSID
        assign M_RSID[m] = M_RSID_PACKED[W_SID*(m+1)-1 -: W_SID];
    end
endgenerate

//=============================================================================
// 8. axi_crossbar: Core Routing Engine
//    Pack 2D arrays → flat vectors, connect to crossbar, unpack back.
//=============================================================================

// ----- Master-side packed wires (crossbar interface) -----
wire [W_MID*MST_AMT-1:0]        x_m_AWID;
wire [ADDR_WIDTH*MST_AMT-1:0]   x_m_AWADDR;
wire [BURST_W*MST_AMT-1:0]      x_m_AWBURST;
wire [LEN_W*MST_AMT-1:0]        x_m_AWLEN;
wire [SIZE_W*MST_AMT-1:0]       x_m_AWSIZE;
wire [MST_AMT-1:0]              x_m_AWVALID;
wire [MST_AMT-1:0]              x_m_AWREADY;
wire [DATA_WIDTH*MST_AMT-1:0]   x_m_WDATA;
wire [W_STRB*MST_AMT-1:0]       x_m_WSTRB;
wire [MST_AMT-1:0]              x_m_WLAST;
wire [MST_AMT-1:0]              x_m_WVALID;
wire [MST_AMT-1:0]              x_m_WREADY;
wire [W_SID*MST_AMT-1:0]        x_m_BID;
wire [RESP_W*MST_AMT-1:0]       x_m_BRESP;
wire [MST_AMT-1:0]              x_m_BVALID;
wire [MST_AMT-1:0]              x_m_BREADY;
wire [W_MID*MST_AMT-1:0]        x_m_ARID;
wire [ADDR_WIDTH*MST_AMT-1:0]   x_m_ARADDR;
wire [BURST_W*MST_AMT-1:0]      x_m_ARBURST;
wire [LEN_W*MST_AMT-1:0]        x_m_ARLEN;
wire [SIZE_W*MST_AMT-1:0]       x_m_ARSIZE;
wire [MST_AMT-1:0]              x_m_ARVALID;
wire [MST_AMT-1:0]              x_m_ARREADY;
wire [W_SID*MST_AMT-1:0]        x_m_RID;
wire [DATA_WIDTH*MST_AMT-1:0]   x_m_RDATA;
wire [RESP_W*MST_AMT-1:0]       x_m_RRESP;
wire [MST_AMT-1:0]              x_m_RLAST;
wire [MST_AMT-1:0]              x_m_RVALID;
wire [MST_AMT-1:0]              x_m_RREADY;

// ----- Slave-side packed wires (crossbar interface) -----
wire [W_SID*SLV_AMT-1:0]        x_s_AWID;
wire [ADDR_WIDTH*SLV_AMT-1:0]   x_s_AWADDR;
wire [BURST_W*SLV_AMT-1:0]      x_s_AWBURST;
wire [LEN_W*SLV_AMT-1:0]        x_s_AWLEN;
wire [SIZE_W*SLV_AMT-1:0]       x_s_AWSIZE;
wire [SLV_AMT-1:0]              x_s_AWVALID;
wire [SLV_AMT-1:0]              x_s_AWREADY;
wire [DATA_WIDTH*SLV_AMT-1:0]   x_s_WDATA;
wire [W_STRB*SLV_AMT-1:0]       x_s_WSTRB;
wire [SLV_AMT-1:0]              x_s_WLAST;
wire [SLV_AMT-1:0]              x_s_WVALID;
wire [SLV_AMT-1:0]              x_s_WREADY;
wire [W_SID*SLV_AMT-1:0]        x_s_BID;
wire [RESP_W*SLV_AMT-1:0]       x_s_BRESP;
wire [SLV_AMT-1:0]              x_s_BVALID;
wire [SLV_AMT-1:0]              x_s_BREADY;
wire [W_SID*SLV_AMT-1:0]        x_s_ARID;
wire [ADDR_WIDTH*SLV_AMT-1:0]   x_s_ARADDR;
wire [BURST_W*SLV_AMT-1:0]      x_s_ARBURST;
wire [LEN_W*SLV_AMT-1:0]        x_s_ARLEN;
wire [SIZE_W*SLV_AMT-1:0]       x_s_ARSIZE;
wire [SLV_AMT-1:0]              x_s_ARVALID;
wire [SLV_AMT-1:0]              x_s_ARREADY;
wire [W_SID*SLV_AMT-1:0]        x_s_RID;
wire [DATA_WIDTH*SLV_AMT-1:0]   x_s_RDATA;
wire [RESP_W*SLV_AMT-1:0]       x_s_RRESP;
wire [SLV_AMT-1:0]              x_s_RLAST;
wire [SLV_AMT-1:0]              x_s_RVALID;
wire [SLV_AMT-1:0]              x_s_RREADY;

// ----- Master-side packing: M_* arrays → flat x_m_* -----
genvar xm;
generate
    for (xm = 0; xm < MST_AMT; xm = xm + 1) begin : PACK_MST
        // AW channel
        assign x_m_AWID   [W_MID*(xm+1)-1     -: W_MID]      = M_AWID[xm];
        assign x_m_AWADDR [ADDR_WIDTH*(xm+1)-1 -: ADDR_WIDTH] = M_AWADDR[xm];
        assign x_m_AWBURST[BURST_W*(xm+1)-1   -: BURST_W]    = M_AWBURST[xm];
        assign x_m_AWLEN  [LEN_W*(xm+1)-1     -: LEN_W]      = M_AWLEN[xm];
        assign x_m_AWSIZE [SIZE_W*(xm+1)-1    -: SIZE_W]     = M_AWSIZE[xm];
        assign x_m_AWVALID[xm] = M_AWVALID[xm];
        // W channel
        assign x_m_WDATA  [DATA_WIDTH*(xm+1)-1 -: DATA_WIDTH] = M_WDATA[xm];
        assign x_m_WSTRB  [W_STRB*(xm+1)-1     -: W_STRB]     = M_WSTRB[xm];
        assign x_m_WLAST [xm]  = M_WLAST[xm];
        assign x_m_WVALID[xm]  = M_WVALID[xm];
        // B channel
        assign x_m_BREADY[xm]  = M_BREADY[xm];
        // AR channel
        assign x_m_ARID   [W_MID*(xm+1)-1     -: W_MID]      = M_ARID[xm];
        assign x_m_ARADDR [ADDR_WIDTH*(xm+1)-1 -: ADDR_WIDTH] = M_ARADDR[xm];
        assign x_m_ARBURST[BURST_W*(xm+1)-1   -: BURST_W]    = M_ARBURST[xm];
        assign x_m_ARLEN  [LEN_W*(xm+1)-1     -: LEN_W]      = M_ARLEN[xm];
        assign x_m_ARSIZE [SIZE_W*(xm+1)-1    -: SIZE_W]     = M_ARSIZE[xm];
        assign x_m_ARVALID[xm] = M_ARVALID[xm];
        // R channel
        assign x_m_RREADY[xm]  = M_RREADY[xm];
    end
endgenerate

// ----- Master-side unpacking: flat x_m_* → M_* arrays -----
generate
    for (xm = 0; xm < MST_AMT; xm = xm + 1) begin : UNPACK_MST_XBAR
        assign M_AWREADY[xm] = x_m_AWREADY[xm];
        assign M_WREADY[xm]  = x_m_WREADY[xm];
        assign M_BID[xm]     = x_m_BID   [W_SID*(xm+1)-1  -: W_SID];
        assign M_BRESP[xm]   = x_m_BRESP [RESP_W*(xm+1)-1 -: RESP_W];
        assign M_BVALID[xm]  = x_m_BVALID[xm];
        assign M_ARREADY[xm] = x_m_ARREADY[xm];
        assign M_RID[xm]     = x_m_RID   [W_SID*(xm+1)-1     -: W_SID];
        assign M_RDATA[xm]   = x_m_RDATA [DATA_WIDTH*(xm+1)-1 -: DATA_WIDTH];
        assign M_RRESP[xm]   = x_m_RRESP [RESP_W*(xm+1)-1    -: RESP_W];
        assign M_RLAST[xm]   = x_m_RLAST[xm];
        assign M_RVALID[xm]  = x_m_RVALID[xm];
    end
endgenerate

// ----- Slave-side packing: S_* / s_*_fifo arrays → flat x_s_* -----
genvar xs;
generate
    for (xs = 0; xs < SLV_AMT; xs = xs + 1) begin : PACK_SLV
        // AW channel (inputs to crossbar)
        assign x_s_AWREADY[xs]  = S_AWREADY[xs];
        // W channel (inputs to crossbar)
        assign x_s_WREADY[xs]   = S_WREADY[xs];
        // B channel (inputs to crossbar, from s_*_fifo)
        assign x_s_BID   [W_SID*(xs+1)-1  -: W_SID]  = s_bid_fifo[xs];
        assign x_s_BRESP [RESP_W*(xs+1)-1 -: RESP_W] = s_bresp_fifo[xs];
        assign x_s_BVALID[xs]   = s_bvalid_fifo[xs];
        // AR channel (inputs to crossbar)
        assign x_s_ARREADY[xs]  = S_ARREADY[xs];
        // R channel (inputs to crossbar, from s_*_fifo)
        assign x_s_RID   [W_SID*(xs+1)-1     -: W_SID]      = s_rid_fifo[xs];
        assign x_s_RDATA [DATA_WIDTH*(xs+1)-1 -: DATA_WIDTH] = s_rdata_fifo[xs];
        assign x_s_RRESP [RESP_W*(xs+1)-1    -: RESP_W]     = s_rresp_fifo[xs];
        assign x_s_RLAST[xs]    = s_rlast_fifo[xs];
        assign x_s_RVALID[xs]   = s_rvalid_fifo[xs];
    end
endgenerate

// ----- Slave-side unpacking: flat x_s_* → S_* / s_*_fifo arrays -----
generate
    for (xs = 0; xs < SLV_AMT; xs = xs + 1) begin : UNPACK_SLV_XBAR
        // AW channel (outputs from crossbar)
        assign S_AWID[xs]       = x_s_AWID   [W_SID*(xs+1)-1     -: W_SID];
        assign S_AWADDR[xs]     = x_s_AWADDR [ADDR_WIDTH*(xs+1)-1 -: ADDR_WIDTH];
        assign S_AWBURST[xs]    = x_s_AWBURST[BURST_W*(xs+1)-1   -: BURST_W];
        assign S_AWLEN[xs]      = x_s_AWLEN  [LEN_W*(xs+1)-1     -: LEN_W];
        assign S_AWSIZE[xs]     = x_s_AWSIZE [SIZE_W*(xs+1)-1    -: SIZE_W];
        assign S_AWVALID[xs]    = x_s_AWVALID[xs];
        // W channel (outputs from crossbar)
        assign S_WDATA[xs]      = x_s_WDATA  [DATA_WIDTH*(xs+1)-1 -: DATA_WIDTH];
        assign S_WSTRB[xs]      = x_s_WSTRB  [W_STRB*(xs+1)-1     -: W_STRB];
        assign S_WLAST[xs]      = x_s_WLAST[xs];
        assign S_WVALID[xs]     = x_s_WVALID[xs];
        // B channel (outputs from crossbar)
        assign s_bready_fifo[xs] = x_s_BREADY[xs];
        // AR channel (outputs from crossbar)
        assign S_ARID[xs]       = x_s_ARID   [W_SID*(xs+1)-1     -: W_SID];
        assign S_ARADDR[xs]     = x_s_ARADDR [ADDR_WIDTH*(xs+1)-1 -: ADDR_WIDTH];
        assign S_ARBURST[xs]    = x_s_ARBURST[BURST_W*(xs+1)-1   -: BURST_W];
        assign S_ARLEN[xs]      = x_s_ARLEN  [LEN_W*(xs+1)-1     -: LEN_W];
        assign S_ARSIZE[xs]     = x_s_ARSIZE [SIZE_W*(xs+1)-1    -: SIZE_W];
        assign S_ARVALID[xs]    = x_s_ARVALID[xs];
        // R channel (outputs from crossbar)
        assign s_rready_fifo[xs] = x_s_RREADY[xs];
    end
endgenerate

// ----- Crossbar instantiation -----
axi_crossbar #(
    .MST_AMT(MST_AMT),
    .SLV_AMT(SLV_AMT),
    .OUTSTANDING_AMT(OUTSTANDING_AMT),
    .W_ID(W_ID),
    .TRANS_BURST_W(BURST_W),
    .TRANS_DATA_LEN_W(LEN_W),
    .TRANS_DATA_SIZE_W(SIZE_W),
    .TRANS_WR_RESP_W(RESP_W),
    .DATA_WIDTH(DATA_WIDTH),
    .ADDR_WIDTH(ADDR_WIDTH),
    .SLV_ADDR_BASE(SLV_ADDR_BASE),
    .SLV_ADDR_LEN(SLV_ADDR_LEN),
    .DEFAULT_SLV_IDX(0),
    .DEFAULT_SLV_EN(1'b0)
) u_axi_crossbar (
    .AXI_CLK(AXI_CLK),
    .AXI_RSTn(AXI_RSTn),

    // Master Ports
    .m_AWID_i(x_m_AWID),
    .m_AWADDR_i(x_m_AWADDR),
    .m_AWLEN_i(x_m_AWLEN),
    .m_AWSIZE_i(x_m_AWSIZE),
    .m_AWBURST_i(x_m_AWBURST),
    .m_AWVALID_i(x_m_AWVALID),
    .m_AWREADY_o(x_m_AWREADY),
    .m_WDATA_i(x_m_WDATA),
    .m_WSTRB_i(x_m_WSTRB),
    .m_WLAST_i(x_m_WLAST),
    .m_WVALID_i(x_m_WVALID),
    .m_WREADY_o(x_m_WREADY),
    .m_BID_o(x_m_BID),
    .m_BRESP_o(x_m_BRESP),
    .m_BVALID_o(x_m_BVALID),
    .m_BREADY_i(x_m_BREADY),
    .m_ARID_i(x_m_ARID),
    .m_ARADDR_i(x_m_ARADDR),
    .m_ARLEN_i(x_m_ARLEN),
    .m_ARSIZE_i(x_m_ARSIZE),
    .m_ARBURST_i(x_m_ARBURST),
    .m_ARVALID_i(x_m_ARVALID),
    .m_ARREADY_o(x_m_ARREADY),
    .m_RID_o(x_m_RID),
    .m_RDATA_o(x_m_RDATA),
    .m_RRESP_o(x_m_RRESP),
    .m_RLAST_o(x_m_RLAST),
    .m_RVALID_o(x_m_RVALID),
    .m_RREADY_i(x_m_RREADY),
    .m_RSID_o(M_RSID_PACKED),

    // Slave Ports
    .s_AWID_o(x_s_AWID),
    .s_AWADDR_o(x_s_AWADDR),
    .s_AWLEN_o(x_s_AWLEN),
    .s_AWSIZE_o(x_s_AWSIZE),
    .s_AWBURST_o(x_s_AWBURST),
    .s_AWVALID_o(x_s_AWVALID),
    .s_AWREADY_i(x_s_AWREADY),
    .s_WDATA_o(x_s_WDATA),
    .s_WSTRB_o(x_s_WSTRB),
    .s_WLAST_o(x_s_WLAST),
    .s_WVALID_o(x_s_WVALID),
    .s_WREADY_i(x_s_WREADY),
    .s_BID_i(x_s_BID),
    .s_BRESP_i(x_s_BRESP),
    .s_BVALID_i(x_s_BVALID),
    .s_BREADY_o(x_s_BREADY),
    .s_ARID_o(x_s_ARID),
    .s_ARADDR_o(x_s_ARADDR),
    .s_ARLEN_o(x_s_ARLEN),
    .s_ARSIZE_o(x_s_ARSIZE),
    .s_ARBURST_o(x_s_ARBURST),
    .s_ARVALID_o(x_s_ARVALID),
    .s_ARREADY_i(x_s_ARREADY),
    .s_RID_i(x_s_RID),
    .s_RDATA_i(x_s_RDATA),
    .s_RRESP_i(x_s_RRESP),
    .s_RLAST_i(x_s_RLAST),
    .s_RVALID_i(x_s_RVALID),
    .s_RREADY_o(x_s_RREADY),

    // Control
    .arbiter_type(arbiter_type),
    .slv_en_i({SLV_AMT{1'b1}})
);

//===================================================================
// TRACE: 5-channel handshake monitoring for ALL masters and slaves
//===================================================================

genvar tm, ts;
// ---- Master side: pre-FIFO output + response per master ----
generate
    for (tm = 0; tm < MST_AMT; tm = tm + 1) begin : TRACE_MST
