Command: vcs -q -full64 -sverilog -f ./list/flist.f -R +v2k -debug_access+all -timescale=1ns/1ps \
-fsdb +define+FSDB -l com.log +lint=TFIPC-L +lint=PCWM -ntb_opts uvm-1.2 +UVM_TESTNAME=smoke_test \
+ntb_random_seed_automatic

Warning-[IPDW] Identifier previously declared
./rtl/axi_interconnect.v, 762
  Second declaration for identifier 'clr_last_packed' ignored
  Identifier 'clr_last_packed' previously declared as wire. 
  [./rtl/axi_interconnect.v, 669]


Warning-[IPDW] Identifier previously declared
./rtl/axi_interconnect.v, 763
  Second declaration for identifier 'clr_sid_packed' ignored
  Identifier 'clr_sid_packed' previously declared as wire. 
  [./rtl/axi_interconnect.v, 670]


Warning-[IPDW] Identifier previously declared
./rtl/axi_interconnect.v, 764
  Second declaration for identifier 'clr_sid_vld_packed' ignored
  Identifier 'clr_sid_vld_packed' previously declared as wire. 
  [./rtl/axi_interconnect.v, 671]


Warning-[IPDW] Identifier previously declared
./rtl/axi_interconnect.v, 765
  Second declaration for identifier 'sid_buf_s_clr_rdy' ignored
  Identifier 'sid_buf_s_clr_rdy' previously declared as wire. 
  [./rtl/axi_interconnect.v, 672]


Warning-[AOUP] Attempt to override undefined parameter
./uvm/tb_top.sv, 27
  Attempting to override undefined parameter "DEFAULT_SLV_EN", will ignore it.

Notice: Ports coerced to inout, use -notice for details
20 modules and 0 UDP read.
make[1]: Entering directory '/home/ICer/project/axi4/csrc'
g++ -w  -pipe -DVCS -DUVM_DPI_DO_TYPE_CHECK -fPIC -O -I/home/synopsys/vcs/O-2018.09-SP2/include \
-c /home/synopsys/vcs/O-2018.09-SP2/etc/uvm-1.2/dpi/uvm_dpi.cc
g++ -w  -pipe -DVCS -DUVM_DPI_DO_TYPE_CHECK -fPIC -O -I/home/synopsys/vcs/O-2018.09-SP2/include \
-c /home/synopsys/vcs/O-2018.09-SP2/etc/uvm-1.2/verdi/dpi/uvm_verdi_dpi.cpp
../simv up to date
make[1]: Leaving directory '/home/ICer/project/axi4/csrc'
Command: /home/ICer/project/axi4/./simv -q +v2k +define+FSDB -a com.log +lint=TFIPC-L +lint=PCWM +UVM_TESTNAME=smoke_test +ntb_random_seed_automatic
NOTE: automatic random seed used: 3074643418
UVM_INFO /home/synopsys/vcs/O-2018.09-SP2/etc/uvm-1.2/base/uvm_root.svh(402) @ 0: reporter [UVM/RELNOTES] 
----------------------------------------------------------------
UVM-1.2.Synopsys
(C) 2007-2014 Mentor Graphics Corporation
(C) 2007-2014 Cadence Design Systems, Inc.
(C) 2006-2014 Synopsys, Inc.
(C) 2011-2013 Cypress Semiconductor Corp.
(C) 2013-2014 NVIDIA Corporation
----------------------------------------------------------------

  ***********       IMPORTANT RELEASE NOTES         ************

  You are using a version of the UVM library that has been compiled
  with `UVM_NO_DEPRECATED undefined.
  See http://www.eda.org/svdb/view.php?id=3313 for more details.

  You are using a version of the UVM library that has been compiled
  with `UVM_OBJECT_DO_NOT_NEED_CONSTRUCTOR undefined.
  See http://www.eda.org/svdb/view.php?id=3770 for more details.

      (Specify +UVM_NO_RELNOTES to turn off this notice)

*Verdi* Loading libsscore_vcs201809.so
FSDB Dumper for VCS, Release Verdi_O-2018.09-SP2, Linux x86_64/64bit, 02/21/2019
(C) 1996 - 2019 by Synopsys, Inc.
*Verdi* : Create FSDB file 'tb_top.fsdb'
*Verdi* : Begin traversing the scope (tb_top), layer (0).
*Verdi* : End of traversing.
*Verdi* : Begin traversing the MDAs, layer (0).
*Verdi* : Enable +mda and +packedmda dumping.
*Verdi* : End of traversing the MDAs.
UVM_INFO /home/synopsys/vcs/O-2018.09-SP2/etc/uvm-1.2/base/uvm_root.svh(463) @ 0: reporter [NO_DPI_TSTNAME] UVM_NO_DPI defined--getting UVM_TESTNAME directly, without DPI
UVM_INFO @ 0: reporter [RNTST] Running test smoke_test...
UVM_INFO /home/synopsys/vcs/O-2018.09-SP2/etc/uvm-1.2/base/uvm_root.svh(589) @ 0: reporter [UVMTOP] UVM testbench topology:
------------------------------------------------------------------
Name                       Type                        Size  Value
------------------------------------------------------------------
uvm_test_top               smoke_test                  -     @343 
  env                      axi_env                     -     @356 
    cov                    axi_cov                     -     @593 
      ar_ap                uvm_analysis_export         -     @671 
      ar_fifo              uvm_tlm_analysis_fifo #(T)  -     @760 
        analysis_export    uvm_analysis_imp            -     @809 
        get_ap             uvm_analysis_port           -     @799 
        get_peek_export    uvm_get_peek_imp            -     @779 
        put_ap             uvm_analysis_port           -     @789 
        put_export         uvm_put_imp                 -     @769 
      aw_ap                uvm_analysis_export         -     @661 
      aw_fifo              uvm_tlm_analysis_fifo #(T)  -     @701 
        analysis_export    uvm_analysis_imp            -     @750 
        get_ap             uvm_analysis_port           -     @740 
        get_peek_export    uvm_get_peek_imp            -     @720 
        put_ap             uvm_analysis_port           -     @730 
        put_export         uvm_put_imp                 -     @710 
      b_ap                 uvm_analysis_export         -     @681 
      b_fifo               uvm_tlm_analysis_fifo #(T)  -     @819 
        analysis_export    uvm_analysis_imp            -     @868 
        get_ap             uvm_analysis_port           -     @858 
        get_peek_export    uvm_get_peek_imp            -     @838 
        put_ap             uvm_analysis_port           -     @848 
        put_export         uvm_put_imp                 -     @828 
      r_ap                 uvm_analysis_export         -     @691 
      r_fifo               uvm_tlm_analysis_fifo #(T)  -     @878 
        analysis_export    uvm_analysis_imp            -     @927 
        get_ap             uvm_analysis_port           -     @917 
        get_peek_export    uvm_get_peek_imp            -     @897 
        put_ap             uvm_analysis_port           -     @907 
        put_export         uvm_put_imp                 -     @887 
    mst_ag0                axi_master_agent            -     @366 
      drv_m0               axi_driver                  -     @1075
        ar_fifo            uvm_tlm_fifo #(T)           -     @1261
          get_ap           uvm_analysis_port           -     @1300
          get_peek_export  uvm_get_peek_imp            -     @1280
          put_ap           uvm_analysis_port           -     @1290
          put_export       uvm_put_imp                 -     @1270
        aw_fifo            uvm_tlm_fifo #(T)           -     @1163
          get_ap           uvm_analysis_port           -     @1202
          get_peek_export  uvm_get_peek_imp            -     @1182
          put_ap           uvm_analysis_port           -     @1192
          put_export       uvm_put_imp                 -     @1172
        rsp_port           uvm_analysis_port           -     @1094
        seq_item_port      uvm_seq_item_pull_port      -     @1084
        w_fifo             uvm_tlm_fifo #(T)           -     @1212
          get_ap           uvm_analysis_port           -     @1251
          get_peek_export  uvm_get_peek_imp            -     @1231
          put_ap           uvm_analysis_port           -     @1241
          put_export       uvm_put_imp                 -     @1221
      mon_m0               axi_monitor                 -     @1104
        ap_ar              uvm_analysis_port           -     @1143
        ap_aw              uvm_analysis_port           -     @1113
        ap_b               uvm_analysis_port           -     @1133
        ap_r               uvm_analysis_port           -     @1153
        ap_w               uvm_analysis_port           -     @1123
      sqr_m0               axi_sequencer               -     @938 
        rsp_export         uvm_analysis_export         -     @947 
        seq_item_export    uvm_seq_item_pull_imp       -     @1065
        arbitration_queue  array                       0     -    
        lock_queue         array                       0     -    
        num_last_reqs      integral                    32    'd1  
        num_last_rsps      integral                    32    'd1  
    mst_ag1                axi_master_agent            -     @384 
      drv_m1               axi_driver                  -     @1453
        ar_fifo            uvm_tlm_fifo #(T)           -     @1639
          get_ap           uvm_analysis_port           -     @1678
          get_peek_export  uvm_get_peek_imp            -     @1658
          put_ap           uvm_analysis_port           -     @1668
          put_export       uvm_put_imp                 -     @1648
        aw_fifo            uvm_tlm_fifo #(T)           -     @1541
          get_ap           uvm_analysis_port           -     @1580
          get_peek_export  uvm_get_peek_imp            -     @1560
          put_ap           uvm_analysis_port           -     @1570
          put_export       uvm_put_imp                 -     @1550
        rsp_port           uvm_analysis_port           -     @1472
        seq_item_port      uvm_seq_item_pull_port      -     @1462
        w_fifo             uvm_tlm_fifo #(T)           -     @1590
          get_ap           uvm_analysis_port           -     @1629
          get_peek_export  uvm_get_peek_imp            -     @1609
          put_ap           uvm_analysis_port           -     @1619
          put_export       uvm_put_imp                 -     @1599
      mon_m1               axi_monitor                 -     @1482
        ap_ar              uvm_analysis_port           -     @1521
        ap_aw              uvm_analysis_port           -     @1491
        ap_b               uvm_analysis_port           -     @1511
        ap_r               uvm_analysis_port           -     @1531
        ap_w               uvm_analysis_port           -     @1501
      sqr_m1               axi_sequencer               -     @1316
        rsp_export         uvm_analysis_export         -     @1325
        seq_item_export    uvm_seq_item_pull_imp       -     @1443
        arbitration_queue  array                       0     -    
        lock_queue         array                       0     -    
        num_last_reqs      integral                    32    'd1  
        num_last_rsps      integral                    32    'd1  
    mst_ag2                axi_master_agent            -     @402 
      drv_m2               axi_driver                  -     @1831
        ar_fifo            uvm_tlm_fifo #(T)           -     @2017
          get_ap           uvm_analysis_port           -     @2056
          get_peek_export  uvm_get_peek_imp            -     @2036
          put_ap           uvm_analysis_port           -     @2046
          put_export       uvm_put_imp                 -     @2026
        aw_fifo            uvm_tlm_fifo #(T)           -     @1919
          get_ap           uvm_analysis_port           -     @1958
          get_peek_export  uvm_get_peek_imp            -     @1938
          put_ap           uvm_analysis_port           -     @1948
          put_export       uvm_put_imp                 -     @1928
        rsp_port           uvm_analysis_port           -     @1850
        seq_item_port      uvm_seq_item_pull_port      -     @1840
        w_fifo             uvm_tlm_fifo #(T)           -     @1968
          get_ap           uvm_analysis_port           -     @2007
          get_peek_export  uvm_get_peek_imp            -     @1987
          put_ap           uvm_analysis_port           -     @1997
          put_export       uvm_put_imp                 -     @1977
      mon_m2               axi_monitor                 -     @1860
        ap_ar              uvm_analysis_port           -     @1899
        ap_aw              uvm_analysis_port           -     @1869
        ap_b               uvm_analysis_port           -     @1889
        ap_r               uvm_analysis_port           -     @1909
        ap_w               uvm_analysis_port           -     @1879
      sqr_m2               axi_sequencer               -     @1694
        rsp_export         uvm_analysis_export         -     @1703
        seq_item_export    uvm_seq_item_pull_imp       -     @1821
        arbitration_queue  array                       0     -    
        lock_queue         array                       0     -    
        num_last_reqs      integral                    32    'd1  
        num_last_rsps      integral                    32    'd1  
    mst_ag3                axi_master_agent            -     @420 
      drv_m3               axi_driver                  -     @2209
        ar_fifo            uvm_tlm_fifo #(T)           -     @2395
          get_ap           uvm_analysis_port           -     @2434
          get_peek_export  uvm_get_peek_imp            -     @2414
          put_ap           uvm_analysis_port           -     @2424
          put_export       uvm_put_imp                 -     @2404
        aw_fifo            uvm_tlm_fifo #(T)           -     @2297
          get_ap           uvm_analysis_port           -     @2336
          get_peek_export  uvm_get_peek_imp            -     @2316
          put_ap           uvm_analysis_port           -     @2326
          put_export       uvm_put_imp                 -     @2306
        rsp_port           uvm_analysis_port           -     @2228
        seq_item_port      uvm_seq_item_pull_port      -     @2218
        w_fifo             uvm_tlm_fifo #(T)           -     @2346
          get_ap           uvm_analysis_port           -     @2385
          get_peek_export  uvm_get_peek_imp            -     @2365
          put_ap           uvm_analysis_port           -     @2375
          put_export       uvm_put_imp                 -     @2355
      mon_m3               axi_monitor                 -     @2238
        ap_ar              uvm_analysis_port           -     @2277
        ap_aw              uvm_analysis_port           -     @2247
        ap_b               uvm_analysis_port           -     @2267
        ap_r               uvm_analysis_port           -     @2287
        ap_w               uvm_analysis_port           -     @2257
      sqr_m3               axi_sequencer               -     @2072
        rsp_export         uvm_analysis_export         -     @2081
        seq_item_export    uvm_seq_item_pull_imp       -     @2199
        arbitration_queue  array                       0     -    
        lock_queue         array                       0     -    
        num_last_reqs      integral                    32    'd1  
        num_last_rsps      integral                    32    'd1  
    proto_chk              axi_protocol_checker        -     @602 
      ar_imp               uvm_analysis_imp_ar         -     @641 
      aw_imp               uvm_analysis_imp_aw         -     @611 
      b_imp                uvm_analysis_imp_b          -     @631 
      r_imp                uvm_analysis_imp_r          -     @651 
      w_imp                uvm_analysis_imp_w          -     @621 
    refm                   reference_model             -     @584 
      ar_ap                uvm_analysis_export         -     @2459
      ar_fifo              uvm_tlm_analysis_fifo #(T)  -     @2528
        analysis_export    uvm_analysis_imp            -     @2577
        get_ap             uvm_analysis_port           -     @2567
        get_peek_export    uvm_get_peek_imp            -     @2547
        put_ap             uvm_analysis_port           -     @2557
        put_export         uvm_put_imp                 -     @2537
      aw_ap                uvm_analysis_export         -     @2449
      aw_fifo              uvm_tlm_analysis_fifo #(T)  -     @2469
        analysis_export    uvm_analysis_imp            -     @2518
        get_ap             uvm_analysis_port           -     @2508
        get_peek_export    uvm_get_peek_imp            -     @2488
        put_ap             uvm_analysis_port           -     @2498
        put_export         uvm_put_imp                 -     @2478
      pred_ar_ap           uvm_analysis_port           -     @2597
      pred_aw_ap           uvm_analysis_port           -     @2587
    sb                     axi_scoreboard              -     @575 
      ar_d_fifo            uvm_tlm_analysis_fifo #(T)  -     @3090
        analysis_export    uvm_analysis_imp            -     @3139
        get_ap             uvm_analysis_port           -     @3129
        get_peek_export    uvm_get_peek_imp            -     @3109
        put_ap             uvm_analysis_port           -     @3119
        put_export         uvm_put_imp                 -     @3099
      ar_imp               uvm_analysis_imp_ar         -     @2637
      ar_p_fifo            uvm_tlm_analysis_fifo #(T)  -     @3149
        analysis_export    uvm_analysis_imp            -     @3198
        get_ap             uvm_analysis_port           -     @3188
        get_peek_export    uvm_get_peek_imp            -     @3168
        put_ap             uvm_analysis_port           -     @3178
        put_export         uvm_put_imp                 -     @3158
      ar_r_fifo            uvm_tlm_analysis_fifo #(T)  -     @3031
        analysis_export    uvm_analysis_imp            -     @3080
        get_ap             uvm_analysis_port           -     @3070
        get_peek_export    uvm_get_peek_imp            -     @3050
        put_ap             uvm_analysis_port           -     @3060
        put_export         uvm_put_imp                 -     @3040
      aw_d_fifo            uvm_tlm_analysis_fifo #(T)  -     @2736
        analysis_export    uvm_analysis_imp            -     @2785
        get_ap             uvm_analysis_port           -     @2775
        get_peek_export    uvm_get_peek_imp            -     @2755
        put_ap             uvm_analysis_port           -     @2765
        put_export         uvm_put_imp                 -     @2745
      aw_imp               uvm_analysis_imp_aw         -     @2607
      aw_p_fifo            uvm_tlm_analysis_fifo #(T)  -     @2795
        analysis_export    uvm_analysis_imp            -     @2844
        get_ap             uvm_analysis_port           -     @2834
        get_peek_export    uvm_get_peek_imp            -     @2814
        put_ap             uvm_analysis_port           -     @2824
        put_export         uvm_put_imp                 -     @2804
      aw_r_fifo            uvm_tlm_analysis_fifo #(T)  -     @2677
        analysis_export    uvm_analysis_imp            -     @2726
        get_ap             uvm_analysis_port           -     @2716
        get_peek_export    uvm_get_peek_imp            -     @2696
        put_ap             uvm_analysis_port           -     @2706
        put_export         uvm_put_imp                 -     @2686
      b_imp                uvm_analysis_imp_b          -     @2627
      b_p_fifo             uvm_tlm_analysis_fifo #(T)  -     @2972
        analysis_export    uvm_analysis_imp            -     @3021
        get_ap             uvm_analysis_port           -     @3011
        get_peek_export    uvm_get_peek_imp            -     @2991
        put_ap             uvm_analysis_port           -     @3001
        put_export         uvm_put_imp                 -     @2981
      r_d_fifo             uvm_tlm_analysis_fifo #(T)  -     @3208
        analysis_export    uvm_analysis_imp            -     @3257
        get_ap             uvm_analysis_port           -     @3247
        get_peek_export    uvm_get_peek_imp            -     @3227
        put_ap             uvm_analysis_port           -     @3237
        put_export         uvm_put_imp                 -     @3217
      r_imp                uvm_analysis_imp_r          -     @2647
      r_p_fifo             uvm_tlm_analysis_fifo #(T)  -     @3267
        analysis_export    uvm_analysis_imp            -     @3316
        get_ap             uvm_analysis_port           -     @3306
        get_peek_export    uvm_get_peek_imp            -     @3286
        put_ap             uvm_analysis_port           -     @3296
        put_export         uvm_put_imp                 -     @3276
      slv_ar_fifo          uvm_tlm_analysis_fifo #(T)  -     @3385
        analysis_export    uvm_analysis_imp            -     @3434
        get_ap             uvm_analysis_port           -     @3424
        get_peek_export    uvm_get_peek_imp            -     @3404
        put_ap             uvm_analysis_port           -     @3414
        put_export         uvm_put_imp                 -     @3394
      slv_ar_imp           uvm_analysis_imp_slv_ar     -     @2667
      slv_aw_fifo          uvm_tlm_analysis_fifo #(T)  -     @3326
        analysis_export    uvm_analysis_imp            -     @3375
        get_ap             uvm_analysis_port           -     @3365
        get_peek_export    uvm_get_peek_imp            -     @3345
        put_ap             uvm_analysis_port           -     @3355
        put_export         uvm_put_imp                 -     @3335
      slv_aw_imp           uvm_analysis_imp_slv_aw     -     @2657
      w_d_fifo             uvm_tlm_analysis_fifo #(T)  -     @2854
        analysis_export    uvm_analysis_imp            -     @2903
        get_ap             uvm_analysis_port           -     @2893
        get_peek_export    uvm_get_peek_imp            -     @2873
        put_ap             uvm_analysis_port           -     @2883
        put_export         uvm_put_imp                 -     @2863
      w_imp                uvm_analysis_imp_w          -     @2617
      w_p_fifo             uvm_tlm_analysis_fifo #(T)  -     @2913
        analysis_export    uvm_analysis_imp            -     @2962
        get_ap             uvm_analysis_port           -     @2952
        get_peek_export    uvm_get_peek_imp            -     @2932
        put_ap             uvm_analysis_port           -     @2942
        put_export         uvm_put_imp                 -     @2922
    slv_ag0                axi_slave_agent             -     @375 
      mon_s0               axi_monitor                 -     @3445
        ap_ar              uvm_analysis_port           -     @3484
        ap_aw              uvm_analysis_port           -     @3454
        ap_b               uvm_analysis_port           -     @3474
        ap_r               uvm_analysis_port           -     @3494
        ap_w               uvm_analysis_port           -     @3464
    slv_ag1                axi_slave_agent             -     @393 
      mon_s1               axi_monitor                 -     @3505
        ap_ar              uvm_analysis_port           -     @3544
        ap_aw              uvm_analysis_port           -     @3514
        ap_b               uvm_analysis_port           -     @3534
        ap_r               uvm_analysis_port           -     @3554
        ap_w               uvm_analysis_port           -     @3524
    slv_ag2                axi_slave_agent             -     @411 
      mon_s2               axi_monitor                 -     @3565
        ap_ar              uvm_analysis_port           -     @3604
        ap_aw              uvm_analysis_port           -     @3574
        ap_b               uvm_analysis_port           -     @3594
        ap_r               uvm_analysis_port           -     @3614
        ap_w               uvm_analysis_port           -     @3584
    slv_ag3                axi_slave_agent             -     @429 
      mon_s3               axi_monitor                 -     @3625
        ap_ar              uvm_analysis_port           -     @3664
        ap_aw              uvm_analysis_port           -     @3634
        ap_b               uvm_analysis_port           -     @3654
        ap_r               uvm_analysis_port           -     @3674
        ap_w               uvm_analysis_port           -     @3644
    vsqr                   axi_virtual_sequencer       -     @438 
      rsp_export           uvm_analysis_export         -     @447 
      seq_item_export      uvm_seq_item_pull_imp       -     @565 
      arbitration_queue    array                       0     -    
      lock_queue           array                       0     -    
      num_last_reqs        integral                    32    'd1  
      num_last_rsps        integral                    32    'd1  
------------------------------------------------------------------

UVM_INFO /home/synopsys/vcs/O-2018.09-SP2/etc/uvm-1.2/base/uvm_traversal.svh(279) @ 0: reporter [UVM/COMP/NAMECHECK] This implementation of the component name checks requires DPI to be enabled
[TRACE_XBAR_B] 105000 M side m=0 m_bvalid=0 m_bready=1
[TRACE_XBAR_B] 115000 M side m=0 m_bvalid=0 m_bready=1
[TRACE_XBAR_B] 125000 M side m=0 m_bvalid=0 m_bready=1
[TRACE_XBAR_B] 135000 M side m=0 m_bvalid=0 m_bready=1
[TRACE_XBAR_B] 145000 M side m=0 m_bvalid=0 m_bready=1
[TRACE_XBAR_B] 155000 M side m=0 m_bvalid=0 m_bready=1
[TRACE_XBAR_B] 165000 M side m=0 m_bvalid=0 m_bready=1
[TRACE_XBAR_B] 175000 M side m=0 m_bvalid=0 m_bready=1
[TRACE_XBAR_B] 185000 M side m=0 m_bvalid=0 m_bready=1
[TRACE_XBAR_B] 195000 M side m=0 m_bvalid=0 m_bready=1
UVM_INFO ./uvm/axi_driver.sv(102) @ 200000: uvm_test_top.env.mst_ag0.drv_m0 [TRACE_AW] M[0] DRV AW start addr=0x00001298 id=0
UVM_INFO ./uvm/axi_driver.sv(200) @ 200000: uvm_test_top.env.mst_ag0.drv_m0 [TRACE_AR] M[0] DRV AR start addr=0x00001298 id=1
UVM_INFO ./uvm/axi_driver.sv(102) @ 200000: uvm_test_top.env.mst_ag1.drv_m1 [TRACE_AW] M[1] DRV AW start addr=0x00000398 id=8
UVM_INFO ./uvm/axi_driver.sv(200) @ 200000: uvm_test_top.env.mst_ag1.drv_m1 [TRACE_AR] M[1] DRV AR start addr=0x00000398 id=9
UVM_INFO ./uvm/axi_driver.sv(102) @ 200000: uvm_test_top.env.mst_ag2.drv_m2 [TRACE_AW] M[2] DRV AW start addr=0x00001ea4 id=0
UVM_INFO ./uvm/axi_driver.sv(200) @ 200000: uvm_test_top.env.mst_ag2.drv_m2 [TRACE_AR] M[2] DRV AR start addr=0x00001ea4 id=1
UVM_INFO ./uvm/axi_driver.sv(102) @ 200000: uvm_test_top.env.mst_ag3.drv_m3 [TRACE_AW] M[3] DRV AW start addr=0x00000c3c id=8
UVM_INFO ./uvm/axi_driver.sv(200) @ 200000: uvm_test_top.env.mst_ag3.drv_m3 [TRACE_AR] M[3] DRV AR start addr=0x00000c3c id=9
UVM_INFO ./uvm/axi_driver.sv(106) @ 205000: uvm_test_top.env.mst_ag0.drv_m0 [TRACE_AW] M[0] DRV AW handshake done
UVM_INFO ./uvm/axi_driver.sv(106) @ 205000: uvm_test_top.env.mst_ag1.drv_m1 [TRACE_AW] M[1] DRV AW handshake done
UVM_INFO ./uvm/axi_driver.sv(106) @ 205000: uvm_test_top.env.mst_ag2.drv_m2 [TRACE_AW] M[2] DRV AW handshake done
UVM_INFO ./uvm/axi_driver.sv(106) @ 205000: uvm_test_top.env.mst_ag3.drv_m3 [TRACE_AW] M[3] DRV AW handshake done
[TRACE] 205000 W FIFO write m=0 last=0 data=0xb696e277
[TRACE_XBAR_B] 205000 M side m=0 m_bvalid=0 m_bready=1
[TRACE_C4K] 205000 W m_vld=1 m_rdy=1 s_vld=1 s_rdy=1 slast=0
[TRACE_C4K] 205000 W m_vld=1 m_rdy=1 s_vld=1 s_rdy=1 slast=0
[TRACE_C4K] 205000 W m_vld=1 m_rdy=1 s_vld=1 s_rdy=1 slast=0
[TRACE_C4K] 205000 W m_vld=1 m_rdy=1 s_vld=1 s_rdy=1 slast=0
[TRACE] 215000 W FIFO read m=0 last=0 data=0xb696e277
[TRACE_XBAR_B] 215000 M side m=0 m_bvalid=0 m_bready=1
[TRACE] 215000 AR pre-FIFO vld m=0 vld=1 rdy=1
[TRACE] 215000 AR pre-FIFO out m=0 addr=0x00001298
[TRACE] 215000 AR pre-FIFO vld m=1 vld=1 rdy=0
[TRACE] 215000 AR pre-FIFO vld m=2 vld=1 rdy=0
[TRACE] 215000 AR pre-FIFO vld m=3 vld=1 rdy=0
[TRACE] 215000 AW pre-FIFO m=0 addr=0x00001298 len=10
[TRACE] 215000 W  pre-FIFO m=0
[TRACE] 215000 AR pre-FIFO m=0 addr=0x00001298 len=11
[TRACE] 215000 XBAR M_ARREADY m=0
[TRACE] 215000 XBAR S_ARVALID s=0 addr=0x00001298
[TRACE] 215000 XBAR m_arready[0]=1 ar_rdy_vec=0001
[TRACE] 215000 XBAR m_arready[0]=1 ar_rdy_vec=0001
[TRACE] 215000 XBAR m_arready[0]=1 ar_rdy_vec=0001
[TRACE] 215000 XBAR m_arready[0]=1 ar_rdy_vec=0001
[TRACE] 215000 XBAR m_arready[0]=1 ar_rdy_vec=0000
[TRACE] 215000 XBAR m_arready[0]=1 ar_rdy_vec=0000
[TRACE] 215000 XBAR m_arready[0]=1 ar_rdy_vec=0000
[TRACE] 215000 XBAR m_arready[0]=1 ar_rdy_vec=0000
[TRACE] 215000 XBAR m_arready[0]=1 ar_rdy_vec=0000
[TRACE] 215000 XBAR m_arready[0]=1 ar_rdy_vec=0000
[TRACE] 215000 XBAR m_arready[0]=1 ar_rdy_vec=0000
[TRACE] 215000 XBAR m_arready[0]=1 ar_rdy_vec=0000
[TRACE] 215000 XBAR m_arready[0]=1 ar_rdy_vec=0000
[TRACE] 215000 XBAR m_arready[0]=1 ar_rdy_vec=0000
[TRACE] 215000 XBAR m_arready[0]=1 ar_rdy_vec=0000
[TRACE] 215000 XBAR m_arready[0]=1 ar_rdy_vec=0000
UVM_INFO ./uvm/axi_driver.sv(102) @ 220000: uvm_test_top.env.mst_ag0.drv_m0 [TRACE_AW] M[0] DRV AW start addr=0x00002764 id=2
UVM_INFO ./uvm/axi_driver.sv(200) @ 220000: uvm_test_top.env.mst_ag0.drv_m0 [TRACE_AR] M[0] DRV AR start addr=0x00002764 id=3
UVM_INFO ./uvm/axi_driver.sv(102) @ 220000: uvm_test_top.env.mst_ag1.drv_m1 [TRACE_AW] M[1] DRV AW start addr=0x00003b04 id=10
UVM_INFO ./uvm/axi_driver.sv(200) @ 220000: uvm_test_top.env.mst_ag1.drv_m1 [TRACE_AR] M[1] DRV AR start addr=0x00003b04 id=11
UVM_INFO ./uvm/axi_driver.sv(102) @ 220000: uvm_test_top.env.mst_ag2.drv_m2 [TRACE_AW] M[2] DRV AW start addr=0x00003aa8 id=2
UVM_INFO ./uvm/axi_driver.sv(200) @ 220000: uvm_test_top.env.mst_ag2.drv_m2 [TRACE_AR] M[2] DRV AR start addr=0x00003aa8 id=3
UVM_INFO ./uvm/axi_driver.sv(102) @ 220000: uvm_test_top.env.mst_ag3.drv_m3 [TRACE_AW] M[3] DRV AW start addr=0x00003edc id=10
UVM_INFO ./uvm/axi_driver.sv(200) @ 220000: uvm_test_top.env.mst_ag3.drv_m3 [TRACE_AR] M[3] DRV AR start addr=0x00003edc id=11
UVM_INFO ./uvm/axi_slave_agent.sv(49) @ 225000: uvm_test_top.env.slv_ag0 [TRACE] S[0] SLV AW handshake id=0 addr=0x00001298 len=10
UVM_INFO ./uvm/axi_slave_agent.sv(116) @ 225000: uvm_test_top.env.slv_ag0 [TRACE] S[0] SLV AR handshake id=1 addr=0x00001298 len=11
UVM_INFO ./uvm/axi_driver.sv(106) @ 225000: uvm_test_top.env.mst_ag0.drv_m0 [TRACE_AW] M[0] DRV AW handshake done
UVM_INFO ./uvm/axi_driver.sv(106) @ 225000: uvm_test_top.env.mst_ag1.drv_m1 [TRACE_AW] M[1] DRV AW handshake done
UVM_INFO ./uvm/axi_driver.sv(106) @ 225000: uvm_test_top.env.mst_ag2.drv_m2 [TRACE_AW] M[2] DRV AW handshake done
UVM_INFO ./uvm/axi_driver.sv(106) @ 225000: uvm_test_top.env.mst_ag3.drv_m3 [TRACE_AW] M[3] DRV AW handshake done
[TRACE] 225000 W FIFO write m=0 last=0 data=0xa36246f0
[TRACE_XBAR_B] 225000 M side m=0 m_bvalid=0 m_bready=1
[TRACE] 225000 AR at slave s=0 addr=0x00001298
[TRACE] 225000 AR pre-FIFO vld m=0 vld=0 rdy=0
[TRACE] 225000 AR pre-FIFO out m=1 addr=0x00000398
[TRACE] 225000 AW pre-FIFO m=1 addr=0x00000398 len=4
[TRACE] 225000 W  pre-FIFO m=1
[TRACE] 225000 AR pre-FIFO m=1 addr=0x00000398 len=10
[TRACE] 225000 AW at slave s=0 addr=0x00001298 len=10
[TRACE] 225000 AR at slave s=0 addr=0x00001298 len=11
[TRACE] 225000 XBAR S_ARVALID s=0 addr=0x00000398
[TRACE_C4K] 225000 W m_vld=1 m_rdy=1 s_vld=1 s_rdy=1 slast=0
[TRACE_C4K] 225000 W m_vld=1 m_rdy=1 s_vld=1 s_rdy=1 slast=0
[TRACE_C4K] 225000 W m_vld=1 m_rdy=1 s_vld=1 s_rdy=1 slast=0
[TRACE_C4K] 225000 W m_vld=1 m_rdy=1 s_vld=1 s_rdy=1 slast=0
UVM_INFO ./uvm/axi_slave_agent.sv(134) @ 225000: uvm_test_top.env.slv_ag0 [TRACE] S[0] SLV R start id=1 len=11
UVM_INFO ./uvm/axi_slave_agent.sv(49) @ 235000: uvm_test_top.env.slv_ag0 [TRACE] S[0] SLV AW handshake id=72 addr=0x00000398 len=4
UVM_INFO ./uvm/axi_slave_agent.sv(69) @ 235000: uvm_test_top.env.slv_ag0 [TRACE] S[0] SLV W beat data=0xb696e277 last=0
UVM_INFO ./uvm/axi_slave_agent.sv(116) @ 235000: uvm_test_top.env.slv_ag0 [TRACE] S[0] SLV AR handshake id=73 addr=0x00000398 len=10
[TRACE] 235000 W FIFO read m=0 last=0 data=0xa36246f0
[TRACE] 235000 W at slave s=0 last=0 data=0xb696e277
[TRACE_XBAR_B] 235000 M side m=0 m_bvalid=0 m_bready=1
[TRACE] 235000 AR at slave s=0 addr=0x00000398
[TRACE] 235000 AR pre-FIFO vld m=0 vld=1 rdy=1
[TRACE] 235000 AR pre-FIFO out m=0 addr=0x00002764
[TRACE] 235000 AR pre-FIFO out m=2 addr=0x00001ea4
[TRACE] 235000 W  pre-FIFO m=0
[TRACE] 235000 AR pre-FIFO m=0 addr=0x00002764 len=14
[TRACE] 235000 W  pre-FIFO m=1
[TRACE] 235000 AW pre-FIFO m=2 addr=0x00001ea4 len=8
[TRACE] 235000 W  pre-FIFO m=2
[TRACE] 235000 AR pre-FIFO m=2 addr=0x00001ea4 len=8
[TRACE] 235000 AW at slave s=0 addr=0x00000398 len=4
[TRACE] 235000 W  at slave s=0
[TRACE] 235000 AR at slave s=0 addr=0x00000398 len=10
[TRACE] 235000 R  from slave s=0
[TRACE] 235000 XBAR M_ARREADY m=0
[TRACE] 235000 XBAR S_ARVALID s=0 addr=0x00001ea4
[TRACE] 235000 XBAR S_ARVALID s=1 addr=0x00002764
[TRACE] 235000 XBAR m_arready[0]=1 ar_rdy_vec=0010
[TRACE] 235000 XBAR m_arready[0]=1 ar_rdy_vec=0010
[TRACE] 235000 XBAR m_arready[0]=1 ar_rdy_vec=0010
[TRACE] 235000 XBAR m_arready[0]=1 ar_rdy_vec=0010
[TRACE] 235000 XBAR m_arready[0]=1 ar_rdy_vec=0000
[TRACE] 235000 XBAR m_arready[0]=1 ar_rdy_vec=0000
[TRACE] 235000 XBAR m_arready[0]=1 ar_rdy_vec=0000
[TRACE] 235000 XBAR m_arready[0]=1 ar_rdy_vec=0000
[TRACE] 235000 XBAR m_arready[0]=1 ar_rdy_vec=0001
[TRACE] 235000 XBAR m_arready[0]=1 ar_rdy_vec=0001
[TRACE] 235000 XBAR m_arready[0]=1 ar_rdy_vec=0001
[TRACE] 235000 XBAR m_arready[0]=1 ar_rdy_vec=0001
[TRACE] 235000 XBAR m_arready[0]=1 ar_rdy_vec=0000
[TRACE] 235000 XBAR m_arready[0]=1 ar_rdy_vec=0000
[TRACE] 235000 XBAR m_arready[0]=1 ar_rdy_vec=0000
[TRACE] 235000 XBAR m_arready[0]=1 ar_rdy_vec=0000
UVM_INFO ./uvm/axi_slave_agent.sv(49) @ 245000: uvm_test_top.env.slv_ag0 [TRACE] S[0] SLV AW handshake id=128 addr=0x00001ea4 len=8
UVM_INFO ./uvm/axi_slave_agent.sv(116) @ 245000: uvm_test_top.env.slv_ag0 [TRACE] S[0] SLV AR handshake id=129 addr=0x00001ea4 len=8
UVM_INFO ./uvm/axi_slave_agent.sv(116) @ 245000: uvm_test_top.env.slv_ag1 [TRACE] S[1] SLV AR handshake id=3 addr=0x00002764 len=14
[TRACE] 245000 W FIFO write m=0 last=0 data=0x16613ae1
[TRACE_XBAR_B] 245000 M side m=0 m_bvalid=0 m_bready=1
[TRACE] 245000 AR at slave s=0 addr=0x00001ea4
[TRACE] 245000 AR at slave s=1 addr=0x00002764
[TRACE] 245000 AR pre-FIFO vld m=0 vld=0 rdy=0
[TRACE] 245000 AR pre-FIFO out m=3 addr=0x00000c3c
[TRACE] 245000 S_ARREADY s=1 fifo=1 sid=0 final=0
[TRACE] 245000 R  to master m=0
[TRACE] 245000 W  pre-FIFO m=2
[TRACE] 245000 AW pre-FIFO m=3 addr=0x00000c3c len=12
[TRACE] 245000 W  pre-FIFO m=3
[TRACE] 245000 AR pre-FIFO m=3 addr=0x00000c3c len=15
[TRACE] 245000 AW at slave s=0 addr=0x00001ea4 len=8
[TRACE] 245000 AR at slave s=0 addr=0x00001ea4 len=8
[TRACE] 245000 AR at slave s=1 addr=0x00002764 len=14
[TRACE] 245000 XBAR S_ARVALID s=0 addr=0x00000c3c
[TRACE] 245000 XBAR S_ARVALID s=1 addr=0x00003b04
[TRACE_C4K] 245000 W m_vld=1 m_rdy=1 s_vld=1 s_rdy=1 slast=0
[TRACE_C4K] 245000 W m_vld=1 m_rdy=1 s_vld=1 s_rdy=1 slast=0
[TRACE_C4K] 245000 W m_vld=1 m_rdy=1 s_vld=1 s_rdy=1 slast=0
[TRACE_C4K] 245000 W m_vld=1 m_rdy=1 s_vld=1 s_rdy=1 slast=0
UVM_INFO ./uvm/axi_slave_agent.sv(134) @ 245000: uvm_test_top.env.slv_ag1 [TRACE] S[1] SLV R start id=3 len=14
UVM_INFO ./uvm/axi_slave_agent.sv(49) @ 255000: uvm_test_top.env.slv_ag0 [TRACE] S[0] SLV AW handshake id=200 addr=0x00000c3c len=12
UVM_INFO ./uvm/axi_slave_agent.sv(69) @ 255000: uvm_test_top.env.slv_ag0 [TRACE] S[0] SLV W beat data=0xa36246f0 last=0
UVM_INFO ./uvm/axi_slave_agent.sv(116) @ 255000: uvm_test_top.env.slv_ag0 [TRACE] S[0] SLV AR handshake id=201 addr=0x00000c3c len=15
UVM_INFO ./uvm/axi_slave_agent.sv(116) @ 255000: uvm_test_top.env.slv_ag1 [TRACE] S[1] SLV AR handshake id=75 addr=0x00003b04 len=7
[TRACE] 255000 W FIFO read m=0 last=0 data=0x16613ae1
[TRACE] 255000 W at slave s=0 last=0 data=0xa36246f0
[TRACE_XBAR_B] 255000 M side m=0 m_bvalid=0 m_bready=1
[TRACE] 255000 AR at slave s=0 addr=0x00000c3c
[TRACE] 255000 AR at slave s=1 addr=0x00003b04
[TRACE] 255000 S_ARREADY s=1 fifo=1 sid=0 final=0
[TRACE] 255000 W  pre-FIFO m=0
[TRACE] 255000 W  pre-FIFO m=1
[TRACE] 255000 W  pre-FIFO m=2
[TRACE] 255000 W  pre-FIFO m=3
[TRACE] 255000 AW at slave s=0 addr=0x00000c3c len=12
[TRACE] 255000 W  at slave s=0
[TRACE] 255000 AR at slave s=0 addr=0x00000c3c len=15
[TRACE] 255000 R  from slave s=0
[TRACE] 255000 AR at slave s=1 addr=0x00003b04 len=7
[TRACE] 255000 R  from slave s=1
[TRACE] 255000 XBAR S_ARVALID s=1 addr=0x00003b04
UVM_INFO ./uvm/axi_slave_agent.sv(116) @ 265000: uvm_test_top.env.slv_ag1 [TRACE] S[1] SLV AR handshake id=75 addr=0x00003b04 len=7
[TRACE] 265000 W FIFO write m=0 last=0 data=0x92b781cd
[TRACE_XBAR_B] 265000 M side m=0 m_bvalid=0 m_bready=1
[TRACE] 265000 AR at slave s=1 addr=0x00003b04
[TRACE] 265000 S_ARREADY s=0 fifo=1 sid=0 final=0
[TRACE] 265000 S_ARREADY s=1 fifo=1 sid=0 final=0
[TRACE] 265000 S_ARREADY s=2 fifo=1 sid=0 final=0
[TRACE] 265000 S_ARREADY s=3 fifo=1 sid=0 final=0
[TRACE] 265000 R  to master m=0
[TRACE] 265000 W  pre-FIFO m=3
[TRACE] 265000 AR at slave s=1 addr=0x00003b04 len=7
[TRACE] 265000 XBAR S_ARVALID s=1 addr=0x00003b04
[TRACE_C4K] 265000 W m_vld=1 m_rdy=1 s_vld=1 s_rdy=1 slast=0
[TRACE_C4K] 265000 W m_vld=1 m_rdy=1 s_vld=1 s_rdy=1 slast=0
[TRACE_C4K] 265000 W m_vld=1 m_rdy=1 s_vld=1 s_rdy=1 slast=0
[TRACE_C4K] 265000 W m_vld=1 m_rdy=1 s_vld=1 s_rdy=1 slast=0
UVM_INFO ./uvm/axi_slave_agent.sv(69) @ 275000: uvm_test_top.env.slv_ag0 [TRACE] S[0] SLV W beat data=0x16613ae1 last=0
UVM_INFO ./uvm/axi_slave_agent.sv(116) @ 275000: uvm_test_top.env.slv_ag1 [TRACE] S[1] SLV AR handshake id=75 addr=0x00003b04 len=7
[TRACE] 275000 W FIFO read m=0 last=0 data=0x92b781cd
[TRACE] 275000 W at slave s=0 last=0 data=0x16613ae1
[TRACE_XBAR_B] 275000 M side m=0 m_bvalid=0 m_bready=1
[TRACE] 275000 AR at slave s=1 addr=0x00003b04
[TRACE] 275000 S_ARREADY s=0 fifo=1 sid=0 final=0
[TRACE] 275000 S_ARREADY s=1 fifo=1 sid=0 final=0
[TRACE] 275000 S_ARREADY s=2 fifo=1 sid=0 final=0
[TRACE] 275000 S_ARREADY s=3 fifo=1 sid=0 final=0
[TRACE] 275000 W  pre-FIFO m=0
[TRACE] 275000 R  to master m=0
[TRACE] 275000 W  pre-FIFO m=1
[TRACE] 275000 W  pre-FIFO m=2
[TRACE] 275000 W  pre-FIFO m=3
[TRACE] 275000 W  at slave s=0
[TRACE] 275000 R  from slave s=0
[TRACE] 275000 AR at slave s=1 addr=0x00003b04 len=7
[TRACE] 275000 R  from slave s=1
[TRACE] 275000 XBAR S_ARVALID s=1 addr=0x00003b04
UVM_INFO ./uvm/axi_slave_agent.sv(116) @ 285000: uvm_test_top.env.slv_ag1 [TRACE] S[1] SLV AR handshake id=75 addr=0x00003b04 len=7
[TRACE] 285000 W FIFO write m=0 last=0 data=0x447041c2
[TRACE_XBAR_B] 285000 M side m=0 m_bvalid=0 m_bready=1
[TRACE] 285000 AR at slave s=1 addr=0x00003b04
[TRACE] 285000 S_ARREADY s=0 fifo=1 sid=0 final=0
[TRACE] 285000 S_ARREADY s=1 fifo=1 sid=0 final=0
[TRACE] 285000 S_ARREADY s=2 fifo=1 sid=0 final=0
[TRACE] 285000 S_ARREADY s=3 fifo=1 sid=0 final=0
[TRACE] 285000 R  to master m=0
[TRACE] 285000 AR at slave s=1 addr=0x00003b04 len=7
[TRACE] 285000 XBAR S_ARVALID s=1 addr=0x00003b04
[TRACE_C4K] 285000 W m_vld=1 m_rdy=1 s_vld=1 s_rdy=1 slast=0
[TRACE_C4K] 285000 W m_vld=1 m_rdy=1 s_vld=1 s_rdy=1 slast=1
[TRACE_C4K] 285000 W m_vld=1 m_rdy=1 s_vld=1 s_rdy=1 slast=0
[TRACE_C4K] 285000 W m_vld=1 m_rdy=1 s_vld=1 s_rdy=1 slast=0
UVM_INFO ./uvm/axi_driver.sv(138) @ 290000: uvm_test_top.env.mst_ag1.drv_m1 [TRACE_W] M[1] DRV W Burst complete for ID=8
UVM_INFO ./uvm/axi_slave_agent.sv(69) @ 295000: uvm_test_top.env.slv_ag0 [TRACE] S[0] SLV W beat data=0x92b781cd last=0
UVM_INFO ./uvm/axi_slave_agent.sv(116) @ 295000: uvm_test_top.env.slv_ag1 [TRACE] S[1] SLV AR handshake id=75 addr=0x00003b04 len=7
[TRACE] 295000 W FIFO read m=0 last=0 data=0x447041c2
[TRACE] 295000 W at slave s=0 last=0 data=0x92b781cd
[TRACE_XBAR_B] 295000 M side m=0 m_bvalid=0 m_bready=1
[TRACE] 295000 AR at slave s=1 addr=0x00003b04
[TRACE] 295000 S_ARREADY s=0 fifo=1 sid=0 final=0
[TRACE] 295000 S_ARREADY s=1 fifo=1 sid=0 final=0
[TRACE] 295000 S_ARREADY s=2 fifo=1 sid=0 final=0
[TRACE] 295000 S_ARREADY s=3 fifo=1 sid=0 final=0
[TRACE] 295000 W  pre-FIFO m=0
[TRACE] 295000 R  to master m=0
[TRACE] 295000 W  pre-FIFO m=1
[TRACE] 295000 W  pre-FIFO m=2
[TRACE] 295000 W  pre-FIFO m=3
[TRACE] 295000 W  at slave s=0
[TRACE] 295000 R  from slave s=0
[TRACE] 295000 AR at slave s=1 addr=0x00003b04 len=7
[TRACE] 295000 R  from slave s=1
[TRACE] 295000 XBAR S_ARVALID s=1 addr=0x00003b04
UVM_INFO ./uvm/axi_slave_agent.sv(116) @ 305000: uvm_test_top.env.slv_ag1 [TRACE] S[1] SLV AR handshake id=75 addr=0x00003b04 len=7
[TRACE] 305000 W FIFO write m=0 last=0 data=0x495d7c0a
[TRACE_XBAR_B] 305000 M side m=0 m_bvalid=0 m_bready=1
[TRACE] 305000 AR at slave s=1 addr=0x00003b04
[TRACE] 305000 S_ARREADY s=0 fifo=1 sid=0 final=0
[TRACE] 305000 S_ARREADY s=1 fifo=1 sid=0 final=0
[TRACE] 305000 S_ARREADY s=2 fifo=1 sid=0 final=0
[TRACE] 305000 S_ARREADY s=3 fifo=1 sid=0 final=0
[TRACE] 305000 R  to master m=0
[TRACE] 305000 AR at slave s=1 addr=0x00003b04 len=7
[TRACE] 305000 XBAR S_ARVALID s=1 addr=0x00003b04
[TRACE_C4K] 305000 W m_vld=1 m_rdy=1 s_vld=1 s_rdy=1 slast=0
[TRACE_C4K] 305000 W m_vld=1 m_rdy=1 s_vld=1 s_rdy=1 slast=1
[TRACE_C4K] 305000 W m_vld=1 m_rdy=1 s_vld=1 s_rdy=1 slast=0
[TRACE_C4K] 305000 W m_vld=1 m_rdy=1 s_vld=1 s_rdy=1 slast=0
UVM_INFO ./uvm/axi_driver.sv(138) @ 310000: uvm_test_top.env.mst_ag1.drv_m1 [TRACE_W] M[1] DRV W Burst complete for ID=10
UVM_INFO ./uvm/axi_slave_agent.sv(69) @ 315000: uvm_test_top.env.slv_ag0 [TRACE] S[0] SLV W beat data=0x447041c2 last=0
UVM_INFO ./uvm/axi_slave_agent.sv(116) @ 315000: uvm_test_top.env.slv_ag1 [TRACE] S[1] SLV AR handshake id=75 addr=0x00003b04 len=7
[TRACE] 315000 W FIFO read m=0 last=0 data=0x495d7c0a
[TRACE] 315000 W at slave s=0 last=0 data=0x447041c2
[TRACE_XBAR_B] 315000 M side m=0 m_bvalid=0 m_bready=1
[TRACE] 315000 AR at slave s=1 addr=0x00003b04
[TRACE] 315000 S_ARREADY s=0 fifo=1 sid=0 final=0
[TRACE] 315000 S_ARREADY s=1 fifo=1 sid=0 final=0
[TRACE] 315000 S_ARREADY s=2 fifo=1 sid=0 final=0
[TRACE] 315000 S_ARREADY s=3 fifo=1 sid=0 final=0
[TRACE] 315000 W  pre-FIFO m=0
[TRACE] 315000 R  to master m=0
[TRACE] 315000 W  pre-FIFO m=1
[TRACE] 315000 W  pre-FIFO m=2
[TRACE] 315000 W  pre-FIFO m=3
[TRACE] 315000 W  at slave s=0
[TRACE] 315000 R  from slave s=0
[TRACE] 315000 AR at slave s=1 addr=0x00003b04 len=7
[TRACE] 315000 R  from slave s=1
[TRACE] 315000 XBAR S_ARVALID s=1 addr=0x00003b04
UVM_INFO ./uvm/axi_slave_agent.sv(116) @ 325000: uvm_test_top.env.slv_ag1 [TRACE] S[1] SLV AR handshake id=75 addr=0x00003b04 len=7
[TRACE] 325000 W FIFO write m=0 last=0 data=0x952f7815
[TRACE_XBAR_B] 325000 M side m=0 m_bvalid=0 m_bready=1
[TRACE] 325000 AR at slave s=1 addr=0x00003b04
[TRACE] 325000 S_ARREADY s=0 fifo=1 sid=0 final=0
[TRACE] 325000 S_ARREADY s=1 fifo=1 sid=0 final=0
[TRACE] 325000 S_ARREADY s=2 fifo=1 sid=0 final=0
[TRACE] 325000 S_ARREADY s=3 fifo=1 sid=0 final=0
[TRACE] 325000 R  to master m=0
[TRACE] 325000 AR at slave s=1 addr=0x00003b04 len=7
[TRACE] 325000 XBAR S_ARVALID s=1 addr=0x00003b04
[TRACE_C4K] 325000 W m_vld=1 m_rdy=1 s_vld=1 s_rdy=1 slast=0
[TRACE_C4K] 325000 W m_vld=1 m_rdy=1 s_vld=1 s_rdy=1 slast=0
[TRACE_C4K] 325000 W m_vld=1 m_rdy=1 s_vld=1 s_rdy=1 slast=0
UVM_INFO ./uvm/axi_slave_agent.sv(69) @ 335000: uvm_test_top.env.slv_ag0 [TRACE] S[0] SLV W beat data=0x495d7c0a last=0
UVM_INFO ./uvm/axi_slave_agent.sv(116) @ 335000: uvm_test_top.env.slv_ag1 [TRACE] S[1] SLV AR handshake id=75 addr=0x00003b04 len=7
[TRACE] 335000 W FIFO read m=0 last=0 data=0x952f7815
[TRACE] 335000 W at slave s=0 last=0 data=0x495d7c0a
[TRACE_XBAR_B] 335000 M side m=0 m_bvalid=0 m_bready=1
[TRACE] 335000 AR at slave s=1 addr=0x00003b04
[TRACE] 335000 S_ARREADY s=0 fifo=1 sid=0 final=0
[TRACE] 335000 S_ARREADY s=1 fifo=1 sid=0 final=0
[TRACE] 335000 S_ARREADY s=2 fifo=1 sid=0 final=0
[TRACE] 335000 S_ARREADY s=3 fifo=1 sid=0 final=0
[TRACE] 335000 W  pre-FIFO m=0
[TRACE] 335000 R  to master m=0
[TRACE] 335000 W  pre-FIFO m=2
[TRACE] 335000 W  pre-FIFO m=3
[TRACE] 335000 W  at slave s=0
[TRACE] 335000 R  from slave s=0
[TRACE] 335000 AR at slave s=1 addr=0x00003b04 len=7
[TRACE] 335000 R  from slave s=1
[TRACE] 335000 XBAR S_ARVALID s=1 addr=0x00003b04
UVM_INFO ./uvm/axi_slave_agent.sv(116) @ 345000: uvm_test_top.env.slv_ag1 [TRACE] S[1] SLV AR handshake id=75 addr=0x00003b04 len=7
[TRACE] 345000 W FIFO write m=0 last=0 data=0x2bf88d41
[TRACE_XBAR_B] 345000 M side m=0 m_bvalid=0 m_bready=1
[TRACE] 345000 AR at slave s=1 addr=0x00003b04
[TRACE] 345000 S_ARREADY s=0 fifo=1 sid=0 final=0
[TRACE] 345000 S_ARREADY s=1 fifo=1 sid=0 final=0
[TRACE] 345000 S_ARREADY s=2 fifo=1 sid=0 final=0
[TRACE] 345000 S_ARREADY s=3 fifo=1 sid=0 final=0
[TRACE] 345000 R  to master m=0
[TRACE] 345000 AR at slave s=1 addr=0x00003b04 len=7
[TRACE] 345000 XBAR S_ARVALID s=1 addr=0x00003b04
[TRACE_C4K] 345000 W m_vld=1 m_rdy=1 s_vld=1 s_rdy=1 slast=0
[TRACE_C4K] 345000 W m_vld=1 m_rdy=1 s_vld=1 s_rdy=1 slast=0
[TRACE_C4K] 345000 W m_vld=1 m_rdy=1 s_vld=1 s_rdy=1 slast=0
UVM_INFO ./uvm/axi_slave_agent.sv(69) @ 355000: uvm_test_top.env.slv_ag0 [TRACE] S[0] SLV W beat data=0x952f7815 last=0
UVM_INFO ./uvm/axi_slave_agent.sv(116) @ 355000: uvm_test_top.env.slv_ag1 [TRACE] S[1] SLV AR handshake id=75 addr=0x00003b04 len=7
[TRACE] 355000 W FIFO read m=0 last=0 data=0x2bf88d41
[TRACE] 355000 W at slave s=0 last=0 data=0x952f7815
[TRACE_XBAR_B] 355000 M side m=0 m_bvalid=0 m_bready=1
[TRACE] 355000 AR at slave s=1 addr=0x00003b04
[TRACE] 355000 S_ARREADY s=0 fifo=1 sid=0 final=0
[TRACE] 355000 S_ARREADY s=1 fifo=1 sid=0 final=0
[TRACE] 355000 S_ARREADY s=2 fifo=1 sid=0 final=0
[TRACE] 355000 S_ARREADY s=3 fifo=1 sid=0 final=0
[TRACE] 355000 W  pre-FIFO m=0
[TRACE] 355000 R  to master m=0
[TRACE] 355000 W  pre-FIFO m=2
[TRACE] 355000 W  pre-FIFO m=3
[TRACE] 355000 W  at slave s=0
[TRACE] 355000 R  from slave s=0
[TRACE] 355000 AR at slave s=1 addr=0x00003b04 len=7
[TRACE] 355000 R  from slave s=1
[TRACE] 355000 XBAR S_ARVALID s=1 addr=0x00003b04
UVM_INFO ./uvm/axi_slave_agent.sv(116) @ 365000: uvm_test_top.env.slv_ag1 [TRACE] S[1] SLV AR handshake id=75 addr=0x00003b04 len=7
[TRACE] 365000 W FIFO write m=0 last=0 data=0x04056b06
[TRACE_XBAR_B] 365000 M side m=0 m_bvalid=0 m_bready=1
[TRACE] 365000 AR at slave s=1 addr=0x00003b04
[TRACE] 365000 S_ARREADY s=0 fifo=1 sid=0 final=0
[TRACE] 365000 S_ARREADY s=1 fifo=1 sid=0 final=0
[TRACE] 365000 S_ARREADY s=2 fifo=1 sid=0 final=0
[TRACE] 365000 S_ARREADY s=3 fifo=1 sid=0 final=0
[TRACE] 365000 R  to master m=0
[TRACE] 365000 AR at slave s=1 addr=0x00003b04 len=7
[TRACE] 365000 XBAR S_ARVALID s=1 addr=0x00003b04
[TRACE_C4K] 365000 W m_vld=1 m_rdy=1 s_vld=1 s_rdy=1 slast=0
[TRACE_C4K] 365000 W m_vld=1 m_rdy=1 s_vld=1 s_rdy=1 slast=1
[TRACE_C4K] 365000 W m_vld=1 m_rdy=1 s_vld=1 s_rdy=1 slast=0
UVM_INFO ./uvm/axi_driver.sv(138) @ 370000: uvm_test_top.env.mst_ag2.drv_m2 [TRACE_W] M[2] DRV W Burst complete for ID=0
UVM_INFO ./uvm/axi_slave_agent.sv(69) @ 375000: uvm_test_top.env.slv_ag0 [TRACE] S[0] SLV W beat data=0x2bf88d41 last=0
UVM_INFO ./uvm/axi_slave_agent.sv(116) @ 375000: uvm_test_top.env.slv_ag1 [TRACE] S[1] SLV AR handshake id=75 addr=0x00003b04 len=7
[TRACE] 375000 W FIFO read m=0 last=0 data=0x04056b06
[TRACE] 375000 W at slave s=0 last=0 data=0x2bf88d41
[TRACE_XBAR_B] 375000 M side m=0 m_bvalid=0 m_bready=1
[TRACE] 375000 AR at slave s=1 addr=0x00003b04
[TRACE] 375000 S_ARREADY s=0 fifo=1 sid=0 final=0
[TRACE] 375000 S_ARREADY s=1 fifo=1 sid=0 final=0
[TRACE] 375000 S_ARREADY s=2 fifo=1 sid=0 final=0
[TRACE] 375000 S_ARREADY s=3 fifo=1 sid=0 final=0
[TRACE] 375000 W  pre-FIFO m=0
[TRACE] 375000 R  to master m=0
[TRACE] 375000 W  pre-FIFO m=2
[TRACE] 375000 W  pre-FIFO m=3
[TRACE] 375000 W  at slave s=0
[TRACE] 375000 R  from slave s=0
[TRACE] 375000 AR at slave s=1 addr=0x00003b04 len=7
[TRACE] 375000 R  from slave s=1
[TRACE] 375000 XBAR S_ARVALID s=1 addr=0x00003b04
UVM_INFO ./uvm/axi_slave_agent.sv(116) @ 385000: uvm_test_top.env.slv_ag1 [TRACE] S[1] SLV AR handshake id=75 addr=0x00003b04 len=7
[TRACE] 385000 W FIFO write m=0 last=0 data=0x32e5fdfb
[TRACE_XBAR_B] 385000 M side m=0 m_bvalid=0 m_bready=1
[TRACE] 385000 AR at slave s=1 addr=0x00003b04
[TRACE] 385000 S_ARREADY s=0 fifo=1 sid=0 final=0
[TRACE] 385000 S_ARREADY s=1 fifo=1 sid=0 final=0
[TRACE] 385000 S_ARREADY s=2 fifo=1 sid=0 final=0
[TRACE] 385000 S_ARREADY s=3 fifo=1 sid=0 final=0
[TRACE] 385000 R  to master m=0
[TRACE] 385000 AR at slave s=1 addr=0x00003b04 len=7
[TRACE] 385000 XBAR S_ARVALID s=1 addr=0x00003b04
[TRACE_C4K] 385000 W m_vld=1 m_rdy=1 s_vld=1 s_rdy=1 slast=0
[TRACE_C4K] 385000 W m_vld=1 m_rdy=1 s_vld=1 s_rdy=1 slast=0
[TRACE_C4K] 385000 W m_vld=1 m_rdy=1 s_vld=1 s_rdy=1 slast=0
UVM_INFO ./uvm/axi_slave_agent.sv(69) @ 395000: uvm_test_top.env.slv_ag0 [TRACE] S[0] SLV W beat data=0x04056b06 last=0
UVM_INFO ./uvm/axi_slave_agent.sv(116) @ 395000: uvm_test_top.env.slv_ag1 [TRACE] S[1] SLV AR handshake id=75 addr=0x00003b04 len=7
[TRACE] 395000 W FIFO read m=0 last=0 data=0x32e5fdfb
[TRACE] 395000 W at slave s=0 last=0 data=0x04056b06
[TRACE_XBAR_B] 395000 M side m=0 m_bvalid=0 m_bready=1
[TRACE] 395000 AR at slave s=1 addr=0x00003b04
[TRACE] 395000 S_ARREADY s=0 fifo=1 sid=0 final=0
[TRACE] 395000 S_ARREADY s=1 fifo=1 sid=0 final=0
[TRACE] 395000 S_ARREADY s=2 fifo=1 sid=0 final=0
[TRACE] 395000 S_ARREADY s=3 fifo=1 sid=0 final=0
[TRACE] 395000 W  pre-FIFO m=0
[TRACE] 395000 R  to master m=0
[TRACE] 395000 W  pre-FIFO m=2
[TRACE] 395000 W  pre-FIFO m=3
[TRACE] 395000 W  at slave s=0
[TRACE] 395000 R  from slave s=0
[TRACE] 395000 AR at slave s=1 addr=0x00003b04 len=7
[TRACE] 395000 R  from slave s=1
[TRACE] 395000 XBAR S_ARVALID s=1 addr=0x00003b04
UVM_INFO ./uvm/axi_slave_agent.sv(116) @ 405000: uvm_test_top.env.slv_ag1 [TRACE] S[1] SLV AR handshake id=75 addr=0x00003b04 len=7
[TRACE] 405000 W FIFO write m=0 last=1 data=0x501a3375
[TRACE_XBAR_B] 405000 M side m=0 m_bvalid=0 m_bready=1
[TRACE] 405000 AR at slave s=1 addr=0x00003b04
[TRACE] 405000 S_ARREADY s=0 fifo=1 sid=0 final=0
[TRACE] 405000 S_ARREADY s=1 fifo=1 sid=0 final=0
[TRACE] 405000 S_ARREADY s=2 fifo=1 sid=0 final=0
[TRACE] 405000 S_ARREADY s=3 fifo=1 sid=0 final=0
[TRACE] 405000 R  to master m=0
[TRACE] 405000 AR at slave s=1 addr=0x00003b04 len=7
[TRACE] 405000 XBAR S_ARVALID s=1 addr=0x00003b04
[TRACE_C4K] 405000 W m_vld=1 m_rdy=1 s_vld=1 s_rdy=1 slast=1
[TRACE_C4K] 405000 W m_vld=1 m_rdy=1 s_vld=1 s_rdy=1 slast=0
[TRACE_C4K] 405000 W m_vld=1 m_rdy=1 s_vld=1 s_rdy=1 slast=0
UVM_INFO ./uvm/axi_driver.sv(138) @ 410000: uvm_test_top.env.mst_ag0.drv_m0 [TRACE_W] M[0] DRV W Burst complete for ID=0
UVM_INFO ./uvm/axi_slave_agent.sv(69) @ 415000: uvm_test_top.env.slv_ag0 [TRACE] S[0] SLV W beat data=0x32e5fdfb last=0
UVM_INFO ./uvm/axi_slave_agent.sv(116) @ 415000: uvm_test_top.env.slv_ag1 [TRACE] S[1] SLV AR handshake id=75 addr=0x00003b04 len=7
[TRACE] 415000 W FIFO read m=0 last=1 data=0x501a3375
[TRACE] 415000 W at slave s=0 last=0 data=0x32e5fdfb
[TRACE_XBAR_B] 415000 M side m=0 m_bvalid=0 m_bready=1
[TRACE] 415000 AR at slave s=1 addr=0x00003b04
[TRACE] 415000 S_ARREADY s=0 fifo=1 sid=0 final=0
[TRACE] 415000 S_ARREADY s=1 fifo=1 sid=0 final=0
[TRACE] 415000 S_ARREADY s=2 fifo=1 sid=0 final=0
[TRACE] 415000 S_ARREADY s=3 fifo=1 sid=0 final=0
[TRACE] 415000 W  pre-FIFO m=0
[TRACE] 415000 R  to master m=0
[TRACE] 415000 W  pre-FIFO m=2
[TRACE] 415000 W  pre-FIFO m=3
[TRACE] 415000 W  at slave s=0
[TRACE] 415000 R  from slave s=0
[TRACE] 415000 AR at slave s=1 addr=0x00003b04 len=7
[TRACE] 415000 R  from slave s=1
[TRACE] 415000 XBAR S_ARVALID s=1 addr=0x00003b04
UVM_INFO ./uvm/axi_slave_agent.sv(116) @ 425000: uvm_test_top.env.slv_ag1 [TRACE] S[1] SLV AR handshake id=75 addr=0x00003b04 len=7
[TRACE] 425000 W FIFO write m=0 last=0 data=0x75aa82ad
[TRACE_XBAR_B] 425000 M side m=0 m_bvalid=0 m_bready=1
[TRACE] 425000 AR at slave s=1 addr=0x00003b04
[TRACE] 425000 S_ARREADY s=0 fifo=1 sid=0 final=0
[TRACE] 425000 S_ARREADY s=1 fifo=1 sid=0 final=0
[TRACE] 425000 S_ARREADY s=2 fifo=1 sid=0 final=0
[TRACE] 425000 S_ARREADY s=3 fifo=1 sid=0 final=0
[TRACE] 425000 R  to master m=0
[TRACE] 425000 AR at slave s=1 addr=0x00003b04 len=7
[TRACE] 425000 XBAR S_ARVALID s=1 addr=0x00003b04
[TRACE_C4K] 425000 W m_vld=1 m_rdy=1 s_vld=1 s_rdy=1 slast=0
[TRACE_C4K] 425000 W m_vld=1 m_rdy=1 s_vld=1 s_rdy=1 slast=0
[TRACE_C4K] 425000 W m_vld=1 m_rdy=1 s_vld=1 s_rdy=1 slast=0
UVM_INFO ./uvm/axi_slave_agent.sv(69) @ 435000: uvm_test_top.env.slv_ag0 [TRACE] S[0] SLV W beat data=0x501a3375 last=1
UVM_INFO ./uvm/axi_slave_agent.sv(116) @ 435000: uvm_test_top.env.slv_ag1 [TRACE] S[1] SLV AR handshake id=75 addr=0x00003b04 len=7
UVM_INFO ./uvm/axi_slave_agent.sv(95) @ 435000: uvm_test_top.env.slv_ag0 [TRACE] S[0] SLV B start id=0 exp=11 act=11
[TRACE] 435000 W FIFO read m=0 last=0 data=0x75aa82ad
[TRACE] 435000 W at slave s=0 last=1 data=0x501a3375
[TRACE_XBAR_B] 435000 M side m=0 m_bvalid=0 m_bready=1
[TRACE] 435000 AR at slave s=1 addr=0x00003b04
[TRACE] 435000 S_ARREADY s=0 fifo=1 sid=0 final=0
[TRACE] 435000 S_ARREADY s=1 fifo=1 sid=0 final=0
[TRACE] 435000 S_ARREADY s=2 fifo=1 sid=0 final=0
[TRACE] 435000 S_ARREADY s=3 fifo=1 sid=0 final=0
[TRACE] 435000 AW pre-FIFO m=0 addr=0x00002764 len=7
[TRACE] 435000 W  pre-FIFO m=0
[TRACE] 435000 R  to master m=0
[TRACE] 435000 W  pre-FIFO m=2
[TRACE] 435000 W  pre-FIFO m=3
[TRACE] 435000 W  at slave s=0
[TRACE] 435000 R  from slave s=0
[TRACE] 435000 AR at slave s=1 addr=0x00003b04 len=7
[TRACE] 435000 R  from slave s=1
[TRACE] 435000 XBAR S_ARVALID s=1 addr=0x00003b04
UVM_INFO ./uvm/axi_slave_agent.sv(49) @ 445000: uvm_test_top.env.slv_ag1 [TRACE] S[1] SLV AW handshake id=2 addr=0x00002764 len=7
UVM_INFO ./uvm/axi_slave_agent.sv(116) @ 445000: uvm_test_top.env.slv_ag1 [TRACE] S[1] SLV AR handshake id=75 addr=0x00003b04 len=7
[TRACE] 445000 W FIFO write m=0 last=0 data=0x2db08c6a
[TRACE_XBAR_B] 445000 M side m=0 m_bvalid=0 m_bready=1
[TRACE] 445000 B slave handshake s=0 id=0x00
[TRACE] 445000 AR at slave s=1 addr=0x00003b04
[TRACE] 445000 S_ARREADY s=0 fifo=1 sid=0 final=0
[TRACE] 445000 S_ARREADY s=1 fifo=1 sid=0 final=0
[TRACE] 445000 S_ARREADY s=2 fifo=1 sid=0 final=0
[TRACE] 445000 S_ARREADY s=3 fifo=1 sid=0 final=0
[TRACE] 445000 R  to master m=0
[TRACE] 445000 B  from slave s=0
[TRACE] 445000 AW at slave s=1 addr=0x00002764 len=7
[TRACE] 445000 AR at slave s=1 addr=0x00003b04 len=7
[TRACE] 445000 XBAR S_ARVALID s=1 addr=0x00003b04
[TRACE_C4K] 445000 W m_vld=1 m_rdy=1 s_vld=1 s_rdy=1 slast=0
[TRACE_C4K] 445000 W m_vld=1 m_rdy=1 s_vld=1 s_rdy=1 slast=0
[TRACE_C4K] 445000 W m_vld=1 m_rdy=1 s_vld=1 s_rdy=1 slast=1
UVM_INFO ./uvm/axi_driver.sv(138) @ 450000: uvm_test_top.env.mst_ag3.drv_m3 [TRACE_W] M[3] DRV W Burst complete for ID=8
UVM_INFO ./uvm/axi_slave_agent.sv(69) @ 455000: uvm_test_top.env.slv_ag0 [TRACE] S[0] SLV W beat data=0x9deedaf8 last=0
UVM_INFO ./uvm/axi_slave_agent.sv(69) @ 455000: uvm_test_top.env.slv_ag1 [TRACE] S[1] SLV W beat data=0x75aa82ad last=0
UVM_INFO ./uvm/axi_slave_agent.sv(116) @ 455000: uvm_test_top.env.slv_ag1 [TRACE] S[1] SLV AR handshake id=75 addr=0x00003b04 len=7
[TRACE] 455000 W FIFO read m=0 last=0 data=0x2db08c6a
[TRACE] 455000 W at slave s=0 last=0 data=0x9deedaf8
[TRACE_XBAR_B] 455000 S side s=0 s_bvalid=1 s_bready=1
[TRACE_XBAR_B] 455000 M side m=0 m_bvalid=1 m_bready=1
[TRACE] 455000 B pre-FIFO out s=0 id=0x00
[TRACE] 455000 B post-FIFO out m=0 id=0x00
[TRACE] 455000 AR at slave s=1 addr=0x00003b04
[TRACE] 455000 S_ARREADY s=0 fifo=1 sid=0 final=0
[TRACE] 455000 S_ARREADY s=1 fifo=1 sid=0 final=0
[TRACE] 455000 S_ARREADY s=2 fifo=1 sid=0 final=0
[TRACE] 455000 S_ARREADY s=3 fifo=1 sid=0 final=0
[TRACE] 455000 W  pre-FIFO m=0
[TRACE] 455000 B  to master m=0
[TRACE] 455000 R  to master m=0
[TRACE] 455000 W  pre-FIFO m=2
[TRACE] 455000 W  pre-FIFO m=3
[TRACE] 455000 W  at slave s=0
[TRACE] 455000 R  from slave s=0
[TRACE] 455000 W  at slave s=1
[TRACE] 455000 AR at slave s=1 addr=0x00003b04 len=7
[TRACE] 455000 R  from slave s=1
[TRACE] 455000 XBAR S_ARVALID s=1 addr=0x00003b04
UVM_INFO ./uvm/axi_slave_agent.sv(134) @ 460000: uvm_test_top.env.slv_ag0 [TRACE] S[0] SLV R start id=9 len=10
UVM_INFO ./uvm/axi_slave_agent.sv(116) @ 465000: uvm_test_top.env.slv_ag1 [TRACE] S[1] SLV AR handshake id=75 addr=0x00003b04 len=7
UVM_INFO ./uvm/axi_driver.sv(169) @ 465000: uvm_test_top.env.mst_ag0.drv_m0 [TRACE_B] M[0] DRV B captured resp=0 for ID=0
UVM_INFO @ 465000: uvm_test_top.env.mst_ag0.sqr_m0 [Sequencer] Dropping response for sequence 2, sequence not found.  Probable cause: sequence exited or has been killed
[TRACE] 465000 W FIFO write m=0 last=0 data=0x024f935d
[TRACE] 465000 B merge in m=0 id=0x00 resp=00
[TRACE] 465000 B merge out m=0 id=0x00 resp=00
[TRACE_XBAR_B] 465000 M side m=0 m_bvalid=0 m_bready=1
[TRACE] 465000 AR at slave s=1 addr=0x00003b04
[TRACE] 465000 S_ARREADY s=0 fifo=1 sid=0 final=0
[TRACE] 465000 S_ARREADY s=1 fifo=1 sid=0 final=0
[TRACE] 465000 S_ARREADY s=2 fifo=1 sid=0 final=0
[TRACE] 465000 S_ARREADY s=3 fifo=1 sid=0 final=0
[TRACE] 465000 R  to master m=0
[TRACE] 465000 AR at slave s=1 addr=0x00003b04 len=7
[TRACE] 465000 XBAR S_ARVALID s=1 addr=0x00003b04
[TRACE_C4K] 465000 W m_vld=1 m_rdy=1 s_vld=1 s_rdy=1 slast=0
[TRACE_C4K] 465000 W m_vld=1 m_rdy=1 s_vld=1 s_rdy=1 slast=1
[TRACE_C4K] 465000 W m_vld=1 m_rdy=1 s_vld=1 s_rdy=1 slast=0
UVM_INFO ./uvm/axi_driver.sv(138) @ 470000: uvm_test_top.env.mst_ag2.drv_m2 [TRACE_W] M[2] DRV W Burst complete for ID=2
UVM_INFO ./uvm/axi_slave_agent.sv(69) @ 475000: uvm_test_top.env.slv_ag1 [TRACE] S[1] SLV W beat data=0x2db08c6a last=0
UVM_INFO ./uvm/axi_slave_agent.sv(116) @ 475000: uvm_test_top.env.slv_ag1 [TRACE] S[1] SLV AR handshake id=75 addr=0x00003b04 len=7
[TRACE] 475000 W FIFO read m=0 last=0 data=0x024f935d
[TRACE_XBAR_B] 475000 M side m=0 m_bvalid=0 m_bready=1
[TRACE] 475000 AR at slave s=1 addr=0x00003b04
[TRACE] 475000 S_ARREADY s=0 fifo=1 sid=0 final=0
[TRACE] 475000 S_ARREADY s=1 fifo=1 sid=0 final=0
[TRACE] 475000 S_ARREADY s=2 fifo=1 sid=0 final=0
[TRACE] 475000 S_ARREADY s=3 fifo=1 sid=0 final=0
[TRACE] 475000 W  pre-FIFO m=0
[TRACE] 475000 R  to master m=0
[TRACE] 475000 W  pre-FIFO m=2
[TRACE] 475000 W  pre-FIFO m=3
[TRACE] 475000 R  from slave s=0
[TRACE] 475000 W  at slave s=1
[TRACE] 475000 AR at slave s=1 addr=0x00003b04 len=7
[TRACE] 475000 R  from slave s=1
[TRACE] 475000 XBAR S_ARVALID s=1 addr=0x00003b04
UVM_INFO ./uvm/axi_slave_agent.sv(116) @ 485000: uvm_test_top.env.slv_ag1 [TRACE] S[1] SLV AR handshake id=75 addr=0x00003b04 len=7
UVM_INFO @ 485000: uvm_test_top.env.mst_ag0.sqr_m0 [Sequencer] Dropping response for sequence 3, sequence not found.  Probable cause: sequence exited or has been killed
[TRACE] 485000 W FIFO write m=0 last=0 data=0x7dbf7bd3
[TRACE_XBAR_B] 485000 M side m=0 m_bvalid=0 m_bready=1
[TRACE] 485000 AR at slave s=1 addr=0x00003b04
[TRACE] 485000 S_ARREADY s=0 fifo=1 sid=0 final=0
[TRACE] 485000 S_ARREADY s=1 fifo=1 sid=0 final=0
[TRACE] 485000 S_ARREADY s=2 fifo=1 sid=0 final=0
[TRACE] 485000 S_ARREADY s=3 fifo=1 sid=0 final=0
[TRACE] 485000 R  to master m=0
[TRACE] 485000 R  to master m=1
[TRACE] 485000 AR at slave s=1 addr=0x00003b04 len=7
[TRACE] 485000 XBAR S_ARVALID s=1 addr=0x00003b04
[TRACE_C4K] 485000 W m_vld=1 m_rdy=1 s_vld=1 s_rdy=1 slast=0
[TRACE_C4K] 485000 W m_vld=1 m_rdy=1 s_vld=1 s_rdy=1 slast=0
UVM_INFO ./uvm/axi_slave_agent.sv(69) @ 495000: uvm_test_top.env.slv_ag1 [TRACE] S[1] SLV W beat data=0x024f935d last=0
UVM_INFO ./uvm/axi_slave_agent.sv(116) @ 495000: uvm_test_top.env.slv_ag1 [TRACE] S[1] SLV AR handshake id=75 addr=0x00003b04 len=7
[TRACE] 495000 W FIFO read m=0 last=0 data=0x7dbf7bd3
[TRACE_XBAR_B] 495000 M side m=0 m_bvalid=0 m_bready=1
[TRACE] 495000 AR at slave s=1 addr=0x00003b04
[TRACE] 495000 AR pre-FIFO out m=1 addr=0x00003b04
[TRACE] 495000 W  pre-FIFO m=0
[TRACE] 495000 AR pre-FIFO m=1 addr=0x00003b04 len=7
[TRACE] 495000 W  pre-FIFO m=3
[TRACE] 495000 R  from slave s=0
[TRACE] 495000 W  at slave s=1
[TRACE] 495000 AR at slave s=1 addr=0x00003b04 len=7
[TRACE] 495000 R  from slave s=1
[TRACE] 495000 XBAR S_ARVALID s=1 addr=0x00003b04
UVM_ERROR ./uvm/axi_scoreboard.sv(284) @ 495000: uvm_test_top.env.sb [DATA] M[1] addr=0x00000398 exp=0xb696e277 act=0x9deedaf8
UVM_INFO ./uvm/axi_slave_agent.sv(116) @ 505000: uvm_test_top.env.slv_ag1 [TRACE] S[1] SLV AR handshake id=75 addr=0x00003b04 len=7
[TRACE] 505000 W FIFO write m=0 last=0 data=0x2d1e7e64
[TRACE_XBAR_B] 505000 M side m=0 m_bvalid=0 m_bready=1
[TRACE] 505000 AR at slave s=1 addr=0x00003b04
[TRACE] 505000 AR pre-FIFO vld m=1 vld=0 rdy=0
[TRACE] 505000 S_ARREADY s=0 fifo=1 sid=0 final=0
[TRACE] 505000 S_ARREADY s=1 fifo=1 sid=0 final=0
[TRACE] 505000 S_ARREADY s=2 fifo=1 sid=0 final=0
[TRACE] 505000 S_ARREADY s=3 fifo=1 sid=0 final=0
[TRACE] 505000 R  to master m=0
[TRACE] 505000 R  to master m=1
[TRACE] 505000 AR at slave s=1 addr=0x00003b04 len=7
[TRACE] 505000 XBAR S_ARVALID s=1 addr=0x00003aa8
[TRACE_C4K] 505000 W m_vld=1 m_rdy=1 s_vld=1 s_rdy=1 slast=0
[TRACE_C4K] 505000 W m_vld=1 m_rdy=1 s_vld=1 s_rdy=1 slast=0
UVM_INFO ./uvm/axi_slave_agent.sv(69) @ 515000: uvm_test_top.env.slv_ag1 [TRACE] S[1] SLV W beat data=0x7dbf7bd3 last=0
UVM_INFO ./uvm/axi_slave_agent.sv(116) @ 515000: uvm_test_top.env.slv_ag1 [TRACE] S[1] SLV AR handshake id=131 addr=0x00003aa8 len=10
[TRACE] 515000 W FIFO read m=0 last=0 data=0x2d1e7e64
[TRACE_XBAR_B] 515000 M side m=0 m_bvalid=0 m_bready=1
[TRACE] 515000 AR at slave s=1 addr=0x00003aa8
[TRACE] 515000 S_ARREADY s=0 fifo=1 sid=0 final=0
[TRACE] 515000 S_ARREADY s=1 fifo=1 sid=0 final=0
[TRACE] 515000 S_ARREADY s=2 fifo=1 sid=0 final=0
[TRACE] 515000 S_ARREADY s=3 fifo=1 sid=0 final=0
[TRACE] 515000 W  pre-FIFO m=0
[TRACE] 515000 W  pre-FIFO m=3
[TRACE] 515000 R  from slave s=0
[TRACE] 515000 W  at slave s=1
[TRACE] 515000 AR at slave s=1 addr=0x00003aa8 len=10
[TRACE] 515000 R  from slave s=1
[TRACE] 515000 XBAR S_ARVALID s=1 addr=0x00003aa8
UVM_ERROR ./uvm/axi_scoreboard.sv(284) @ 515000: uvm_test_top.env.sb [DATA] M[1] addr=0x0000039c exp=0xa36246f0 act=0xdeadbeef
UVM_INFO ./uvm/axi_slave_agent.sv(116) @ 525000: uvm_test_top.env.slv_ag1 [TRACE] S[1] SLV AR handshake id=131 addr=0x00003aa8 len=10
[TRACE] 525000 W FIFO write m=0 last=0 data=0x79127440
[TRACE_XBAR_B] 525000 M side m=0 m_bvalid=0 m_bready=1
[TRACE] 525000 AR at slave s=1 addr=0x00003aa8
[TRACE] 525000 S_ARREADY s=0 fifo=1 sid=0 final=0
[TRACE] 525000 S_ARREADY s=1 fifo=1 sid=0 final=0
[TRACE] 525000 S_ARREADY s=2 fifo=1 sid=0 final=0
[TRACE] 525000 S_ARREADY s=3 fifo=1 sid=0 final=0
[TRACE] 525000 R  to master m=0
[TRACE] 525000 R  to master m=1
[TRACE] 525000 AR at slave s=1 addr=0x00003aa8 len=10
[TRACE] 525000 XBAR S_ARVALID s=1 addr=0x00003aa8
[TRACE_C4K] 525000 W m_vld=1 m_rdy=1 s_vld=1 s_rdy=1 slast=0
[TRACE_C4K] 525000 W m_vld=1 m_rdy=1 s_vld=1 s_rdy=1 slast=0
UVM_INFO ./uvm/axi_slave_agent.sv(69) @ 535000: uvm_test_top.env.slv_ag1 [TRACE] S[1] SLV W beat data=0x2d1e7e64 last=0
UVM_INFO ./uvm/axi_slave_agent.sv(116) @ 535000: uvm_test_top.env.slv_ag1 [TRACE] S[1] SLV AR handshake id=131 addr=0x00003aa8 len=10
[TRACE] 535000 W FIFO read m=0 last=0 data=0x79127440
[TRACE_XBAR_B] 535000 M side m=0 m_bvalid=0 m_bready=1
[TRACE] 535000 AR at slave s=1 addr=0x00003aa8
[TRACE] 535000 S_ARREADY s=0 fifo=1 sid=0 final=0
[TRACE] 535000 S_ARREADY s=1 fifo=1 sid=0 final=0
[TRACE] 535000 S_ARREADY s=2 fifo=1 sid=0 final=0
[TRACE] 535000 S_ARREADY s=3 fifo=1 sid=0 final=0
[TRACE] 535000 W  pre-FIFO m=0
[TRACE] 535000 W  pre-FIFO m=3
[TRACE] 535000 R  from slave s=0
[TRACE] 535000 W  at slave s=1
[TRACE] 535000 AR at slave s=1 addr=0x00003aa8 len=10
[TRACE] 535000 R  from slave s=1
[TRACE] 535000 XBAR S_ARVALID s=1 addr=0x00003aa8
UVM_ERROR ./uvm/axi_scoreboard.sv(284) @ 535000: uvm_test_top.env.sb [DATA] M[1] addr=0x000003a0 exp=0x16613ae1 act=0xdeadbeef
UVM_INFO ./uvm/axi_slave_agent.sv(134) @ 540000: uvm_test_top.env.slv_ag1 [TRACE] S[1] SLV R start id=11 len=7
UVM_INFO ./uvm/axi_slave_agent.sv(116) @ 545000: uvm_test_top.env.slv_ag1 [TRACE] S[1] SLV AR handshake id=131 addr=0x00003aa8 len=10
[TRACE] 545000 W FIFO write m=0 last=0 data=0x5955eeeb
[TRACE_XBAR_B] 545000 M side m=0 m_bvalid=0 m_bready=1
[TRACE] 545000 AR at slave s=1 addr=0x00003aa8
[TRACE] 545000 S_ARREADY s=0 fifo=1 sid=0 final=0
[TRACE] 545000 S_ARREADY s=1 fifo=1 sid=0 final=0
[TRACE] 545000 S_ARREADY s=2 fifo=1 sid=0 final=0
[TRACE] 545000 S_ARREADY s=3 fifo=1 sid=0 final=0
[TRACE] 545000 R  to master m=0
[TRACE] 545000 R  to master m=1
[TRACE] 545000 AR at slave s=1 addr=0x00003aa8 len=10
[TRACE] 545000 XBAR S_ARVALID s=1 addr=0x00003aa8
[TRACE_C4K] 545000 W m_vld=1 m_rdy=1 s_vld=1 s_rdy=1 slast=0
[TRACE_C4K] 545000 W m_vld=1 m_rdy=1 s_vld=1 s_rdy=1 slast=0
UVM_INFO ./uvm/axi_slave_agent.sv(69) @ 555000: uvm_test_top.env.slv_ag1 [TRACE] S[1] SLV W beat data=0x79127440 last=0
UVM_INFO ./uvm/axi_slave_agent.sv(116) @ 555000: uvm_test_top.env.slv_ag1 [TRACE] S[1] SLV AR handshake id=131 addr=0x00003aa8 len=10
UVM_INFO @ 555000: uvm_test_top.env.mst_ag0.sqr_m0 [Sequencer] Dropping response for sequence 5, sequence not found.  Probable cause: sequence exited or has been killed
[TRACE] 555000 W FIFO read m=0 last=0 data=0x5955eeeb
[TRACE_XBAR_B] 555000 M side m=0 m_bvalid=0 m_bready=1
[TRACE] 555000 AR at slave s=1 addr=0x00003aa8
[TRACE] 555000 S_ARREADY s=0 fifo=1 sid=0 final=0
[TRACE] 555000 S_ARREADY s=1 fifo=1 sid=0 final=0
[TRACE] 555000 S_ARREADY s=2 fifo=1 sid=0 final=0
[TRACE] 555000 S_ARREADY s=3 fifo=1 sid=0 final=0
[TRACE] 555000 W  pre-FIFO m=0
[TRACE] 555000 W  pre-FIFO m=3
[TRACE] 555000 R  from slave s=0
[TRACE] 555000 W  at slave s=1
[TRACE] 555000 AR at slave s=1 addr=0x00003aa8 len=10
[TRACE] 555000 R  from slave s=1
[TRACE] 555000 XBAR S_ARVALID s=1 addr=0x00003aa8
UVM_ERROR ./uvm/axi_scoreboard.sv(284) @ 555000: uvm_test_top.env.sb [DATA] M[1] addr=0x000003a4 exp=0x92b781cd act=0xdeadbeef
UVM_INFO ./uvm/axi_slave_agent.sv(116) @ 565000: uvm_test_top.env.slv_ag1 [TRACE] S[1] SLV AR handshake id=131 addr=0x00003aa8 len=10
[TRACE] 565000 W FIFO write m=0 last=1 data=0x0f739404
[TRACE_XBAR_B] 565000 M side m=0 m_bvalid=0 m_bready=1
[TRACE] 565000 AR at slave s=1 addr=0x00003aa8
[TRACE] 565000 S_ARREADY s=0 fifo=1 sid=0 final=0
[TRACE] 565000 S_ARREADY s=1 fifo=1 sid=0 final=0
[TRACE] 565000 S_ARREADY s=2 fifo=1 sid=0 final=0
[TRACE] 565000 S_ARREADY s=3 fifo=1 sid=0 final=0
[TRACE] 565000 R  to master m=1
[TRACE] 565000 AR at slave s=1 addr=0x00003aa8 len=10
[TRACE] 565000 XBAR S_ARVALID s=1 addr=0x00003aa8
[TRACE_C4K] 565000 W m_vld=1 m_rdy=1 s_vld=1 s_rdy=1 slast=1
[TRACE_C4K] 565000 W m_vld=1 m_rdy=1 s_vld=1 s_rdy=1 slast=0
UVM_INFO ./uvm/axi_driver.sv(138) @ 570000: uvm_test_top.env.mst_ag0.drv_m0 [TRACE_W] M[0] DRV W Burst complete for ID=2
UVM_INFO ./uvm/axi_slave_agent.sv(69) @ 575000: uvm_test_top.env.slv_ag1 [TRACE] S[1] SLV W beat data=0x5955eeeb last=0
UVM_INFO ./uvm/axi_slave_agent.sv(116) @ 575000: uvm_test_top.env.slv_ag1 [TRACE] S[1] SLV AR handshake id=131 addr=0x00003aa8 len=10
[TRACE] 575000 W FIFO read m=0 last=1 data=0x0f739404
[TRACE_XBAR_B] 575000 M side m=0 m_bvalid=0 m_bready=1
[TRACE] 575000 AR at slave s=1 addr=0x00003aa8
[TRACE] 575000 S_ARREADY s=0 fifo=1 sid=0 final=0
[TRACE] 575000 S_ARREADY s=1 fifo=1 sid=0 final=0
[TRACE] 575000 S_ARREADY s=2 fifo=1 sid=0 final=0
[TRACE] 575000 S_ARREADY s=3 fifo=1 sid=0 final=0
[TRACE] 575000 W  pre-FIFO m=0
[TRACE] 575000 R  to master m=1
[TRACE] 575000 W  pre-FIFO m=3
[TRACE] 575000 R  from slave s=0
[TRACE] 575000 W  at slave s=1
[TRACE] 575000 AR at slave s=1 addr=0x00003aa8 len=10
[TRACE] 575000 R  from slave s=1
[TRACE] 575000 XBAR S_ARVALID s=1 addr=0x00003aa8
UVM_ERROR ./uvm/axi_scoreboard.sv(284) @ 575000: uvm_test_top.env.sb [DATA] M[1] addr=0x000003a8 exp=0x447041c2 act=0xdeadbeef
UVM_INFO ./uvm/axi_slave_agent.sv(116) @ 585000: uvm_test_top.env.slv_ag1 [TRACE] S[1] SLV AR handshake id=131 addr=0x00003aa8 len=10
[TRACE_XBAR_B] 585000 M side m=0 m_bvalid=0 m_bready=1
[TRACE] 585000 AR at slave s=1 addr=0x00003aa8
[TRACE] 585000 S_ARREADY s=0 fifo=1 sid=0 final=0
[TRACE] 585000 S_ARREADY s=1 fifo=1 sid=0 final=0
[TRACE] 585000 S_ARREADY s=2 fifo=1 sid=0 final=0
[TRACE] 585000 S_ARREADY s=3 fifo=1 sid=0 final=0
[TRACE] 585000 R  to master m=1
[TRACE] 585000 AR at slave s=1 addr=0x00003aa8 len=10
[TRACE] 585000 XBAR S_ARVALID s=1 addr=0x00003aa8
[TRACE_C4K] 585000 W m_vld=1 m_rdy=1 s_vld=1 s_rdy=1 slast=0
UVM_INFO ./uvm/axi_slave_agent.sv(69) @ 595000: uvm_test_top.env.slv_ag1 [TRACE] S[1] SLV W beat data=0x0f739404 last=1
UVM_INFO ./uvm/axi_slave_agent.sv(116) @ 595000: uvm_test_top.env.slv_ag1 [TRACE] S[1] SLV AR handshake id=131 addr=0x00003aa8 len=10
UVM_INFO ./uvm/axi_slave_agent.sv(95) @ 595000: uvm_test_top.env.slv_ag1 [TRACE] S[1] SLV B start id=2 exp=8 act=8
[TRACE_XBAR_B] 595000 M side m=0 m_bvalid=0 m_bready=1
[TRACE] 595000 AR at slave s=1 addr=0x00003aa8
[TRACE] 595000 S_ARREADY s=0 fifo=1 sid=0 final=0
[TRACE] 595000 S_ARREADY s=1 fifo=1 sid=0 final=0
[TRACE] 595000 S_ARREADY s=2 fifo=1 sid=0 final=0
[TRACE] 595000 S_ARREADY s=3 fifo=1 sid=0 final=0
[TRACE] 595000 R  to master m=1
[TRACE] 595000 W  pre-FIFO m=3
[TRACE] 595000 R  from slave s=0
[TRACE] 595000 W  at slave s=1
[TRACE] 595000 AR at slave s=1 addr=0x00003aa8 len=10
[TRACE] 595000 R  from slave s=1
[TRACE] 595000 XBAR S_ARVALID s=1 addr=0x00003aa8
UVM_INFO ./uvm/axi_slave_agent.sv(116) @ 605000: uvm_test_top.env.slv_ag1 [TRACE] S[1] SLV AR handshake id=131 addr=0x00003aa8 len=10
[TRACE_XBAR_B] 605000 M side m=0 m_bvalid=0 m_bready=1
[TRACE] 605000 AR at slave s=1 addr=0x00003aa8
[TRACE] 605000 S_ARREADY s=0 fifo=1 sid=0 final=0
[TRACE] 605000 S_ARREADY s=1 fifo=1 sid=0 final=0
[TRACE] 605000 S_ARREADY s=2 fifo=1 sid=0 final=0
[TRACE] 605000 S_ARREADY s=3 fifo=1 sid=0 final=0
[TRACE] 605000 R  to master m=1
[TRACE] 605000 B  from slave s=1
[TRACE] 605000 AR at slave s=1 addr=0x00003aa8 len=10
[TRACE] 605000 XBAR S_ARVALID s=1 addr=0x00003aa8
[TRACE_C4K] 605000 W m_vld=1 m_rdy=1 s_vld=1 s_rdy=1 slast=0
UVM_ERROR ./uvm/axi_scoreboard.sv(284) @ 605000: uvm_test_top.env.sb [DATA] M[1] addr=0x000003ac exp=0x495d7c0a act=0xdeadbeef
UVM_INFO ./uvm/axi_slave_agent.sv(116) @ 615000: uvm_test_top.env.slv_ag1 [TRACE] S[1] SLV AR handshake id=131 addr=0x00003aa8 len=10
[TRACE_XBAR_B] 615000 M side m=0 m_bvalid=1 m_bready=1
[TRACE] 615000 B post-FIFO out m=0 id=0x02
[TRACE] 615000 AR at slave s=1 addr=0x00003aa8
[TRACE] 615000 S_ARREADY s=0 fifo=1 sid=0 final=0
[TRACE] 615000 S_ARREADY s=1 fifo=1 sid=0 final=0
[TRACE] 615000 S_ARREADY s=2 fifo=1 sid=0 final=0
[TRACE] 615000 S_ARREADY s=3 fifo=1 sid=0 final=0
[TRACE] 615000 B  to master m=0
[TRACE] 615000 R  to master m=1
[TRACE] 615000 W  pre-FIFO m=3
[TRACE] 615000 R  from slave s=0
[TRACE] 615000 AR at slave s=1 addr=0x00003aa8 len=10
[TRACE] 615000 R  from slave s=1
[TRACE] 615000 XBAR S_ARVALID s=1 addr=0x00003aa8
UVM_ERROR ./uvm/axi_scoreboard.sv(284) @ 615000: uvm_test_top.env.sb [DATA] M[1] addr=0x000003b0 exp=0x952f7815 act=0xdeadbeef
UVM_INFO ./uvm/axi_slave_agent.sv(116) @ 625000: uvm_test_top.env.slv_ag1 [TRACE] S[1] SLV AR handshake id=131 addr=0x00003aa8 len=10
UVM_INFO ./uvm/axi_driver.sv(169) @ 625000: uvm_test_top.env.mst_ag0.drv_m0 [TRACE_B] M[0] DRV B captured resp=0 for ID=2
UVM_INFO @ 625000: uvm_test_top.env.mst_ag0.sqr_m0 [Sequencer] Dropping response for sequence 4, sequence not found.  Probable cause: sequence exited or has been killed
[TRACE] 625000 B merge in m=0 id=0x02 resp=00
[TRACE] 625000 B merge out m=0 id=0x02 resp=00
[TRACE_XBAR_B] 625000 M side m=0 m_bvalid=0 m_bready=1
[TRACE] 625000 AR at slave s=1 addr=0x00003aa8
[TRACE] 625000 S_ARREADY s=0 fifo=1 sid=0 final=0
[TRACE] 625000 S_ARREADY s=1 fifo=1 sid=0 final=0
[TRACE] 625000 S_ARREADY s=2 fifo=1 sid=0 final=0
[TRACE] 625000 S_ARREADY s=3 fifo=1 sid=0 final=0
[TRACE] 625000 R  to master m=1
[TRACE] 625000 AR at slave s=1 addr=0x00003aa8 len=10
[TRACE] 625000 XBAR S_ARVALID s=1 addr=0x00003aa8
[TRACE_C4K] 625000 W m_vld=1 m_rdy=1 s_vld=1 s_rdy=1 slast=0
UVM_INFO ./uvm/axi_slave_agent.sv(116) @ 635000: uvm_test_top.env.slv_ag1 [TRACE] S[1] SLV AR handshake id=131 addr=0x00003aa8 len=10
[TRACE_XBAR_B] 635000 M side m=0 m_bvalid=0 m_bready=1
[TRACE] 635000 AR at slave s=1 addr=0x00003aa8
[TRACE] 635000 S_ARREADY s=0 fifo=1 sid=0 final=0
[TRACE] 635000 S_ARREADY s=1 fifo=1 sid=0 final=0
[TRACE] 635000 S_ARREADY s=2 fifo=1 sid=0 final=0
[TRACE] 635000 S_ARREADY s=3 fifo=1 sid=0 final=0
[TRACE] 635000 R  to master m=1
[TRACE] 635000 W  pre-FIFO m=3
[TRACE] 635000 R  from slave s=0
[TRACE] 635000 AR at slave s=1 addr=0x00003aa8 len=10
[TRACE] 635000 R  from slave s=1
[TRACE] 635000 XBAR S_ARVALID s=1 addr=0x00003aa8
UVM_INFO ./uvm/axi_slave_agent.sv(116) @ 645000: uvm_test_top.env.slv_ag1 [TRACE] S[1] SLV AR handshake id=131 addr=0x00003aa8 len=10
[TRACE_XBAR_B] 645000 M side m=0 m_bvalid=0 m_bready=1
[TRACE] 645000 AR at slave s=1 addr=0x00003aa8
[TRACE] 645000 S_ARREADY s=0 fifo=1 sid=0 final=0
[TRACE] 645000 S_ARREADY s=1 fifo=1 sid=0 final=0
[TRACE] 645000 S_ARREADY s=2 fifo=1 sid=0 final=0
[TRACE] 645000 S_ARREADY s=3 fifo=1 sid=0 final=0
[TRACE] 645000 R  to master m=1
[TRACE] 645000 AR at slave s=1 addr=0x00003aa8 len=10
[TRACE] 645000 XBAR S_ARVALID s=1 addr=0x00003aa8
[TRACE_C4K] 645000 W m_vld=1 m_rdy=1 s_vld=1 s_rdy=1 slast=0
UVM_ERROR ./uvm/axi_scoreboard.sv(284) @ 645000: uvm_test_top.env.sb [DATA] M[1] addr=0x000003b4 exp=0x2bf88d41 act=0xdeadbeef
UVM_INFO ./uvm/axi_slave_agent.sv(116) @ 655000: uvm_test_top.env.slv_ag1 [TRACE] S[1] SLV AR handshake id=131 addr=0x00003aa8 len=10
[TRACE_XBAR_B] 655000 M side m=0 m_bvalid=0 m_bready=1
[TRACE] 655000 AR at slave s=1 addr=0x00003aa8
[TRACE] 655000 S_ARREADY s=0 fifo=1 sid=0 final=0
[TRACE] 655000 S_ARREADY s=1 fifo=1 sid=0 final=0
[TRACE] 655000 S_ARREADY s=2 fifo=1 sid=0 final=0
[TRACE] 655000 S_ARREADY s=3 fifo=1 sid=0 final=0
[TRACE] 655000 R  to master m=1
[TRACE] 655000 W  pre-FIFO m=3
[TRACE] 655000 R  from slave s=0
[TRACE] 655000 AR at slave s=1 addr=0x00003aa8 len=10
[TRACE] 655000 R  from slave s=1
[TRACE] 655000 XBAR S_ARVALID s=1 addr=0x00003aa8
UVM_ERROR ./uvm/axi_scoreboard.sv(284) @ 655000: uvm_test_top.env.sb [DATA] M[1] addr=0x000003b8 exp=0x04056b06 act=0xdeadbeef
UVM_INFO ./uvm/axi_slave_agent.sv(116) @ 665000: uvm_test_top.env.slv_ag1 [TRACE] S[1] SLV AR handshake id=131 addr=0x00003aa8 len=10
[TRACE_XBAR_B] 665000 M side m=0 m_bvalid=0 m_bready=1
[TRACE] 665000 AR at slave s=1 addr=0x00003aa8
[TRACE] 665000 S_ARREADY s=0 fifo=1 sid=0 final=0
[TRACE] 665000 S_ARREADY s=1 fifo=1 sid=0 final=0
[TRACE] 665000 S_ARREADY s=2 fifo=1 sid=0 final=0
[TRACE] 665000 S_ARREADY s=3 fifo=1 sid=0 final=0
[TRACE] 665000 R  to master m=1
[TRACE] 665000 AR at slave s=1 addr=0x00003aa8 len=10
[TRACE] 665000 XBAR S_ARVALID s=1 addr=0x00003aa8
[TRACE_C4K] 665000 W m_vld=1 m_rdy=1 s_vld=1 s_rdy=1 slast=0
UVM_INFO ./uvm/axi_slave_agent.sv(116) @ 675000: uvm_test_top.env.slv_ag1 [TRACE] S[1] SLV AR handshake id=131 addr=0x00003aa8 len=10
[TRACE_XBAR_B] 675000 M side m=0 m_bvalid=0 m_bready=1
[TRACE] 675000 AR at slave s=1 addr=0x00003aa8
[TRACE] 675000 S_ARREADY s=0 fifo=1 sid=0 final=0
[TRACE] 675000 S_ARREADY s=1 fifo=1 sid=0 final=0
[TRACE] 675000 S_ARREADY s=2 fifo=1 sid=0 final=0
[TRACE] 675000 S_ARREADY s=3 fifo=1 sid=0 final=0
[TRACE] 675000 R  to master m=1
[TRACE] 675000 W  pre-FIFO m=3
[TRACE] 675000 R  from slave s=0
[TRACE] 675000 AR at slave s=1 addr=0x00003aa8 len=10
[TRACE] 675000 R  from slave s=1
[TRACE] 675000 XBAR S_ARVALID s=1 addr=0x00003aa8
UVM_INFO ./uvm/axi_slave_agent.sv(134) @ 680000: uvm_test_top.env.slv_ag0 [TRACE] S[0] SLV R start id=1 len=8
UVM_INFO ./uvm/axi_slave_agent.sv(116) @ 685000: uvm_test_top.env.slv_ag1 [TRACE] S[1] SLV AR handshake id=131 addr=0x00003aa8 len=10
[TRACE_XBAR_B] 685000 M side m=0 m_bvalid=0 m_bready=1
[TRACE] 685000 AR at slave s=1 addr=0x00003aa8
[TRACE] 685000 S_ARREADY s=0 fifo=1 sid=0 final=0
[TRACE] 685000 S_ARREADY s=1 fifo=1 sid=0 final=0
[TRACE] 685000 S_ARREADY s=2 fifo=1 sid=0 final=0
[TRACE] 685000 S_ARREADY s=3 fifo=1 sid=0 final=0
[TRACE] 685000 R  to master m=1
[TRACE] 685000 AR at slave s=1 addr=0x00003aa8 len=10
[TRACE] 685000 XBAR S_ARVALID s=1 addr=0x00003aa8
[TRACE_C4K] 685000 W m_vld=1 m_rdy=1 s_vld=1 s_rdy=1 slast=1
UVM_ERROR ./uvm/axi_scoreboard.sv(284) @ 685000: uvm_test_top.env.sb [DATA] M[1] addr=0x000003bc exp=0x32e5fdfb act=0xdeadbeef
UVM_INFO ./uvm/axi_driver.sv(138) @ 690000: uvm_test_top.env.mst_ag3.drv_m3 [TRACE_W] M[3] DRV W Burst complete for ID=10
UVM_INFO ./uvm/axi_slave_agent.sv(116) @ 695000: uvm_test_top.env.slv_ag1 [TRACE] S[1] SLV AR handshake id=131 addr=0x00003aa8 len=10
UVM_INFO @ 695000: uvm_test_top.env.mst_ag1.sqr_m1 [Sequencer] Dropping response for sequence 11, sequence not found.  Probable cause: sequence exited or has been killed
[TRACE_XBAR_B] 695000 M side m=0 m_bvalid=0 m_bready=1
[TRACE] 695000 AR at slave s=1 addr=0x00003aa8
[TRACE] 695000 S_ARREADY s=0 fifo=1 sid=0 final=0
[TRACE] 695000 S_ARREADY s=1 fifo=1 sid=0 final=0
[TRACE] 695000 S_ARREADY s=2 fifo=1 sid=0 final=0
[TRACE] 695000 S_ARREADY s=3 fifo=1 sid=0 final=0
[TRACE] 695000 R  to master m=1
[TRACE] 695000 W  pre-FIFO m=3
[TRACE] 695000 R  from slave s=0
[TRACE] 695000 AR at slave s=1 addr=0x00003aa8 len=10
[TRACE] 695000 R  from slave s=1
[TRACE] 695000 XBAR S_ARVALID s=1 addr=0x00003aa8
UVM_ERROR ./uvm/axi_scoreboard.sv(284) @ 695000: uvm_test_top.env.sb [DATA] M[1] addr=0x000003c0 exp=0x501a3375 act=0xdeadbeef
UVM_INFO ./uvm/axi_slave_agent.sv(134) @ 700000: uvm_test_top.env.slv_ag1 [TRACE] S[1] SLV R start id=11 len=7
UVM_INFO ./uvm/axi_slave_agent.sv(116) @ 705000: uvm_test_top.env.slv_ag1 [TRACE] S[1] SLV AR handshake id=131 addr=0x00003aa8 len=10
[TRACE_XBAR_B] 705000 M side m=0 m_bvalid=0 m_bready=1
[TRACE] 705000 AR at slave s=1 addr=0x00003aa8
[TRACE] 705000 AR pre-FIFO out m=2 addr=0x00003aa8
[TRACE] 705000 R  to master m=1
[TRACE] 705000 AR pre-FIFO m=2 addr=0x00003aa8 len=10
[TRACE] 705000 R  to master m=2
[TRACE] 705000 AR at slave s=1 addr=0x00003aa8 len=10
[TRACE] 705000 XBAR S_ARVALID s=1 addr=0x00003aa8
UVM_INFO ./uvm/axi_slave_agent.sv(116) @ 715000: uvm_test_top.env.slv_ag1 [TRACE] S[1] SLV AR handshake id=131 addr=0x00003aa8 len=10
UVM_INFO @ 715000: uvm_test_top.env.mst_ag1.sqr_m1 [Sequencer] Dropping response for sequence 13, sequence not found.  Probable cause: sequence exited or has been killed
[TRACE_XBAR_B] 715000 M side m=0 m_bvalid=0 m_bready=1
[TRACE] 715000 AR at slave s=1 addr=0x00003aa8
[TRACE] 715000 AR pre-FIFO vld m=2 vld=0 rdy=0
[TRACE] 715000 S_ARREADY s=0 fifo=1 sid=0 final=0
[TRACE] 715000 S_ARREADY s=1 fifo=1 sid=0 final=0
[TRACE] 715000 S_ARREADY s=2 fifo=1 sid=0 final=0
[TRACE] 715000 S_ARREADY s=3 fifo=1 sid=0 final=0
[TRACE] 715000 R  from slave s=0
[TRACE] 715000 AR at slave s=1 addr=0x00003aa8 len=10
[TRACE] 715000 R  from slave s=1
[TRACE] 715000 XBAR S_ARVALID s=1 addr=0x00003edc
UVM_INFO ./uvm/axi_slave_agent.sv(116) @ 725000: uvm_test_top.env.slv_ag1 [TRACE] S[1] SLV AR handshake id=203 addr=0x00003edc len=9
[TRACE_XBAR_B] 725000 M side m=0 m_bvalid=0 m_bready=1
[TRACE] 725000 AR at slave s=1 addr=0x00003edc
[TRACE] 725000 AR pre-FIFO out m=3 addr=0x00003edc
[TRACE] 725000 R  to master m=1
[TRACE] 725000 R  to master m=2
[TRACE] 725000 AR pre-FIFO m=3 addr=0x00003edc len=9
[TRACE] 725000 AR at slave s=1 addr=0x00003edc len=9
[TRACE] 725000 XBAR S_ARVALID s=1 addr=0x00003edc
UVM_ERROR ./uvm/axi_protocol_checker.sv(155) @ 735000: uvm_test_top.env.proto_chk [PROT_ERR_ORPHAN_R] Protocol Violation: R Beat detected on M[1] but no matching AR request exists!
UVM_INFO ./uvm/axi_slave_agent.sv(116) @ 735000: uvm_test_top.env.slv_ag1 [TRACE] S[1] SLV AR handshake id=203 addr=0x00003edc len=9
UVM_ERROR ./uvm/axi_driver.sv(261) @ 735000: uvm_test_top.env.mst_ag1.drv_m1 [DRIVER_R] M[1] Protocol Violation: Unexpected R data with RID=0xb
[TRACE_XBAR_B] 735000 M side m=0 m_bvalid=0 m_bready=1
[TRACE] 735000 AR at slave s=1 addr=0x00003edc
[TRACE] 735000 AR pre-FIFO vld m=3 vld=0 rdy=0
[TRACE] 735000 S_ARREADY s=0 fifo=1 sid=0 final=0
[TRACE] 735000 S_ARREADY s=1 fifo=1 sid=0 final=0
[TRACE] 735000 S_ARREADY s=2 fifo=1 sid=0 final=0
[TRACE] 735000 S_ARREADY s=3 fifo=1 sid=0 final=0
[TRACE] 735000 R  from slave s=0
[TRACE] 735000 AR at slave s=1 addr=0x00003edc len=9
[TRACE] 735000 R  from slave s=1
UVM_ERROR ./uvm/axi_scoreboard.sv(277) @ 735000: uvm_test_top.env.sb [DATA] R beat with no matching AR
UVM_ERROR ./uvm/axi_scoreboard.sv(387) @ 735000: uvm_test_top.env.sb [RESP] RID mismatch M[1] id=11
[TRACE_XBAR_B] 745000 M side m=0 m_bvalid=0 m_bready=1
[TRACE] 745000 S_ARREADY s=0 fifo=1 sid=0 final=0
[TRACE] 745000 S_ARREADY s=1 fifo=1 sid=0 final=0
[TRACE] 745000 S_ARREADY s=2 fifo=1 sid=0 final=0
[TRACE] 745000 S_ARREADY s=3 fifo=1 sid=0 final=0
[TRACE] 745000 R  to master m=1
[TRACE] 745000 R  to master m=2
UVM_ERROR ./uvm/axi_protocol_checker.sv(155) @ 755000: uvm_test_top.env.proto_chk [PROT_ERR_ORPHAN_R] Protocol Violation: R Beat detected on M[1] but no matching AR request exists!
UVM_ERROR ./uvm/axi_driver.sv(261) @ 755000: uvm_test_top.env.mst_ag1.drv_m1 [DRIVER_R] M[1] Protocol Violation: Unexpected R data with RID=0xb
[TRACE_XBAR_B] 755000 M side m=0 m_bvalid=0 m_bready=1
[TRACE] 755000 S_ARREADY s=0 fifo=1 sid=0 final=0
[TRACE] 755000 S_ARREADY s=1 fifo=1 sid=0 final=0
[TRACE] 755000 S_ARREADY s=2 fifo=1 sid=0 final=0
[TRACE] 755000 S_ARREADY s=3 fifo=1 sid=0 final=0
[TRACE] 755000 R  from slave s=0
[TRACE] 755000 R  from slave s=1
UVM_ERROR ./uvm/axi_scoreboard.sv(277) @ 755000: uvm_test_top.env.sb [DATA] R beat with no matching AR
UVM_ERROR ./uvm/axi_scoreboard.sv(387) @ 755000: uvm_test_top.env.sb [RESP] RID mismatch M[1] id=11
[TRACE_XBAR_B] 765000 M side m=0 m_bvalid=0 m_bready=1
[TRACE] 765000 S_ARREADY s=0 fifo=1 sid=0 final=0
[TRACE] 765000 S_ARREADY s=1 fifo=1 sid=0 final=0
[TRACE] 765000 S_ARREADY s=2 fifo=1 sid=0 final=0
[TRACE] 765000 S_ARREADY s=3 fifo=1 sid=0 final=0
[TRACE] 765000 R  to master m=1
[TRACE] 765000 R  to master m=2
UVM_ERROR ./uvm/axi_protocol_checker.sv(155) @ 775000: uvm_test_top.env.proto_chk [PROT_ERR_ORPHAN_R] Protocol Violation: R Beat detected on M[1] but no matching AR request exists!
UVM_ERROR ./uvm/axi_driver.sv(261) @ 775000: uvm_test_top.env.mst_ag1.drv_m1 [DRIVER_R] M[1] Protocol Violation: Unexpected R data with RID=0xb
[TRACE_XBAR_B] 775000 M side m=0 m_bvalid=0 m_bready=1
[TRACE] 775000 S_ARREADY s=0 fifo=1 sid=0 final=0
[TRACE] 775000 S_ARREADY s=1 fifo=1 sid=0 final=0
[TRACE] 775000 S_ARREADY s=2 fifo=1 sid=0 final=0
[TRACE] 775000 S_ARREADY s=3 fifo=1 sid=0 final=0
[TRACE] 775000 R  from slave s=0
[TRACE] 775000 R  from slave s=1
UVM_ERROR ./uvm/axi_scoreboard.sv(277) @ 775000: uvm_test_top.env.sb [DATA] R beat with no matching AR
UVM_ERROR ./uvm/axi_scoreboard.sv(387) @ 775000: uvm_test_top.env.sb [RESP] RID mismatch M[1] id=11
[TRACE_XBAR_B] 785000 M side m=0 m_bvalid=0 m_bready=1
[TRACE] 785000 S_ARREADY s=0 fifo=1 sid=0 final=0
[TRACE] 785000 S_ARREADY s=1 fifo=1 sid=0 final=0
[TRACE] 785000 S_ARREADY s=2 fifo=1 sid=0 final=0
[TRACE] 785000 S_ARREADY s=3 fifo=1 sid=0 final=0
[TRACE] 785000 R  to master m=1
[TRACE] 785000 R  to master m=2
UVM_ERROR ./uvm/axi_protocol_checker.sv(155) @ 795000: uvm_test_top.env.proto_chk [PROT_ERR_ORPHAN_R] Protocol Violation: R Beat detected on M[1] but no matching AR request exists!
UVM_ERROR ./uvm/axi_driver.sv(261) @ 795000: uvm_test_top.env.mst_ag1.drv_m1 [DRIVER_R] M[1] Protocol Violation: Unexpected R data with RID=0xb
[TRACE_XBAR_B] 795000 M side m=0 m_bvalid=0 m_bready=1
[TRACE] 795000 S_ARREADY s=0 fifo=1 sid=0 final=0
[TRACE] 795000 S_ARREADY s=1 fifo=1 sid=0 final=0
[TRACE] 795000 S_ARREADY s=2 fifo=1 sid=0 final=0
[TRACE] 795000 S_ARREADY s=3 fifo=1 sid=0 final=0
[TRACE] 795000 R  from slave s=0
[TRACE] 795000 R  from slave s=1
UVM_ERROR ./uvm/axi_scoreboard.sv(277) @ 795000: uvm_test_top.env.sb [DATA] R beat with no matching AR
UVM_ERROR ./uvm/axi_scoreboard.sv(387) @ 795000: uvm_test_top.env.sb [RESP] RID mismatch M[1] id=11
[TRACE_XBAR_B] 805000 M side m=0 m_bvalid=0 m_bready=1
[TRACE] 805000 S_ARREADY s=0 fifo=1 sid=0 final=0
[TRACE] 805000 S_ARREADY s=1 fifo=1 sid=0 final=0
[TRACE] 805000 S_ARREADY s=2 fifo=1 sid=0 final=0
[TRACE] 805000 S_ARREADY s=3 fifo=1 sid=0 final=0
[TRACE] 805000 R  to master m=1
[TRACE] 805000 R  to master m=2
UVM_ERROR ./uvm/axi_protocol_checker.sv(155) @ 815000: uvm_test_top.env.proto_chk [PROT_ERR_ORPHAN_R] Protocol Violation: R Beat detected on M[1] but no matching AR request exists!
UVM_ERROR ./uvm/axi_driver.sv(261) @ 815000: uvm_test_top.env.mst_ag1.drv_m1 [DRIVER_R] M[1] Protocol Violation: Unexpected R data with RID=0xb
[TRACE_XBAR_B] 815000 M side m=0 m_bvalid=0 m_bready=1
[TRACE] 815000 S_ARREADY s=0 fifo=1 sid=0 final=0
[TRACE] 815000 S_ARREADY s=1 fifo=1 sid=0 final=0
[TRACE] 815000 S_ARREADY s=2 fifo=1 sid=0 final=0
[TRACE] 815000 S_ARREADY s=3 fifo=1 sid=0 final=0
[TRACE] 815000 R  from slave s=0
[TRACE] 815000 R  from slave s=1
UVM_ERROR ./uvm/axi_scoreboard.sv(277) @ 815000: uvm_test_top.env.sb [DATA] R beat with no matching AR
UVM_ERROR ./uvm/axi_scoreboard.sv(387) @ 815000: uvm_test_top.env.sb [RESP] RID mismatch M[1] id=11
[TRACE_XBAR_B] 825000 M side m=0 m_bvalid=0 m_bready=1
[TRACE] 825000 S_ARREADY s=0 fifo=1 sid=0 final=0
[TRACE] 825000 S_ARREADY s=1 fifo=1 sid=0 final=0
[TRACE] 825000 S_ARREADY s=2 fifo=1 sid=0 final=0
[TRACE] 825000 S_ARREADY s=3 fifo=1 sid=0 final=0
[TRACE] 825000 R  to master m=1
[TRACE] 825000 R  to master m=2
UVM_ERROR ./uvm/axi_protocol_checker.sv(155) @ 835000: uvm_test_top.env.proto_chk [PROT_ERR_ORPHAN_R] Protocol Violation: R Beat detected on M[1] but no matching AR request exists!
UVM_ERROR ./uvm/axi_driver.sv(261) @ 835000: uvm_test_top.env.mst_ag1.drv_m1 [DRIVER_R] M[1] Protocol Violation: Unexpected R data with RID=0xb
[TRACE_XBAR_B] 835000 M side m=0 m_bvalid=0 m_bready=1
[TRACE] 835000 S_ARREADY s=0 fifo=1 sid=0 final=0
[TRACE] 835000 S_ARREADY s=1 fifo=1 sid=0 final=0
[TRACE] 835000 S_ARREADY s=2 fifo=1 sid=0 final=0
[TRACE] 835000 S_ARREADY s=3 fifo=1 sid=0 final=0
[TRACE] 835000 R  from slave s=0
[TRACE] 835000 R  from slave s=1
UVM_ERROR ./uvm/axi_scoreboard.sv(277) @ 835000: uvm_test_top.env.sb [DATA] R beat with no matching AR
UVM_ERROR ./uvm/axi_scoreboard.sv(387) @ 835000: uvm_test_top.env.sb [RESP] RID mismatch M[1] id=11
[TRACE_XBAR_B] 845000 M side m=0 m_bvalid=0 m_bready=1
[TRACE] 845000 S_ARREADY s=0 fifo=1 sid=0 final=0
[TRACE] 845000 S_ARREADY s=1 fifo=1 sid=0 final=0
[TRACE] 845000 S_ARREADY s=2 fifo=1 sid=0 final=0
[TRACE] 845000 S_ARREADY s=3 fifo=1 sid=0 final=0
[TRACE] 845000 R  to master m=1
[TRACE] 845000 R  to master m=2
UVM_ERROR ./uvm/axi_protocol_checker.sv(155) @ 855000: uvm_test_top.env.proto_chk [PROT_ERR_ORPHAN_R] Protocol Violation: R Beat detected on M[1] but no matching AR request exists!
UVM_ERROR ./uvm/axi_driver.sv(261) @ 855000: uvm_test_top.env.mst_ag1.drv_m1 [DRIVER_R] M[1] Protocol Violation: Unexpected R data with RID=0xb
[TRACE_XBAR_B] 855000 M side m=0 m_bvalid=0 m_bready=1
[TRACE] 855000 S_ARREADY s=0 fifo=1 sid=0 final=0
[TRACE] 855000 S_ARREADY s=1 fifo=1 sid=0 final=0
[TRACE] 855000 S_ARREADY s=2 fifo=1 sid=0 final=0
[TRACE] 855000 S_ARREADY s=3 fifo=1 sid=0 final=0
[TRACE] 855000 R  from slave s=0
[TRACE] 855000 R  from slave s=1
UVM_ERROR ./uvm/axi_scoreboard.sv(277) @ 855000: uvm_test_top.env.sb [DATA] R beat with no matching AR
UVM_ERROR ./uvm/axi_scoreboard.sv(387) @ 855000: uvm_test_top.env.sb [RESP] RID mismatch M[1] id=11
UVM_INFO ./uvm/axi_slave_agent.sv(134) @ 860000: uvm_test_top.env.slv_ag0 [TRACE] S[0] SLV R start id=9 len=15
UVM_INFO ./uvm/axi_slave_agent.sv(134) @ 860000: uvm_test_top.env.slv_ag1 [TRACE] S[1] SLV R start id=11 len=7
[TRACE_XBAR_B] 865000 M side m=0 m_bvalid=0 m_bready=1
[TRACE] 865000 S_ARREADY s=0 fifo=1 sid=0 final=0
[TRACE] 865000 S_ARREADY s=1 fifo=1 sid=0 final=0
[TRACE] 865000 S_ARREADY s=2 fifo=1 sid=0 final=0
[TRACE] 865000 S_ARREADY s=3 fifo=1 sid=0 final=0
[TRACE] 865000 R  to master m=1
[TRACE] 865000 R  to master m=2
UVM_ERROR ./uvm/axi_protocol_checker.sv(155) @ 875000: uvm_test_top.env.proto_chk [PROT_ERR_ORPHAN_R] Protocol Violation: R Beat detected on M[1] but no matching AR request exists!
UVM_ERROR ./uvm/axi_driver.sv(261) @ 875000: uvm_test_top.env.mst_ag1.drv_m1 [DRIVER_R] M[1] Protocol Violation: Unexpected R data with RID=0xb
UVM_INFO @ 875000: uvm_test_top.env.mst_ag2.sqr_m2 [Sequencer] Dropping response for sequence 19, sequence not found.  Probable cause: sequence exited or has been killed
[TRACE_XBAR_B] 875000 M side m=0 m_bvalid=0 m_bready=1
[TRACE] 875000 S_ARREADY s=0 fifo=1 sid=0 final=0
[TRACE] 875000 S_ARREADY s=1 fifo=1 sid=0 final=0
[TRACE] 875000 S_ARREADY s=2 fifo=1 sid=0 final=0
[TRACE] 875000 S_ARREADY s=3 fifo=1 sid=0 final=0
[TRACE] 875000 R  from slave s=0
[TRACE] 875000 R  from slave s=1
UVM_ERROR ./uvm/axi_scoreboard.sv(277) @ 875000: uvm_test_top.env.sb [DATA] R beat with no matching AR
UVM_ERROR ./uvm/axi_scoreboard.sv(387) @ 875000: uvm_test_top.env.sb [RESP] RID mismatch M[1] id=11
[TRACE_XBAR_B] 885000 M side m=0 m_bvalid=0 m_bready=1
[TRACE] 885000 S_ARREADY s=0 fifo=1 sid=0 final=0
[TRACE] 885000 S_ARREADY s=1 fifo=1 sid=0 final=0
[TRACE] 885000 S_ARREADY s=2 fifo=1 sid=0 final=0
[TRACE] 885000 S_ARREADY s=3 fifo=1 sid=0 final=0
[TRACE] 885000 R  to master m=1
[TRACE] 885000 R  to master m=3
UVM_ERROR ./uvm/axi_protocol_checker.sv(155) @ 895000: uvm_test_top.env.proto_chk [PROT_ERR_ORPHAN_R] Protocol Violation: R Beat detected on M[1] but no matching AR request exists!
UVM_ERROR ./uvm/axi_driver.sv(261) @ 895000: uvm_test_top.env.mst_ag1.drv_m1 [DRIVER_R] M[1] Protocol Violation: Unexpected R data with RID=0xb
[TRACE_XBAR_B] 895000 M side m=0 m_bvalid=0 m_bready=1
[TRACE] 895000 S_ARREADY s=0 fifo=1 sid=0 final=0
[TRACE] 895000 S_ARREADY s=1 fifo=1 sid=0 final=0
[TRACE] 895000 S_ARREADY s=2 fifo=1 sid=0 final=0
[TRACE] 895000 S_ARREADY s=3 fifo=1 sid=0 final=0
[TRACE] 895000 R  from slave s=0
[TRACE] 895000 R  from slave s=1
UVM_ERROR ./uvm/axi_scoreboard.sv(277) @ 895000: uvm_test_top.env.sb [DATA] R beat with no matching AR
UVM_ERROR ./uvm/axi_scoreboard.sv(284) @ 895000: uvm_test_top.env.sb [DATA] M[3] addr=0x00000c3c exp=0x9deedaf8 act=0xdeadbeef
UVM_ERROR ./uvm/axi_scoreboard.sv(387) @ 895000: uvm_test_top.env.sb [RESP] RID mismatch M[1] id=11
[TRACE_XBAR_B] 905000 M side m=0 m_bvalid=0 m_bready=1
[TRACE] 905000 S_ARREADY s=0 fifo=1 sid=0 final=0
[TRACE] 905000 S_ARREADY s=1 fifo=1 sid=0 final=0
[TRACE] 905000 S_ARREADY s=2 fifo=1 sid=0 final=0
[TRACE] 905000 S_ARREADY s=3 fifo=1 sid=0 final=0
[TRACE] 905000 R  to master m=1
[TRACE] 905000 R  to master m=3
UVM_ERROR ./uvm/axi_protocol_checker.sv(155) @ 915000: uvm_test_top.env.proto_chk [PROT_ERR_ORPHAN_R] Protocol Violation: R Beat detected on M[1] but no matching AR request exists!
UVM_ERROR ./uvm/axi_driver.sv(261) @ 915000: uvm_test_top.env.mst_ag1.drv_m1 [DRIVER_R] M[1] Protocol Violation: Unexpected R data with RID=0xb
[TRACE_XBAR_B] 915000 M side m=0 m_bvalid=0 m_bready=1
[TRACE] 915000 S_ARREADY s=0 fifo=1 sid=0 final=0
[TRACE] 915000 S_ARREADY s=1 fifo=1 sid=0 final=0
[TRACE] 915000 S_ARREADY s=2 fifo=1 sid=0 final=0
[TRACE] 915000 S_ARREADY s=3 fifo=1 sid=0 final=0
[TRACE] 915000 R  from slave s=0
[TRACE] 915000 R  from slave s=1
UVM_ERROR ./uvm/axi_scoreboard.sv(277) @ 915000: uvm_test_top.env.sb [DATA] R beat with no matching AR
UVM_ERROR ./uvm/axi_scoreboard.sv(387) @ 915000: uvm_test_top.env.sb [RESP] RID mismatch M[1] id=11
[TRACE_XBAR_B] 925000 M side m=0 m_bvalid=0 m_bready=1
[TRACE] 925000 S_ARREADY s=0 fifo=1 sid=0 final=0
[TRACE] 925000 S_ARREADY s=1 fifo=1 sid=0 final=0
[TRACE] 925000 S_ARREADY s=2 fifo=1 sid=0 final=0
[TRACE] 925000 S_ARREADY s=3 fifo=1 sid=0 final=0
[TRACE] 925000 R  to master m=1
[TRACE] 925000 R  to master m=3
UVM_ERROR ./uvm/axi_protocol_checker.sv(155) @ 935000: uvm_test_top.env.proto_chk [PROT_ERR_ORPHAN_R] Protocol Violation: R Beat detected on M[1] but no matching AR request exists!
UVM_ERROR ./uvm/axi_driver.sv(261) @ 935000: uvm_test_top.env.mst_ag1.drv_m1 [DRIVER_R] M[1] Protocol Violation: Unexpected R data with RID=0xb
[TRACE_XBAR_B] 935000 M side m=0 m_bvalid=0 m_bready=1
[TRACE] 935000 S_ARREADY s=0 fifo=1 sid=0 final=0
[TRACE] 935000 S_ARREADY s=1 fifo=1 sid=0 final=0
[TRACE] 935000 S_ARREADY s=2 fifo=1 sid=0 final=0
[TRACE] 935000 S_ARREADY s=3 fifo=1 sid=0 final=0
[TRACE] 935000 R  from slave s=0
[TRACE] 935000 R  from slave s=1
UVM_ERROR ./uvm/axi_scoreboard.sv(277) @ 935000: uvm_test_top.env.sb [DATA] R beat with no matching AR
UVM_ERROR ./uvm/axi_scoreboard.sv(387) @ 935000: uvm_test_top.env.sb [RESP] RID mismatch M[1] id=11
[TRACE_XBAR_B] 945000 M side m=0 m_bvalid=0 m_bready=1
[TRACE] 945000 S_ARREADY s=0 fifo=1 sid=0 final=0
[TRACE] 945000 S_ARREADY s=1 fifo=1 sid=0 final=0
[TRACE] 945000 S_ARREADY s=2 fifo=1 sid=0 final=0
[TRACE] 945000 S_ARREADY s=3 fifo=1 sid=0 final=0
[TRACE] 945000 R  to master m=1
[TRACE] 945000 R  to master m=3
UVM_ERROR ./uvm/axi_protocol_checker.sv(155) @ 955000: uvm_test_top.env.proto_chk [PROT_ERR_ORPHAN_R] Protocol Violation: R Beat detected on M[1] but no matching AR request exists!
UVM_ERROR ./uvm/axi_driver.sv(261) @ 955000: uvm_test_top.env.mst_ag1.drv_m1 [DRIVER_R] M[1] Protocol Violation: Unexpected R data with RID=0xb
[TRACE_XBAR_B] 955000 M side m=0 m_bvalid=0 m_bready=1
[TRACE] 955000 S_ARREADY s=0 fifo=1 sid=0 final=0
[TRACE] 955000 S_ARREADY s=1 fifo=1 sid=0 final=0
[TRACE] 955000 S_ARREADY s=2 fifo=1 sid=0 final=0
[TRACE] 955000 S_ARREADY s=3 fifo=1 sid=0 final=0
[TRACE] 955000 R  from slave s=0
[TRACE] 955000 R  from slave s=1
UVM_ERROR ./uvm/axi_scoreboard.sv(277) @ 955000: uvm_test_top.env.sb [DATA] R beat with no matching AR
UVM_ERROR ./uvm/axi_scoreboard.sv(387) @ 955000: uvm_test_top.env.sb [RESP] RID mismatch M[1] id=11
[TRACE_XBAR_B] 965000 M side m=0 m_bvalid=0 m_bready=1
[TRACE] 965000 S_ARREADY s=0 fifo=1 sid=0 final=0
[TRACE] 965000 S_ARREADY s=1 fifo=1 sid=0 final=0
[TRACE] 965000 S_ARREADY s=2 fifo=1 sid=0 final=0
[TRACE] 965000 S_ARREADY s=3 fifo=1 sid=0 final=0
[TRACE] 965000 R  to master m=1
[TRACE] 965000 R  to master m=3
UVM_ERROR ./uvm/axi_protocol_checker.sv(155) @ 975000: uvm_test_top.env.proto_chk [PROT_ERR_ORPHAN_R] Protocol Violation: R Beat detected on M[1] but no matching AR request exists!
UVM_ERROR ./uvm/axi_driver.sv(261) @ 975000: uvm_test_top.env.mst_ag1.drv_m1 [DRIVER_R] M[1] Protocol Violation: Unexpected R data with RID=0xb
[TRACE_XBAR_B] 975000 M side m=0 m_bvalid=0 m_bready=1
[TRACE] 975000 S_ARREADY s=0 fifo=1 sid=0 final=0
[TRACE] 975000 S_ARREADY s=1 fifo=1 sid=0 final=0
[TRACE] 975000 S_ARREADY s=2 fifo=1 sid=0 final=0
[TRACE] 975000 S_ARREADY s=3 fifo=1 sid=0 final=0
[TRACE] 975000 R  from slave s=0
[TRACE] 975000 R  from slave s=1
UVM_ERROR ./uvm/axi_scoreboard.sv(277) @ 975000: uvm_test_top.env.sb [DATA] R beat with no matching AR
UVM_ERROR ./uvm/axi_scoreboard.sv(387) @ 975000: uvm_test_top.env.sb [RESP] RID mismatch M[1] id=11
[TRACE_XBAR_B] 985000 M side m=0 m_bvalid=0 m_bready=1
[TRACE] 985000 S_ARREADY s=0 fifo=1 sid=0 final=0
[TRACE] 985000 S_ARREADY s=1 fifo=1 sid=0 final=0
[TRACE] 985000 S_ARREADY s=2 fifo=1 sid=0 final=0
[TRACE] 985000 S_ARREADY s=3 fifo=1 sid=0 final=0
[TRACE] 985000 R  to master m=1
[TRACE] 985000 R  to master m=3
UVM_ERROR ./uvm/axi_protocol_checker.sv(155) @ 995000: uvm_test_top.env.proto_chk [PROT_ERR_ORPHAN_R] Protocol Violation: R Beat detected on M[1] but no matching AR request exists!
UVM_ERROR ./uvm/axi_driver.sv(261) @ 995000: uvm_test_top.env.mst_ag1.drv_m1 [DRIVER_R] M[1] Protocol Violation: Unexpected R data with RID=0xb
[TRACE_XBAR_B] 995000 M side m=0 m_bvalid=0 m_bready=1
[TRACE] 995000 S_ARREADY s=0 fifo=1 sid=0 final=0
[TRACE] 995000 S_ARREADY s=1 fifo=1 sid=0 final=0
[TRACE] 995000 S_ARREADY s=2 fifo=1 sid=0 final=0
[TRACE] 995000 S_ARREADY s=3 fifo=1 sid=0 final=0
[TRACE] 995000 R  from slave s=0
[TRACE] 995000 R  from slave s=1
UVM_ERROR ./uvm/axi_scoreboard.sv(277) @ 995000: uvm_test_top.env.sb [DATA] R beat with no matching AR
UVM_ERROR ./uvm/axi_scoreboard.sv(387) @ 995000: uvm_test_top.env.sb [RESP] RID mismatch M[1] id=11
[TRACE_XBAR_B] 1005000 M side m=0 m_bvalid=0 m_bready=1
[TRACE] 1005000 S_ARREADY s=0 fifo=1 sid=0 final=0
[TRACE] 1005000 S_ARREADY s=1 fifo=1 sid=0 final=0
[TRACE] 1005000 S_ARREADY s=2 fifo=1 sid=0 final=0
[TRACE] 1005000 S_ARREADY s=3 fifo=1 sid=0 final=0
[TRACE] 1005000 R  to master m=1
[TRACE] 1005000 R  to master m=3
UVM_ERROR ./uvm/axi_protocol_checker.sv(155) @ 1015000: uvm_test_top.env.proto_chk [PROT_ERR_ORPHAN_R] Protocol Violation: R Beat detected on M[1] but no matching AR request exists!
UVM_ERROR ./uvm/axi_driver.sv(261) @ 1015000: uvm_test_top.env.mst_ag1.drv_m1 [DRIVER_R] M[1] Protocol Violation: Unexpected R data with RID=0xb
[TRACE_XBAR_B] 1015000 M side m=0 m_bvalid=0 m_bready=1
[TRACE] 1015000 S_ARREADY s=0 fifo=1 sid=0 final=0
[TRACE] 1015000 S_ARREADY s=1 fifo=1 sid=0 final=0
[TRACE] 1015000 S_ARREADY s=2 fifo=1 sid=0 final=0
[TRACE] 1015000 S_ARREADY s=3 fifo=1 sid=0 final=0
[TRACE] 1015000 R  from slave s=0
[TRACE] 1015000 R  from slave s=1
UVM_ERROR ./uvm/axi_scoreboard.sv(277) @ 1015000: uvm_test_top.env.sb [DATA] R beat with no matching AR
UVM_ERROR ./uvm/axi_scoreboard.sv(387) @ 1015000: uvm_test_top.env.sb [RESP] RID mismatch M[1] id=11
UVM_INFO ./uvm/axi_slave_agent.sv(134) @ 1020000: uvm_test_top.env.slv_ag1 [TRACE] S[1] SLV R start id=11 len=7
[TRACE_XBAR_B] 1025000 M side m=0 m_bvalid=0 m_bready=1
[TRACE] 1025000 S_ARREADY s=0 fifo=1 sid=0 final=0
[TRACE] 1025000 S_ARREADY s=1 fifo=1 sid=0 final=0
[TRACE] 1025000 S_ARREADY s=2 fifo=1 sid=0 final=0
[TRACE] 1025000 S_ARREADY s=3 fifo=1 sid=0 final=0
[TRACE] 1025000 R  to master m=1
[TRACE] 1025000 R  to master m=3
UVM_ERROR ./uvm/axi_protocol_checker.sv(155) @ 1035000: uvm_test_top.env.proto_chk [PROT_ERR_ORPHAN_R] Protocol Violation: R Beat detected on M[1] but no matching AR request exists!
UVM_ERROR ./uvm/axi_driver.sv(261) @ 1035000: uvm_test_top.env.mst_ag1.drv_m1 [DRIVER_R] M[1] Protocol Violation: Unexpected R data with RID=0xb
[TRACE_XBAR_B] 1035000 M side m=0 m_bvalid=0 m_bready=1
[TRACE] 1035000 S_ARREADY s=0 fifo=1 sid=0 final=0
[TRACE] 1035000 S_ARREADY s=1 fifo=1 sid=0 final=0
[TRACE] 1035000 S_ARREADY s=2 fifo=1 sid=0 final=0
[TRACE] 1035000 S_ARREADY s=3 fifo=1 sid=0 final=0
[TRACE] 1035000 R  from slave s=0
[TRACE] 1035000 R  from slave s=1
UVM_ERROR ./uvm/axi_scoreboard.sv(277) @ 1035000: uvm_test_top.env.sb [DATA] R beat with no matching AR
UVM_ERROR ./uvm/axi_scoreboard.sv(387) @ 1035000: uvm_test_top.env.sb [RESP] RID mismatch M[1] id=11
[TRACE_XBAR_B] 1045000 M side m=0 m_bvalid=0 m_bready=1
[TRACE] 1045000 S_ARREADY s=0 fifo=1 sid=0 final=0
[TRACE] 1045000 S_ARREADY s=1 fifo=1 sid=0 final=0
[TRACE] 1045000 S_ARREADY s=2 fifo=1 sid=0 final=0
[TRACE] 1045000 S_ARREADY s=3 fifo=1 sid=0 final=0
[TRACE] 1045000 R  to master m=1
[TRACE] 1045000 R  to master m=3
UVM_ERROR ./uvm/axi_protocol_checker.sv(155) @ 1055000: uvm_test_top.env.proto_chk [PROT_ERR_ORPHAN_R] Protocol Violation: R Beat detected on M[1] but no matching AR request exists!
UVM_ERROR ./uvm/axi_driver.sv(261) @ 1055000: uvm_test_top.env.mst_ag1.drv_m1 [DRIVER_R] M[1] Protocol Violation: Unexpected R data with RID=0xb
[TRACE_XBAR_B] 1055000 M side m=0 m_bvalid=0 m_bready=1
[TRACE] 1055000 S_ARREADY s=0 fifo=1 sid=0 final=0
[TRACE] 1055000 S_ARREADY s=1 fifo=1 sid=0 final=0
[TRACE] 1055000 S_ARREADY s=2 fifo=1 sid=0 final=0
[TRACE] 1055000 S_ARREADY s=3 fifo=1 sid=0 final=0
[TRACE] 1055000 R  from slave s=0
[TRACE] 1055000 R  from slave s=1
UVM_ERROR ./uvm/axi_scoreboard.sv(277) @ 1055000: uvm_test_top.env.sb [DATA] R beat with no matching AR
UVM_ERROR ./uvm/axi_scoreboard.sv(387) @ 1055000: uvm_test_top.env.sb [RESP] RID mismatch M[1] id=11
[TRACE_XBAR_B] 1065000 M side m=0 m_bvalid=0 m_bready=1
[TRACE] 1065000 S_ARREADY s=0 fifo=1 sid=0 final=0
[TRACE] 1065000 S_ARREADY s=1 fifo=1 sid=0 final=0
[TRACE] 1065000 S_ARREADY s=2 fifo=1 sid=0 final=0
[TRACE] 1065000 S_ARREADY s=3 fifo=1 sid=0 final=0
[TRACE] 1065000 R  to master m=1
[TRACE] 1065000 R  to master m=3
UVM_ERROR ./uvm/axi_protocol_checker.sv(155) @ 1075000: uvm_test_top.env.proto_chk [PROT_ERR_ORPHAN_R] Protocol Violation: R Beat detected on M[1] but no matching AR request exists!
